!
! C:\Users\Aljaz\OneDrive - Univerza v Ljubljani\DOKTORAT\NOVI SA\IZVOR LMX2491 and STuW81300\meritve\BFP420_one_stage.S2P
!
! Touchstone 1.1 file saved by VNA.EXE V1.65 (www.ke5fx.com/gpib/readme.htm)
! 21. 06. 2022 14:51:20
!
!    Source: HP8510C.07.14: Aug 26  1998 
!  Min freq: 4.500000E+007 Hz
!  Max freq: 6.000000E+009 Hz
!    Points: 801
!    Params: S11 S21 S12 S22
!
!!!!!
# GHZ S DB R 50
0.0450000000000000 1.336547 -68.724188 10.176185 -43.936362 -55.411708 85.664461 1.207226 -45.472351 
0.0524437500000000 1.260368 -77.053219 12.587156 -60.875700 -52.829755 82.933617 1.071977 -54.825783 
0.0598875000000000 1.151171 -84.702691 14.368722 -76.742323 -50.185946 63.346132 0.886071 -63.205459 
0.0673312500000000 0.905319 -92.392241 15.791399 -91.221822 -49.297954 52.125194 0.588226 -71.489600 
0.0747750000000000 0.760139 -99.865809 16.981106 -105.478640 -47.372453 40.406188 0.342700 -79.191802 
0.0822187500000000 0.563122 -106.643675 17.848316 -119.708205 -45.568585 28.682285 0.088866 -86.758344 
0.0896625000000000 0.364855 -113.315931 18.375834 -133.951738 -44.603001 17.689325 -0.215230 -94.154831 
0.0971062500000000 0.154955 -119.653697 18.633553 -147.705853 -43.511861 5.526485 -0.549174 -101.050569 
0.1045500000000000 -0.087670 -125.703378 18.901025 -160.273776 -42.870035 1.146330 -0.903675 -107.701724 
0.1119937500000000 -0.377362 -131.479003 19.278977 -171.509215 -42.246996 -8.569001 -1.280514 -113.683099 
0.1194375000000000 -0.673269 -137.164909 19.739242 177.825766 -41.775174 -18.847239 -1.622386 -118.810795 
0.1268812500000000 -0.896248 -142.363559 20.109650 168.502609 -41.070050 -26.317668 -1.853470 -124.207541 
0.1343250000000000 -1.112424 -147.440552 20.401368 158.992788 -40.558085 -34.042776 -2.148614 -129.501949 
0.1417687500000000 -1.271168 -152.144924 20.524844 149.441385 -40.372956 -40.957347 -2.406791 -134.629723 
0.1492125000000000 -1.391967 -157.270882 20.571692 139.996214 -39.809424 -45.678504 -2.644336 -139.784941 
0.1566562500000000 -1.488726 -162.030381 20.591800 130.323218 -39.357377 -53.522869 -2.871485 -145.059819 
0.1641000000000000 -1.693349 -167.049183 20.658143 120.962868 -38.857405 -60.389115 -3.089233 -150.377996 
0.1715437500000000 -1.819458 -172.771224 20.865392 112.797911 -38.647428 -69.022249 -3.306219 -156.004517 
0.1789875000000000 -1.947568 -178.485712 21.047616 104.699636 -38.257461 -75.059372 -3.487424 -161.445262 
0.1864312500000000 -2.089753 175.598562 21.244336 96.206068 -38.116429 -80.759695 -3.670522 -167.045782 
0.1938750000000000 -2.165202 170.049333 21.257203 88.060687 -37.734506 -87.856779 -3.795292 -172.835705 
0.2013187500000000 -2.195556 164.436843 21.206955 80.119797 -37.422716 -93.946584 -3.883906 -178.698293 
0.2087625000000000 -2.253677 158.665348 21.156709 71.809766 -37.117854 -101.667523 -3.958526 175.289495 
0.2162062500000000 -2.316695 152.868287 21.098594 63.503305 -37.037247 -107.042895 -4.040531 169.327837 
0.2236500000000000 -2.378255 146.700842 20.953936 55.862898 -36.826298 -114.769841 -4.089272 163.196167 
0.2310937500000000 -2.487214 139.857569 21.148392 48.216846 -36.461027 -121.540806 -4.141996 157.187938 
0.2385375000000000 -2.606097 133.148730 21.386968 40.677339 -36.264415 -126.972972 -4.201357 151.320049 
0.2459812500000000 -2.695404 127.157976 21.362463 33.118310 -36.261673 -134.447256 -4.237042 145.594299 
0.2534250000000000 -2.729632 121.334120 21.240024 25.939168 -35.901238 -140.317492 -4.261146 140.004290 
0.2608687500000000 -2.515654 107.226383 21.382366 16.768726 -35.548754 -156.883497 -3.986176 130.329703 
0.2683125000000000 -2.645006 101.156953 21.266622 8.961439 -35.427100 -162.615360 -4.069320 124.630667 
0.2757562500000000 -2.731276 95.785650 21.124050 1.797127 -35.251667 -169.348873 -4.127020 119.112512 
0.2832000000000000 -2.651656 89.755605 21.203396 -4.767282 -34.905044 -175.802000 -4.222026 113.698076 
0.2906437500000000 -2.840541 83.208848 21.332631 -11.651606 -34.817843 179.214636 -4.334792 108.174469 
0.2980875000000000 -2.953529 77.436815 21.347339 -18.639495 -34.783544 172.766818 -4.424368 102.853281 
0.3055312500000000 -2.972779 71.811087 21.297230 -25.289094 -34.612964 168.253781 -4.508694 97.138138 
0.3129750000000000 -2.971134 65.994273 21.231079 -31.879018 -34.382353 162.555161 -4.567933 91.248578 
0.3204187500000000 -2.985521 60.279585 21.132961 -39.157582 -34.193084 156.585938 -4.630723 85.071051 
0.3278625000000000 -3.012292 54.134831 21.062561 -46.346219 -34.107701 151.136605 -4.677030 78.621916 
0.3353062500000000 -3.081865 47.114312 21.154554 -52.982646 -33.976138 144.099126 -4.742478 71.919186 
0.3427500000000000 -3.215298 39.328063 21.310509 -59.809892 -33.713014 136.787618 -4.804410 65.197253 
0.3501937500000000 -3.376647 31.971486 21.403180 -66.852983 -33.534816 132.539714 -4.841915 58.713942 
0.3576375000000000 -3.453156 25.389622 21.340126 -73.580011 -33.433756 126.848353 -4.859227 52.410520 
0.3650812500000000 -3.444547 19.322802 21.203602 -80.034349 -33.357854 120.948494 -4.817619 46.099159 
0.3725250000000000 -3.384335 13.160250 21.077570 -86.716402 -33.152652 115.521881 -4.768810 40.011806 
0.3799687500000000 -3.332437 7.175942 20.980305 -93.545936 -32.920697 109.121001 -4.681710 33.917862 
0.3874125000000000 -3.249452 0.803246 20.911197 -100.295153 -32.953401 102.925115 -4.628760 27.964179 
0.3948562500000000 -3.213868 -6.066508 20.968692 -106.860793 -32.950039 96.200303 -4.603470 21.976830 
0.4023000000000000 -3.221489 -13.025951 21.039825 -113.567847 -32.793893 91.513698 -4.592695 16.407960 
0.4097437500000000 -3.265331 -19.365882 20.996800 -120.238665 -32.815833 85.296893 -4.638290 11.053146 
0.4171875000000000 -3.251418 -25.153898 20.916730 -126.421793 -32.613103 79.905197 -4.662566 6.022779 
0.4246312500000000 -3.242950 -30.871851 20.837719 -132.531048 -32.697486 74.878021 -4.683476 1.124361 
0.4320750000000000 -3.258106 -35.939637 20.726508 -138.816494 -32.514594 68.992810 -4.718595 -3.741385 
0.4395187500000000 -3.244719 -40.853970 20.635422 -144.988594 -32.327753 64.558404 -4.767454 -8.819811 
0.4469625000000000 -3.216525 -46.254370 20.671236 -150.859627 -32.326029 58.854589 -4.821063 -14.095341 
0.4544062500000000 -3.273907 -52.437778 20.810898 -157.172152 -32.127886 52.139727 -4.898718 -19.643079 
0.4618500000000000 -3.372096 -58.652929 20.895037 -163.786633 -32.170480 46.589264 -4.994739 -25.332286 
0.4692937500000000 -3.397612 -64.342674 20.877560 -170.234605 -32.090648 41.170426 -5.088739 -31.232856 
0.4767375000000000 -3.438802 -70.282568 20.815642 -176.654029 -31.925694 35.400530 -5.183157 -37.340213 
0.4841812500000000 -3.508583 -76.013295 20.712520 176.745685 -31.879847 30.350018 -5.279884 -43.593188 
0.4916250000000000 -3.588648 -81.575357 20.608969 170.020117 -31.751853 24.388141 -5.364051 -50.031067 
0.4990687500000000 -3.620400 -87.545473 20.571399 163.391091 -31.675589 18.496577 -5.464179 -56.528269 
0.5065125000000000 -3.751449 -94.458813 20.665188 156.997403 -31.633501 12.422050 -5.577405 -62.916278 
0.5139562500000000 -3.905777 -101.405096 20.754064 150.315568 -31.596066 6.490387 -5.646366 -69.284984 
0.5214000000000000 -4.055812 -107.885460 20.707031 143.673233 -31.483335 1.477997 -5.701039 -75.384939 
0.5288437500000000 -4.051325 -113.741435 20.579125 137.185208 -31.581876 -4.700798 -5.722698 -81.220439 
0.5362875000000000 -4.079459 -119.550622 20.421561 130.766355 -31.484401 -9.331557 -5.740394 -86.937559 
0.5437312500000000 -4.077373 -125.004619 20.285612 124.208898 -31.406760 -15.501374 -5.754318 -92.574992 
0.5511750000000000 -4.180629 -130.827785 20.200041 117.994489 -31.269123 -20.675417 -5.773897 -98.192592 
0.5586187500000001 -4.238115 -137.037614 20.194038 112.114357 -31.098576 -26.334423 -5.780200 -103.693858 
0.5660625000000000 -4.352815 -143.505593 20.242631 106.042558 -31.040247 -31.142136 -5.798074 -109.160394 
0.5735062500000000 -4.487731 -149.908984 20.258295 99.788679 -31.069512 -37.371376 -5.838579 -114.425821 
0.5809500000000000 -4.373036 -155.348713 20.174582 93.624566 -30.975970 -42.628741 -5.857107 -119.955800 
0.5883937500000001 -4.476159 -161.649292 20.141047 87.599045 -30.806549 -47.521353 -5.891977 -125.609379 
0.5958375000000000 -4.547541 -167.734347 20.080680 81.203894 -30.777123 -53.822867 -5.932659 -131.496119 
0.6032812500000000 -4.612914 -173.942899 20.021775 74.777190 -30.660780 -58.734389 -5.988640 -137.703695 
0.6107250000000000 -4.678727 179.376719 20.014082 68.554401 -30.572830 -64.080444 -6.017335 -144.060013 
0.6181687500000000 -4.771619 171.708845 20.103691 62.207212 -30.425564 -70.843126 -6.091399 -150.588570 
0.6256125000000000 -4.889685 163.763623 20.189727 55.626669 -30.366161 -76.509731 -6.160619 -157.128771 
0.6330562500000000 -4.963938 156.416370 20.167950 49.193930 -30.255410 -82.303764 -6.204614 -163.683428 
0.6405000000000000 -4.941571 149.462110 20.103051 42.843234 -30.353442 -88.090185 -6.214706 -170.271066 
0.6479437500000000 -4.893937 142.540032 20.030120 36.453929 -30.096230 -93.759104 -6.206584 -176.806094 
0.6553875000000000 -4.872687 135.892707 19.925278 29.911135 -30.098469 -100.140098 -6.192878 176.662869 
0.6628312500000000 -4.812602 129.429007 19.818986 23.428519 -29.989907 -105.712113 -6.181006 170.178975 
0.6702750000000000 -4.746551 122.663547 19.773888 17.174506 -30.034078 -111.475418 -6.220903 163.957524 
0.6777187500000000 -4.743748 115.970986 19.730766 10.895666 -30.075293 -117.331305 -6.253671 158.170569 
0.6851625000000000 -4.746238 109.883773 19.663261 4.734177 -30.008098 -122.435123 -6.307955 152.748713 
0.6926062500000000 -4.726600 104.623791 19.558678 -1.074428 -29.989736 -128.118839 -6.346252 147.773713 
0.7000500000000000 -4.674312 99.616926 19.450896 -6.624874 -29.950508 -132.801753 -6.351798 143.019292 
0.7074937500000000 -4.634540 94.949075 19.368864 -12.250461 -29.890421 -138.328203 -6.325664 138.173657 
0.7149375000000000 -4.574291 90.378971 19.308627 -17.934871 -29.769847 -143.028130 -6.275334 133.143360 
0.7223812500000000 -4.522979 85.459758 19.331373 -23.680243 -29.653161 -148.533675 -6.251975 127.759534 
0.7298250000000000 -4.531617 79.596076 19.437781 -29.703415 -29.521460 -154.089508 -6.255141 121.998337 
0.7372687500000000 -4.630889 73.312462 19.533802 -36.099424 -29.531430 -160.239581 -6.310964 116.079910 
0.7447125000000000 -4.747507 67.207511 19.536209 -42.523321 -29.415083 -166.453494 -6.395204 110.112255 
0.7521562500000000 -4.875975 61.118971 19.472009 -48.925806 -29.405643 -172.286144 -6.486556 104.113651 
0.7596000000000001 -4.998038 55.254123 19.376862 -55.103151 -29.362922 -177.635712 -6.559892 98.075371 
0.7670437500000000 -5.127515 49.584372 19.252959 -61.245974 -29.303976 177.057785 -6.606280 92.087934 
0.7744875000000000 -5.235906 43.635321 19.183520 -67.264295 -29.241141 171.709126 -6.615011 85.841540 
0.7819312500000000 -5.317253 36.914082 19.224071 -73.323022 -29.253569 164.931504 -6.593058 79.527773 
0.7893750000000001 -5.412910 29.709895 19.263266 -79.458728 -29.105691 159.396522 -6.571072 73.128738 
0.7968187500000000 -5.449190 22.658780 19.265145 -85.797680 -29.025161 153.997195 -6.544218 66.855542 
0.8042625000000000 -5.446100 15.823551 19.223235 -92.135930 -29.053907 148.169057 -6.534142 60.800900 
0.8117062500000000 -5.416919 9.123912 19.126944 -98.522964 -29.060196 142.643486 -6.515759 54.962636 
0.8191500000000000 -5.407803 2.777621 19.028676 -104.929402 -28.959548 136.421117 -6.533527 49.482400 
0.8265937500000000 -5.459980 -3.487172 18.940723 -111.119426 -29.014849 131.018603 -6.547385 44.051459 
0.8340375000000000 -5.483253 -9.390987 18.893001 -117.033345 -28.969940 125.679509 -6.600434 38.937725 
0.8414812500000000 -5.499623 -15.414281 18.903796 -122.815892 -28.909976 120.961660 -6.629704 33.980338 
0.8489250000000000 -5.357241 -30.194164 19.182301 -130.468937 -28.676515 103.382735 -6.393834 25.141275 
0.8563687500000000 -5.361561 -35.924292 19.144271 -136.637512 -28.635971 98.060348 -6.456193 20.089753 
0.8638125000000000 -5.346410 -41.467199 19.102809 -142.833236 -28.492668 91.763775 -6.530210 14.891162 
0.8712562500000000 -5.350790 -47.230312 19.055986 -148.982491 -28.455739 86.207473 -6.620788 9.543337 
0.8787000000000000 -5.293019 -52.481409 18.969828 -155.320122 -28.245686 81.065977 -6.722387 3.889101 
0.8861437500000000 -5.414468 -58.382667 18.938010 -161.535062 -28.251727 74.610062 -6.885448 -2.328202 
0.8935875000000000 -5.612358 -64.881720 18.987110 -167.402656 -28.133442 69.488660 -7.032352 -8.561855 
0.9010312500000000 -5.814722 -71.913341 18.990735 -173.721577 -28.204418 64.305995 -7.201743 -15.330673 
0.9084750000000000 -5.937075 -78.618410 18.963849 -179.946414 -28.174766 58.806634 -7.356322 -22.234605 
0.9159187500000000 -5.998802 -85.476222 18.919863 174.026813 -28.132377 52.777238 -7.440755 -28.943411 
0.9233625000000000 -6.039776 -92.317293 18.878868 167.822319 -27.981917 47.822404 -7.461223 -35.877902 
0.9308062500000000 -6.066514 -98.943021 18.791437 161.612839 -28.054913 41.464113 -7.444455 -42.901974 
0.9382500000000000 -6.096442 -105.623156 18.704165 155.447722 -28.077198 36.158106 -7.398730 -49.907921 
0.9456937500000000 -6.079078 -112.414985 18.662924 149.304309 -27.957630 30.816652 -7.321031 -56.624243 
0.9531375000000000 -6.083454 -119.169904 18.627296 143.294593 -27.991344 25.695495 -7.249226 -63.002577 
0.9605812500000001 -6.067068 -125.510910 18.571512 137.304493 -27.934814 19.214699 -7.187568 -68.935059 
0.9680250000000000 -5.972027 -131.422290 18.507411 131.491735 -27.931598 14.004534 -7.093309 -74.201073 
0.9754687500000000 -5.868276 -136.967308 18.431372 125.717279 -27.901385 9.664443 -7.011590 -79.106331 
0.9829125000000000 -5.766439 -142.225989 18.369462 119.844733 -27.899927 3.353241 -6.905073 -83.882368 
0.9903562500000001 -5.707567 -147.326494 18.311325 113.960246 -27.664687 -1.434274 -6.792317 -88.656454 
0.9978000000000000 -5.655250 -152.499205 18.271755 108.020432 -27.724577 -7.046507 -6.720717 -93.438249 
1.0052437500000000 -5.675923 -157.987323 18.265713 101.977853 -27.703837 -12.866356 -6.699570 -98.400167 
1.0126875000000000 -5.732932 -163.604062 18.260366 95.968394 -27.612871 -18.273887 -6.773915 -103.341087 
1.0201312499999999 -5.825018 -169.231221 18.235013 89.945152 -27.551102 -24.077628 -6.915018 -108.309920 
1.0275749999999999 -5.898597 -174.823996 18.191285 83.935270 -27.540577 -29.272090 -7.067978 -113.154296 
1.0350187500000001 -5.973387 179.655671 18.120655 77.959461 -27.436567 -34.149582 -7.190599 -118.120263 
1.0424625000000001 -6.096555 174.037890 18.049537 72.146460 -27.433568 -40.277437 -7.334085 -123.466669 
1.0499062500000000 -6.188090 168.174418 17.983310 66.293334 -27.371107 -45.947923 -7.454952 -129.261837 
1.0573500000000000 -6.281408 161.957070 17.966695 60.327259 -27.333594 -50.480556 -7.552924 -135.452816 
1.0647937500000000 -6.355733 155.346838 17.974477 54.372191 -27.292939 -56.752079 -7.685911 -142.239642 
1.0722375000000000 -6.399742 148.664727 17.967610 48.302757 -27.144341 -63.150153 -7.760706 -148.989709 
1.0796812499999999 -6.391359 141.909601 17.935031 42.199930 -27.061689 -68.270432 -7.856435 -155.836181 
1.0871249999999999 -6.368566 135.163444 17.882619 36.147324 -27.157710 -74.321192 -7.861708 -162.614251 
1.0945687500000001 -6.343152 128.493163 17.831727 29.917694 -27.096948 -80.372956 -7.847699 -169.205096 
1.1020125000000001 -6.357904 122.049315 17.776242 23.763058 -27.130786 -85.437671 -7.781375 -175.698032 
1.1094562500000000 -6.341282 115.909440 17.713941 17.827177 -27.061549 -90.697313 -7.695901 178.029672 
1.1169000000000000 -6.351153 109.867028 17.690246 11.847863 -27.086389 -96.395857 -7.615035 171.935562 
1.1243437500000000 -6.339259 104.114557 17.656909 5.898350 -27.050357 -102.463420 -7.554432 166.139839 
1.1317874999999999 -6.367046 98.669240 17.628097 0.036761 -27.049516 -108.192178 -7.517001 160.623683 
1.1392312499999999 -6.358346 93.171961 17.587938 -5.951110 -27.086731 -113.495807 -7.510270 155.354033 
1.1466750000000001 -6.377493 87.862446 17.521090 -11.941657 -26.999252 -118.724095 -7.480096 150.321566 
1.1541187500000001 -6.463084 82.484514 17.461508 -17.915913 -26.905540 -124.424387 -7.492772 145.282053 
1.1615625000000001 -6.608981 77.125575 17.366131 -23.850548 -26.929858 -130.303054 -7.558483 140.369741 
1.1690062500000000 -6.771102 71.612069 17.312632 -29.589082 -26.989123 -135.463056 -7.653265 135.083557 
1.1764500000000000 -6.948787 66.028021 17.264216 -35.309523 -26.910414 -140.878065 -7.762908 129.981499 
1.1838937500000000 -7.100623 60.258806 17.245731 -41.107143 -27.031503 -146.282008 -7.902726 124.789923 
1.1913374999999999 -7.211610 54.273718 17.231144 -46.745757 -26.870139 -152.008754 -8.038864 119.345136 
1.1987812499999999 -7.284122 48.034434 17.221081 -52.499056 -26.893798 -157.039733 -8.111029 113.664146 
1.2062250000000001 -7.292161 41.263044 17.219515 -58.506594 -26.820171 -161.970483 -8.160053 107.651867 
1.2136687500000001 -7.328444 34.298935 17.204367 -64.523378 -26.705828 -168.294416 -8.182843 101.330171 
1.2211125000000000 -7.346484 27.081556 17.187124 -70.689327 -26.684186 -174.063109 -8.208984 94.573652 
1.2285562500000000 -7.341297 19.823618 17.185910 -76.867230 -26.667554 -179.533764 -8.186018 87.701947 
1.2360000000000000 -7.314151 12.785015 17.164618 -82.889653 -26.583118 175.246818 -8.192418 80.779447 
1.2434437500000000 -7.231989 6.080242 17.149434 -88.982241 -26.563484 169.201113 -8.192940 74.059536 
1.2508874999999999 -7.109807 -0.152621 17.091798 -95.111589 -26.595734 163.761090 -8.145105 67.811284 
1.2583312499999999 -6.999244 -6.292866 17.037855 -101.174127 -26.583363 158.045301 -8.090731 61.905452 
1.2657750000000001 -6.895879 -12.243744 16.982890 -107.281037 -26.488017 153.293632 -8.009238 56.031894 
1.2732187500000001 -6.834366 -17.957043 16.910890 -113.374472 -26.617073 147.314420 -7.933700 50.530109 
1.2806625000000000 -6.814252 -23.230292 16.845673 -119.371669 -26.552963 142.158237 -7.876196 45.044395 
1.2881062500000000 -6.831399 -28.429989 16.800545 -125.218270 -26.582779 136.251566 -7.849510 39.688962 
1.2955500000000000 -6.847276 -33.371104 16.756471 -130.986355 -26.483299 130.664809 -7.877310 34.715839 
1.3029937500000000 -6.887613 -38.158312 16.710879 -136.775519 -26.491402 126.121356 -7.919568 29.742716 
1.3104374999999999 -6.912343 -42.888233 16.682759 -142.627586 -26.403319 119.709755 -7.970042 24.946024 
1.3178812499999999 -6.949605 -48.060230 16.644560 -148.491880 -26.378875 114.528404 -8.002515 19.759771 
1.3253250000000001 -7.048724 -53.628075 16.624997 -154.582778 -26.340584 109.240278 -8.071470 14.449755 
1.3327687500000001 -7.181450 -59.410528 16.597571 -160.638945 -26.209352 103.897551 -8.141547 8.718833 
1.3402125000000000 -7.346868 -65.597179 16.566037 -166.597015 -26.179518 97.848978 -8.228964 2.620886 
1.3476562500000000 -7.497305 -72.021224 16.546541 -172.628905 -26.204069 92.232885 -8.325435 -3.611467 
1.3551000000000000 -7.626581 -78.440052 16.513327 -178.499381 -26.108774 86.913982 -8.429663 -9.972160 
1.3625437499999999 -7.667420 -85.183878 16.491456 175.659140 -26.094412 81.528854 -8.468713 -16.251674 
1.3699874999999999 -7.682737 -92.200404 16.454707 169.651495 -26.084902 75.657216 -8.490863 -22.717106 
1.3774312500000001 -7.643952 -99.178860 16.422528 163.477942 -25.992638 69.867241 -8.435776 -29.164056 
1.3848750000000001 -7.626683 -106.496744 16.364542 157.255855 -26.018323 64.796325 -8.342490 -35.795261 
1.3923187500000000 -7.622049 -113.733634 16.307851 151.003590 -25.938573 58.204846 -8.274732 -42.237400 
1.3997625000000000 -7.603800 -120.575855 16.237292 144.907953 -25.971242 53.347867 -8.212184 -48.493356 
1.4072062500000000 -7.606466 -126.791827 16.148374 138.957593 -25.979530 47.240197 -8.159356 -54.333096 
1.4146500000000000 -7.582480 -132.661003 16.056754 133.180605 -25.990664 41.645114 -8.126239 -59.610603 
1.4220937499999999 -7.530548 -137.973039 15.996013 127.456344 -25.942379 36.212271 -8.081420 -64.577069 
1.4295374999999999 -7.460936 -142.997196 15.924275 121.693655 -25.998794 30.892345 -8.058756 -69.359341 
