#  HZ   S   DB   R     50.00 
! Rohde & Schwarz ZVA67 4Ports - Version 3.30 - 1305.7002k04 SN: 101038
! Date: 2022-07-22 05:34:10
! Measurements: S11 S21 S12 S22 
! 
 4.200000000000000E9    -2.869797193594488E-1   1.254930631609162E2  -9.046455210511910E1   7.416110670731645E1  -8.624615099605143E1   4.796690806434363E1  -2.391169865084764E-1   1.215748444147993E2  
 4.200032025620496E9    -2.923841160992641E-1   1.255059615221182E2  -8.342059286362256E1   3.310586528848762E1  -8.447129908141091E1   4.309214794304809E1  -2.447622265602164E-1   1.215944173661799E2  
 4.200064051240993E9    -2.886863259230327E-1   1.254493289541653E2  -9.895936637332393E1   7.576285925420214E1  -7.937305940081789E1   6.872196701323708E1  -2.517729990412790E-1   1.215461141664198E2  
 4.200096076861489E9    -2.928738493538788E-1   1.255114253774104E2  -9.366392750217183E1   8.360171208111255E1  -8.782708433725961E1   2.872546379465883E1  -2.507667669836558E-1   1.215238152939065E2  
 4.200128102481986E9    -2.814337671891220E-1   1.255031354983555E2  -1.158580684263165E2  -7.192315483762400E1  -8.405739549275742E1  -2.677849761006992  -2.418825529417351E-1   1.214908964671673E2  
 4.200160128102482E9    -2.936963080756223E-1   1.255290993161119E2  -8.422866777300169E1   6.212426061524459E1  -7.951740982244927E1   5.940263185252573E1  -2.404190455989911E-1   1.215243961133429E2  
 4.200192153722979E9    -2.774252137598249E-1   1.254589039038902E2  -8.458881478950687E1   5.482077467314660E1  -9.685132047485989E1  -9.091414198834809  -2.446734067858108E-1   1.215134448328160E2  
 4.200224179343475E9    -2.907610457557462E-1   1.254978426104244E2  -8.936073707575996E1   1.119036644562973E2  -8.763369431645567E1  -1.294807801440117E1  -2.450819631863430E-1   1.214472719453046E2  
 4.200256204963971E9    -2.923786040436584E-1   1.254983127047632E2  -8.671086405968185E1   6.521544714246728E1  -8.666329218375303E1   6.513363369413655E1  -2.501802984227153E-1   1.214788543402055E2  
 4.200288230584467E9    -2.836800941430188E-1   1.254611781925566E2  -8.217573517331761E1   7.669137164769642  -1.003438175613779E2   8.933592324209296E1  -2.448706193872282E-1   1.214629402104270E2  
 4.200320256204964E9    -2.948379089242971E-1   1.254414350497560E2  -8.733348790886801E1   4.044966956754328E1  -8.113975779769930E1   3.761448201983067E1  -2.493142706047399E-1   1.214162533627261E2  
 4.200352281825460E9    -2.836183060125679E-1   1.254872132969307E2  -8.305727940031294E1  -2.496380970026153E1  -8.226154622812541E1   6.537911918695603E1  -2.441010847629265E-1   1.214559924876223E2  
 4.200384307445957E9    -2.831401628936344E-1   1.254328291661657E2  -9.175210343180135E1   7.085034455486890E1  -9.326463467990003E1   1.262237289565014E2  -2.427886914553498E-1   1.214599806867549E2  
 4.200416333066453E9    -2.870538910985811E-1   1.254461999176965E2  -9.541724985068062E1   9.745782762229159E1  -9.706848821436647E1  -1.431240712328004E2  -2.507136173003041E-1   1.214460458533149E2  
 4.200448358686950E9    -2.880684318967077E-1   1.254499893915620E2  -8.459492208272857E1   4.931752190344035E1  -8.077996570300891E1   4.720454781815348E1  -2.472143663293549E-1   1.213986345141918E2  
 4.200480384307446E9    -2.833876006221980E-1   1.254538696097474E2  -8.463761706181366E1  -5.234158667029262  -8.580889945553675E1  -7.565013644835184  -2.521997336001048E-1   1.214020189640122E2  
 4.200512409927942E9    -2.915503911892357E-1   1.254221949563224E2  -8.345869068720057E1   4.022027869798232E1  -8.049730084319835E1   5.272448313949524E1  -2.482209645959914E-1   1.213358159893788E2  
 4.200544435548439E9    -2.825704260222871E-1   1.254969918272626E2  -9.424543903403189E1  -6.644829050868302E1  -1.017229865064178E2   1.377025374369553E1  -2.470209991351797E-1   1.213954232365249E2  
 4.200576461168935E9    -2.889623169225626E-1   1.253674492038244E2  -8.935398180249901E1  -1.057830614946591E2  -8.774403501634251E1  -1.873193826012983  -2.450906019876367E-1   1.213521308560331E2  
 4.200608486789432E9    -2.849195999483806E-1   1.254333988339189E2  -9.990031047746116E1   1.598658016530013E2  -8.762941422545637E1  -3.780361788175627E1  -2.466531035496422E-1   1.213311608940465E2  
 4.200640512409928E9    -2.832855852097447E-1   1.253945091321601E2  -8.613339951165088E1   6.574924031536760E1  -8.704168995316955E1   1.000310574532406E1  -2.497138651261139E-1   1.213632347024020E2  
 4.200672538030424E9    -2.992010215492812E-1   1.254420190844221E2  -8.110577132937998E1  -1.305344863252289E1  -8.375918244455382E1   1.387447451497314E1  -2.490096968004543E-1   1.213276074456071E2  
 4.200704563650921E9    -2.774707613744631E-1   1.253854923856674E2  -1.013689389976257E2  -5.839044909134900E1  -8.071595255331299E1   6.421471670747110E1  -2.464285908310737E-1   1.213304855788167E2  
 4.200736589271417E9    -2.885709473913948E-1   1.253652185006369E2  -9.792744200846146E1  -8.384796204940199E1  -8.690709123453692E1   2.928743061211346E1  -2.373711074880171E-1   1.212969260378354E2  
 4.200768614891913E9    -2.868427210616664E-1   1.253848541624415E2  -9.192430645841004E1  -2.975019008354417E1  -9.325334602502190E1   8.268468413402175E1  -2.470223950654385E-1   1.213780968634822E2  
 4.200800640512410E9    -2.958484352770068E-1   1.253862088434759E2  -8.426994967367486E1   1.176468512264995E1  -8.077769086997576E1   6.028726288596496E1  -2.488090054736386E-1   1.212968310572539E2  
 4.200832666132906E9    -2.902657172425483E-1   1.253208707999686E2  -8.549768040484688E1  -8.513784985448730  -8.986513404151215E1  -8.286971025466661E1  -2.500270887290158E-1   1.213168225762533E2  
 4.200864691753403E9    -2.847558023305816E-1   1.253702744169125E2  -9.909685269328629E1   7.165547355651293E1  -8.474583863259228E1   3.852685929151342E1  -2.464277942937866E-1   1.213037877695528E2  
 4.200896717373899E9    -2.937513653364753E-1   1.253764845738965E2  -8.330552367048087E1   2.265913305657752E1  -9.591235605914213E1   2.433445931142297E1  -2.558132875635299E-1   1.212879232826553E2  
 4.200928742994396E9    -2.764529660317284E-1   1.253275854218990E2  -1.025145549123749E2  -3.485704206579046E1  -9.446945294334806E1   6.541238496863559E1  -2.451163139584242E-1   1.212524613648047E2  
 4.200960768614892E9    -2.888664289352693E-1   1.253664677085664E2  -9.371897641418410E1  -1.189900181264694E2  -8.598977012401551E1   1.094736296450436E2  -2.541953582518863E-1   1.212628498999663E2  
 4.200992794235388E9    -2.863061183150886E-1   1.253615978205705E2  -8.417197706038910E1   8.026250445851289E1  -7.979642653744352E1   4.019381625744313E1  -2.491302849224221E-1   1.213148814746539E2  
 4.201024819855885E9    -2.885022780114158E-1   1.253158700849855E2  -8.412625353795575E1  -2.743326890927419E1  -8.254310598178481E1   4.670906655003552  -2.462332463398889E-1   1.212466918885875E2  
 4.201056845476381E9    -2.907029843359920E-1   1.252949253989666E2  -8.558414670717282E1   4.389028337802471E1  -8.609717230642254E1   1.371381625939401E2  -2.504994342534417E-1   1.212426297823690E2  
 4.201088871096878E9    -2.903418497942685E-1   1.253557181815356E2  -8.979248808782532E1   6.293900577826618E1  -8.684199013929310E1  -1.613017469198445E2  -2.529442206352413E-1   1.212270544781221E2  
 4.201120896717374E9    -2.884344536945826E-1   1.253467321341725E2  -9.063893368730061E1  -1.300886846293053E2  -8.652334810850132E1   7.301614935897980E1  -2.489875591922795E-1   1.212191094243600E2  
 4.201152922337870E9    -2.875737316421106E-1   1.252987057066539E2  -1.002906001909453E2  -8.862836484284094E1  -8.970190209577561E1   5.939422409950830  -2.472714998467399E-1   1.212110130288394E2  
 4.201184947958367E9    -2.936659967241468E-1   1.252724891174128E2  -8.597187727000708E1   3.102770693544441E1  -8.583174223674217E1  -1.156177576955308E1  -2.566398733095084E-1   1.212111356813512E2  
 4.201216973578863E9    -2.882290248952517E-1   1.252884138436061E2  -9.791089835814242E1   1.202822806919443E2  -9.278274634922323E1   8.512758336671476E1  -2.513519604802388E-1   1.211824740894257E2  
 4.201248999199359E9    -2.920298782314756E-1   1.253109508092546E2  -8.357431328655355E1   4.950127358939780E1  -9.055465386260948E1   2.883490542680305E1  -2.431520326770479E-1   1.212156679455258E2  
 4.201281024819856E9    -2.904575594358767E-1   1.253078933935707E2  -8.479152715733748E1   2.639247943072824  -9.409791347351933E1  -8.544393583508591E1  -2.530257995883047E-1   1.212165550629102E2  
 4.201313050440352E9    -2.899236934488216E-1   1.252757447217772E2  -8.961471703879873E1  -2.217215576389007E1  -9.219521603592858E1   9.803200673630926E1  -2.465122577514826E-1   1.212034191757374E2  
 4.201345076060849E9    -2.940262149682226E-1   1.253096169957708E2  -8.386768231231639E1  -1.629413214855915  -8.008754383153134E1   5.038901598153610E1  -2.540204920808681E-1   1.211594479670576E2  
 4.201377101681345E9    -2.835674832542126E-1   1.252686782731808E2  -9.891686901686919E1   9.337969757314821E1  -8.448344593913281E1  -1.046228040048008E2  -2.526397552813809E-1   1.211536825903063E2  
 4.201409127301841E9    -2.857791994287344E-1   1.252623854042649E2  -8.314431332060191E1  -1.493419855058909  -8.681424640041215E1   6.875955376876043E1  -2.510945110113023E-1   1.211575029240021E2  
 4.201441152922338E9    -2.907456492888989E-1   1.252503390153904E2  -9.333377310283073E1   7.541515233702128E1  -8.806614157808748E1   7.400904685409975E1  -2.547587632314973E-1   1.211511614495533E2  
 4.201473178542834E9    -2.987256649029892E-1   1.252665249895879E2  -9.131693666539422E1   1.341820289626799E2  -8.705250321910299E1  -5.336500708248197E1  -2.507379187237914E-1   1.211238950651051E2  
 4.201505204163331E9    -2.818962801741827E-1   1.252617989757501E2  -8.359243395194028E1   4.074583577191498E1  -8.781465987416971E1  -1.676553634547715E1  -2.578297552612670E-1   1.211339524946409E2  
 4.201537229783827E9    -2.897548672287965E-1   1.252708439000741E2  -8.432319474920060E1   8.044295977986744E1  -8.092840906248738E1   2.215536728300588E1  -2.610649241405720E-1   1.211512547072343E2  
 4.201569255404324E9    -2.882499050453365E-1   1.252425924081443E2  -9.665099083070157E1   5.988478675478728E1  -8.504447457849291E1  -1.420483514948828E1  -2.480498239912721E-1   1.211012351824896E2  
 4.201601281024820E9    -2.918426360313108E-1   1.252254604933066E2  -7.934128113643048E1   6.454384122407676E1  -8.156469395042417E1   5.860166515043821  -2.538455991226207E-1   1.211188710259580E2  
 4.201633306645316E9    -2.951612123702113E-1   1.252386203313698E2  -9.150502399328475E1   3.113031691635619E1  -8.456162179712808E1   5.178638733378458E1  -2.592776090353867E-1   1.211034954533213E2  
 4.201665332265813E9    -2.887702217895897E-1   1.252634873789911E2  -9.510573161498783E1   1.267343203997961E2  -8.530935967392352E1   5.392788115443916E1  -2.536670133998427E-1   1.211293119396566E2  
 4.201697357886309E9    -2.959181861729950E-1   1.252026058329740E2  -8.577361201493318E1   3.755966440294440  -8.767033734795352E1   1.026155200078192E1  -2.543766207035863E-1   1.210998083303578E2  
 4.201729383506805E9    -2.996365904827697E-1   1.251984174952431E2  -8.527066376279645E1   4.355251116958193E1  -8.309799225693668E1  -1.527220395077995E1  -2.530509958743293E-1   1.210440228199820E2  
 4.201761409127302E9    -2.883172270779910E-1   1.251980668451518E2  -9.043575086741645E1   1.062422639000292E2  -9.060485602208308E1   9.823803817876110E1  -2.524023396742308E-1   1.210709803134551E2  
 4.201793434747798E9    -2.849361810676055E-1   1.251944690858258E2  -8.421506346208093E1   8.087614191494504E1  -8.267390372125671E1   5.831262959549863E1  -2.511962180804466E-1   1.210968768003418E2  
 4.201825460368295E9    -2.852983228924587E-1   1.252300710571051E2  -8.708863417323602E1   6.561621915621049E1  -8.230429550288476E1   1.395657929931053E1  -2.550261464619072E-1   1.210634433506769E2  
 4.201857485988791E9    -2.917716083417902E-1   1.251629223054050E2  -8.493828253935396E1   7.484534076534639E1  -9.002458736849431E1   7.319496423018870E1  -2.602795827457901E-1   1.210517311721284E2  
 4.201889511609287E9    -3.030836471110786E-1   1.251255381897411E2  -8.156537944219727E1   3.574543173581388E1  -9.881261236171190E1   7.430917406233736E1  -2.639968569449534E-1   1.210472581470771E2  
 4.201921537229784E9    -2.976948302845550E-1   1.251947032739112E2  -7.949516338574418E1   1.229509232086248E1  -9.282338490643613E1   3.815979788925593E1  -2.602542747031952E-1   1.210262862017963E2  
 4.201953562850280E9    -2.966992169087129E-1   1.252040134977999E2  -9.988156058458264E1   6.029669716163667E1  -9.437100369053788E1  -1.645541104169952E2  -2.556044138290269E-1   1.210023494957469E2  
 4.201985588470777E9    -2.936616199170959E-1   1.251471639042432E2  -8.267939543563594E1   6.715593454787546E1  -8.916340385386597E1   1.163160888566268E2  -2.561862407191402E-1   1.210168690731654E2  
 4.202017614091273E9    -2.941702609176939E-1   1.251545296083407E2  -9.379009976735708E1  -1.540072700963363E2  -9.417907300163692E1  -1.409726909217523E2  -2.552857262471331E-1   1.210187966735232E2  
 4.202049639711770E9    -2.968148719438412E-1   1.251310240394335E2  -8.838614569190625E1   8.058682594195450E1  -1.044194442083719E2  -1.509780264611471E1  -2.605995121492735E-1   1.209658332519820E2  
 4.202081665332266E9    -2.933090075355987E-1   1.251426622935188E2  -8.969930919642530E1  -8.192071587608672E1  -8.638491843565363E1   9.336801453522764E1  -2.602135653316595E-1   1.209643651571733E2  
 4.202113690952762E9    -2.973474986739363E-1   1.250928860430237E2  -9.279852585674603E1  -1.495468509994253E2  -9.170426049124814E1  -1.410704992353380E1  -2.636409859800635E-1   1.210022901321471E2  
 4.202145716573258E9    -2.951299814095536E-1   1.250856282111097E2  -8.758310631334982E1   1.607196528737335E1  -8.114491857808861E1   3.786404152045608E1  -2.568508474402670E-1   1.209485838945490E2  
 4.202177742193755E9    -2.908955623842350E-1   1.250805949811735E2  -8.353771641473558E1   1.575696018481729E2  -8.845655056142667E1   2.225940814313401E1  -2.511842229842863E-1   1.209249830507665E2  
 4.202209767814251E9    -2.993294290259958E-1   1.251156198090015E2  -7.887590983253018E1   3.940728025236311E1  -8.563131424707927E1  -9.478370126314841  -2.519029158132793E-1   1.209789633361374E2  
 4.202241793434748E9    -2.914009533678026E-1   1.251433308104614E2  -9.546272995740226E1  -1.151539628895617E2  -8.534974451674466E1   1.130123225352658E2  -2.558535567461603E-1   1.209396303380728E2  
 4.202273819055244E9    -2.912844859623739E-1   1.251134836316129E2  -8.522781831003826E1   5.039745358908745E1  -8.371995734110823E1   2.899796772884068E1  -2.558006537539269E-1   1.209942603972466E2  
 4.202305844675741E9    -2.983774352422131E-1   1.251273433346990E2  -8.147720465179825E1   3.278015555821442E1  -8.535533690778635E1   3.148371912291318E1  -2.550560117839673E-1   1.209060688666048E2  
 4.202337870296237E9    -2.841370951809921E-1   1.251414921041665E2  -8.949459451282873E1   8.923754919790729E1  -8.212433050770156E1   2.175354731854279E1  -2.604761128341009E-1   1.209195084170297E2  
 4.202369895916733E9    -2.905418392170665E-1   1.250930763738677E2  -8.387694155861017E1   3.986934340638668E1  -8.600161625506750E1   2.185350862313333E1  -2.591738907665864E-1   1.209154835789569E2  
 4.202401921537230E9    -2.926360549103383E-1   1.250865788037917E2  -9.370005106101402E1  -1.177870964769208E2  -8.033325588218712E1   3.634950967302794E1  -2.617511001824323E-1   1.208867709683545E2  
 4.202433947157726E9    -3.006889505700970E-1   1.250905353996047E2  -8.983497729086837E1   1.381599010273529E2  -9.500082975305497E1  -1.539264244520893E2  -2.625604854757370E-1   1.208869439864160E2  
 4.202465972778223E9    -2.971018639208561E-1   1.251024075314724E2  -8.846481794111104E1   4.686672482705112E1  -9.444285618375324E1  -1.216098243218462E2  -2.571242790921985E-1   1.208558235032379E2  
 4.202497998398719E9    -2.937567218620948E-1   1.250677843719592E2  -9.157551239318700E1  -1.035224545284698E2  -8.627832735708340E1  -1.681494305264107E1  -2.577269496459408E-1   1.208579282502859E2  
 4.202530024019216E9    -2.940233089833476E-1   1.251051235844766E2  -8.720566403547264E1  -9.140868755253812E-1  -8.269947120665732E1   9.380902053004166E1  -2.643398421987733E-1   1.208523037108041E2  
 4.202562049639712E9    -2.885995543513585E-1   1.250283662637022E2  -1.080155496364251E2   3.001086511795639E1  -8.591359224716230E1   3.932135547477023E1  -2.557552043601107E-1   1.208104582110566E2  
 4.202594075260208E9    -2.931087639777491E-1   1.250688193233255E2  -8.439919852843306E1   4.489592218933919E1  -8.922762260441148E1   6.456024208638264E1  -2.669936636179487E-1   1.208560800856910E2  
 4.202626100880704E9    -2.946443266453459E-1   1.250161203607282E2  -8.307178828236540E1   8.957702265399252E1  -8.901358670432525E1   7.726302254564405E1  -2.663707820516292E-1   1.208309729954328E2  
 4.202658126501201E9    -3.018716644849182E-1   1.250483467855031E2  -8.351584957529259E1  -2.652098585756192E1  -8.615354313416373E1   1.340251071862682E1  -2.701179876721065E-1   1.208034173844818E2  
 4.202690152121697E9    -2.943716635631973E-1   1.250460186990696E2  -8.055275617741690E1  -4.403995360214348E1  -8.975238209839304E1   5.849970059596383E1  -2.630560235908203E-1   1.208293849305914E2  
 4.202722177742194E9    -2.859561386048110E-1   1.250253348523620E2  -8.067347504232596E1   4.402293488432760  -9.421569125320949E1   6.357981437529325E1  -2.573570547377644E-1   1.208508729631818E2  
 4.202754203362690E9    -2.964228163267406E-1   1.250081180540441E2  -8.143136809611954E1   7.640434849850179E1  -8.028513698620002E1   1.362279898998845E1  -2.623294572456718E-1   1.207438876923128E2  
 4.202786228983187E9    -2.881660084529369E-1   1.249920268504591E2  -9.577588233406569E1  -1.706443288569779E2  -7.940531612725656E1  -2.319034816728776E1  -2.566496071385034E-1   1.208008655276070E2  
 4.202818254603683E9    -2.853818462224551E-1   1.249972362192040E2  -8.474945350135900E1  -1.840998472668919E1  -8.058685043461273E1   3.179075984251843E1  -2.617427627104098E-1   1.207704394586173E2  
 4.202850280224179E9    -2.861367719495427E-1   1.249751633046891E2  -8.241018850543503E1   4.569105022950235E1  -8.436984859214205E1  -1.793004233032260E1  -2.611790363962092E-1   1.208142575590951E2  
 4.202882305844676E9    -2.849292537179399E-1   1.250231259074562E2  -9.068041599293615E1   1.135693639168291E1  -8.574609083467776E1  -1.204542422558025E2  -2.595100059032335E-1   1.207650538711668E2  
 4.202914331465172E9    -2.892132972123006E-1   1.250069234093300E2  -8.609665141584007E1   1.202409928481798E2  -9.149699061690986E1  -1.886594584464849E1  -2.514452522618363E-1   1.207631179149380E2  
 4.202946357085669E9    -2.912364148159845E-1   1.249929986629523E2  -8.431591891891608E1   3.212497158568421E1  -8.670933541050646E1  -6.987909833122447E1  -2.568458635331705E-1   1.207725572878286E2  
 4.202978382706165E9    -2.861971562460345E-1   1.249838720216364E2  -8.579009491917702E1   4.271109602540121E1  -8.814998266704798E1   1.052185026765563E2  -2.604981266622052E-1   1.207526844729255E2  
 4.203010408326661E9    -2.987538906258394E-1   1.249565486729212E2  -8.976840348762529E1   5.842778867203829E1  -8.500659961000858E1  -2.957361212330293E1  -2.617368818574173E-1   1.207948288231838E2  
 4.203042433947158E9    -2.807432164262352E-1   1.249671653642593E2  -8.298818818461875E1   4.995085306141759E1  -8.372455013053947E1   1.963210356372913  -2.625630374011396E-1   1.207239397553711E2  
 4.203074459567654E9    -2.933626546649436E-1   1.249635376554156E2  -9.385133036247044E1   9.629659953835513E1  -9.308789474383883E1   5.647720159774843E-1  -2.541080710825406E-1   1.207389653391983E2  
