#  HZ   S   DB   R     50.00 
! Rohde & Schwarz ZVA67 4Ports - Version 3.30 - 1305.7002k04 SN: 101038
! Date: 2022-07-22 05:32:06
! Measurements: S11 S21 S12 S22 
! 
 4.000000000000000E9    -2.692382810104454E-1   1.476875187784335E2  -8.391702438133423E1   1.709284691398047E2  -9.397470748951290E1  -1.150707007303033E2  -2.097534413482410E-1   1.470541671277281E2  
 4.000096076861489E9    -2.799467996983833E-1   1.477276380853268E2  -7.965362513993500E1   5.139270339113915E1  -8.943926383574336E1  -6.731136216675786E1  -2.046902120852617E-1   1.469996571223859E2  
 4.000192153722979E9    -2.765240844002385E-1   1.470792437490775E2  -8.336560089763408E1  -4.969155381836238E1  -9.033842677349347E1   1.018319832620039E2  -2.125073952220196E-1   1.468930016890212E2  
 4.000288230584467E9    -2.710808626765415E-1   1.471166583743826E2  -8.228112067628992E1  -1.277205595670715E2  -8.981810453362347E1  -1.019297338838719E2  -2.018563865964375E-1   1.468916336775285E2  
 4.000384307445957E9    -2.785801727150153E-1   1.470734944773001E2  -8.067757566786601E1   1.309137945631368E2  -8.383862780308648E1  -5.001800138854250E1  -2.086362447150097E-1   1.468416136064897E2  
 4.000480384307446E9    -2.703020530968316E-1   1.471091220932146E2  -8.606564035629667E1  -9.195986632356301E1  -9.242811587887562E1   7.596103650065103E1  -2.088913392305989E-1   1.468373842753824E2  
 4.000576461168935E9    -2.786032366016006E-1   1.471204502879928E2  -9.314891348764523E1  -1.376710593236625E2  -8.434095134486900E1   3.026017781369223E1  -2.113436422505394E-1   1.467990191092941E2  
 4.000672538030424E9    -2.796810654105996E-1   1.472618273620944E2  -9.455753460070365E1   1.041450512839525E2  -1.038940405350564E2   1.684535777572257E2  -2.061439156535695E-1   1.467403001044834E2  
 4.000768614891913E9    -2.600228959893969E-1   1.472285272300824E2  -8.082597279681927E1  -1.973005578876600E1  -8.523923050128322E1   4.584215543337459E1  -2.115934264188630E-1   1.467122211308269E2  
 4.000864691753403E9    -2.711979210843735E-1   1.472030842792121E2  -8.250106439760468E1   1.104553748412817E1  -8.557678256595639E1  -1.723190698858383E2  -2.138870052510310E-1   1.466738463286453E2  
 4.000960768614892E9    -2.759565684205022E-1   1.472662030685728E2  -7.753224394754633E1  -5.592984422658569E1  -8.001164739761725E1  -5.068516955546962E1  -2.039362881631664E-1   1.467351657177354E2  
 4.001056845476381E9    -2.661048806545044E-1   1.472372662006439E2  -8.231931365663850E1   1.786955492313641E2  -8.403387477640685E1   1.257013055980887E2  -2.119402987623555E-1   1.467336990583827E2  
 4.001152922337870E9    -2.745401893338270E-1   1.472541227674728E2  -9.635565913899869E1   1.012786277638783E2  -8.431201693616364E1   4.780499407345417E1  -2.085187117724900E-1   1.466954376479007E2  
 4.001248999199359E9    -2.728390786789248E-1   1.472148718908375E2  -8.283879859800932E1  -4.759976806601880E1  -8.809837753144356E1   2.981745904007397E1  -2.042923353705859E-1   1.466180397060126E2  
 4.001345076060849E9    -2.665569403382340E-1   1.471933293835065E2  -8.440420707947611E1  -1.131846200352897E2  -9.298928172105610E1  -8.718276003671305E1  -2.105577214661576E-1   1.466880858543914E2  
 4.001441152922338E9    -2.604682839922353E-1   1.471908068599026E2  -8.179664217341251E1   1.316634521114756E2  -8.130967630007618E1  -6.128975929605220E1  -2.084910763665149E-1   1.466689924360992E2  
 4.001537229783827E9    -2.772680559393708E-1   1.472088746273929E2  -8.165959110115418E1   2.132411884355809E1  -8.867807577378605E1   6.042931887864033E1  -2.116996340628754E-1   1.466300327666511E2  
 4.001633306645316E9    -2.743694445183930E-1   1.472020837576409E2  -9.700852637508166E1  -5.077178088049893E1  -8.615447550476357E1   7.360979381241894E1  -2.042032457034852E-1   1.466285047060921E2  
 4.001729383506805E9    -2.741121974999125E-1   1.471787792429118E2  -8.796547335294298E1  -1.694833759118336E2  -9.331225775932204E1  -7.598214497960315E1  -2.045652421607559E-1   1.466641200214149E2  
 4.001825460368295E9    -2.733970722109358E-1   1.471831048491754E2  -8.485367033814443E1   9.419969723639203E1  -8.697581751918528E1  -1.473274766282275E2  -2.073231901706712E-1   1.465734668276249E2  
 4.001921537229784E9    -2.646124357139308E-1   1.471417065777001E2  -7.862256372550299E1  -2.878536108668699E1  -9.996981176204103E1  -1.555939389786684E2  -2.163095695042077E-1   1.465229245262908E2  
 4.002017614091273E9    -2.783386502402144E-1   1.471522752165089E2  -8.678476954129130E1   1.647105321502060E2  -8.563968669866701E1   1.465791921337088E2  -2.123155806603096E-1   1.465568381913271E2  
 4.002113690952762E9    -2.786884412408538E-1   1.471885562202655E2  -9.062854196798340E1  -1.638968422682690E2  -9.004045128793773E1   1.339185115236548E2  -2.023682411757949E-1   1.465809650316384E2  
 4.002209767814251E9    -2.750597522940341E-1   1.471604715892676E2  -9.241290436001579E1  -7.287531447940988E1  -8.368253496091457E1   1.090827386302980E2  -2.105535892325445E-1   1.464988760671878E2  
 4.002305844675741E9    -2.710274373473171E-1   1.471532122137065E2  -8.247392371288991E1  -7.960683890054231E1  -7.856271386313883E1   3.699251611297520E1  -2.108690683226120E-1   1.464480746536707E2  
 4.002401921537230E9    -2.699207600721426E-1   1.471335387633547E2  -8.172517007621559E1   1.104769676556415E2  -8.518740787554853E1   1.462715379817714E2  -2.012022951834296E-1   1.465036253149793E2  
 4.002497998398719E9    -2.604336538766796E-1   1.471129632932482E2  -8.675267803996539E1   1.110677713880562E2  -8.859758459559986E1   1.236575249404952E2  -2.117144221358140E-1   1.465014490216401E2  
 4.002594075260208E9    -2.693697872500032E-1   1.470840273553000E2  -8.485609219101445E1   1.169669556963313E2  -8.976737390761016E1  -1.686715903644472E2  -2.080839676447226E-1   1.465101769593111E2  
 4.002690152121697E9    -2.656015017651903E-1   1.471481810509751E2  -8.878424516850487E1   4.275949348868157E1  -8.884086484605649E1  -7.642954560371899E1  -2.014447997041594E-1   1.464874135344870E2  
 4.002786228983187E9    -2.816760306554473E-1   1.470649026217296E2  -7.906284086814451E1  -2.043027615279715E1  -9.213437620149615E1   1.782568871519420E2  -2.150536857911782E-1   1.464818109334273E2  
 4.002882305844676E9    -2.571987535602416E-1   1.471179781328137E2  -8.009747579526140E1   1.099979863278721E2  -9.018789665085488E1  -1.063785848100216E2  -2.047414253859500E-1   1.464294187233284E2  
 4.002978382706165E9    -2.744487090012528E-1   1.470908096069591E2  -8.285470474910540E1  -1.589282397670575E2  -8.208130921121969E1  -1.322123379530674E2  -2.107258533266543E-1   1.465089238951564E2  
 4.003074459567654E9    -2.617633876716911E-1   1.471140390696941E2  -8.835684528793657E1   1.081556457960794E2  -8.276792934640382E1  -3.324943551978774E1  -2.075598227337586E-1   1.464846757992456E2  
 4.003170536429143E9    -2.704002673759497E-1   1.470691756375871E2  -8.630642841282321E1   3.820319114412919E1  -9.015995873457105E1  -7.909773070021008E1  -2.083429797106211E-1   1.464162001960023E2  
 4.003266613290633E9    -2.678429954711810E-1   1.470891657307436E2  -8.195562889965872E1   1.206182415278956E2  -8.227573805419819E1   8.474111696002730E1  -2.130638100461799E-1   1.464602967190771E2  
 4.003362690152122E9    -2.787220735206054E-1   1.470943504148206E2  -1.005070864390197E2  -7.582072185392053E1  -8.127230241087045E1  -4.972388254083526E1  -2.005071720770121E-1   1.464729052761357E2  
 4.003458767013611E9    -2.569575548476352E-1   1.470096948749055E2  -8.077011359046357E1   7.521668479001502E-1  -8.823508739732286E1   1.393452577828694E2  -2.093413160521439E-1   1.464486412617415E2  
 4.003554843875100E9    -2.709154699631202E-1   1.470607487227681E2  -8.284665010566559E1  -6.770859280469504E1  -8.816909499933719E1  -1.071110549095519E2  -1.969355765692152E-1   1.464690925035457E2  
 4.003650920736589E9    -2.753013201111721E-1   1.470723458427433E2  -8.504473704283588E1  -1.605286584505015E2  -8.865075717260569E1   6.241757908495994E1  -1.957095180159379E-1   1.464345830184734E2  
 4.003746997598078E9    -2.696203596030448E-1   1.469729623019806E2  -9.266286762119138E1   3.012099195533496E1  -8.717561741554866E1   1.969278101825413E1  -1.957144791677104E-1   1.464018960555812E2  
 4.003843074459568E9    -2.697666358042037E-1   1.469755325497394E2  -8.257672059557180E1   1.164849063305708E2  -8.213394098116032E1  -4.008929141661805E1  -1.968508971455407E-1   1.463892563339448E2  
 4.003939151321057E9    -2.665835301693910E-1   1.469865947150469E2  -8.116700558267115E1  -1.007705650382519E2  -8.621055469360840E1   1.281584734500430E2  -2.130781325045714E-1   1.463935990660796E2  
 4.004035228182546E9    -2.703814010917614E-1   1.470061159992495E2  -8.255113077285616E1   2.941791483596245E1  -7.995151766426950E1  -7.121644177868073E1  -2.003462458305737E-1   1.463219301976637E2  
 4.004131305044035E9    -2.652857047219704E-1   1.469936932607690E2  -8.254643191903770E1   1.140728077719091E2  -9.850186031222265E1   6.582334468703301E1  -1.985546768642081E-1   1.463975139135206E2  
 4.004227381905524E9    -2.761941408653185E-1   1.469882728208481E2  -8.896105811665693E1   9.861096167016525E1  -9.087688708089755E1   1.231465558911109E2  -2.014741078723811E-1   1.463648307950752E2  
 4.004323458767014E9    -2.720319387726393E-1   1.470151747571020E2  -8.531925480964522E1  -1.303452418656704E2  -7.935164313816466E1  -1.075235135836748E2  -1.978258098410438E-1   1.463762506310369E2  
 4.004419535628503E9    -2.737223664184655E-1   1.469749823443479E2  -8.451755285783270E1  -3.098661772221973E1  -8.977851212648221E1   2.831957887596757E1  -2.015495058304937E-1   1.463359185416124E2  
 4.004515612489992E9    -2.645187627413852E-1   1.469423787244645E2  -8.370734563509106E1  -7.523177625361338E1  -9.225005966634929E1  -1.565828362757396E2  -1.975673128907110E-1   1.463538189760760E2  
 4.004611689351481E9    -2.655306051627667E-1   1.469747636334973E2  -7.821479498520391E1  -1.019018964393628E2  -9.709022356154024E1  -1.203925465472476E2  -2.055775201393127E-1   1.463589105101599E2  
 4.004707766212970E9    -2.631887075504503E-1   1.469730524542708E2  -8.959461529680354E1   6.136461509886680E1  -8.423874748778631E1  -1.782888352873985E2  -1.922372022340822E-1   1.463696617656434E2  
 4.004803843074460E9    -2.624960140443719E-1   1.470207674187136E2  -8.746623759700282E1   1.382121535123218E2  -8.371387659156117E1  -1.235289778824277E2  -2.011871374382088E-1   1.463614429639000E2  
 4.004899919935949E9    -2.733201331619375E-1   1.469836211918939E2  -8.049725703354766E1   1.409140305860487E2  -8.886713594034571E1  -1.010166925078295E2  -2.004213337866973E-1   1.463585577022718E2  
 4.004995996797438E9    -2.658978322446111E-1   1.469281629908540E2  -1.009009873251927E2   7.610578198268912E1  -9.904116737432531E1  -6.844729065295566E1  -1.901737068316823E-1   1.463123218522431E2  
 4.005092073658927E9    -2.663640498058303E-1   1.469545972564641E2  -8.986527039331357E1  -7.513722721993496E1  -9.675958684505721E1   7.959189527620665E-1  -1.946618330550093E-1   1.464048818993888E2  
 4.005188150520416E9    -2.616676401988290E-1   1.468972093062412E2  -9.209399967410801E1  -7.129709764647838E1  -8.482369319655973E1  -2.052851224593121E1  -1.972487229657759E-1   1.462715869698380E2  
 4.005284227381906E9    -2.697918662595761E-1   1.469191165979954E2  -8.469634707423070E1   3.413440227112630E-1  -9.093221705379355E1   6.069502646806964E1  -1.863883676462531E-1   1.462408942236719E2  
 4.005380304243395E9    -2.680620161197751E-1   1.469297052598418E2  -8.965327711778147E1  -1.707229458288170E1  -9.214648661020674E1   1.582032269008979E2  -1.929947620467022E-1   1.462864066912221E2  
 4.005476381104884E9    -2.755547433259866E-1   1.468669664408055E2  -8.684572254759557E1  -4.013551497479013E1  -8.389416930705383E1  -3.913962446156439E1  -1.920316277972139E-1   1.462148287777780E2  
 4.005572457966373E9    -2.741796960781162E-1   1.468787570744209E2  -8.116139182839522E1  -5.427210341986117  -8.367582947569547E1   1.929272567099877E1  -1.864876206473708E-1   1.462793530852136E2  
 4.005668534827862E9    -2.664252949127084E-1   1.468553188603311E2  -8.893145507077921E1   9.695121109293508E1  -8.528422175925019E1   4.918681470778485E1  -1.941698856870123E-1   1.462727522121708E2  
 4.005764611689352E9    -2.794926196700920E-1   1.468608059909014E2  -8.992007182131447E1  -9.853741983299385E1  -7.871051772660626E1   4.519961485806640E1  -1.945643230210560E-1   1.462549218582451E2  
 4.005860688550841E9    -2.726463315066280E-1   1.468391169002075E2  -8.521056669034658E1  -1.595833839283721E2  -8.706804231473269E1  -7.465845691232350E1  -1.957619729066558E-1   1.462708010815539E2  
 4.005956765412330E9    -2.678105608196900E-1   1.468686201226042E2  -9.555165714161336E1   1.714014681095612E2  -8.224425591958300E1   3.802061711629539E1  -1.996890771422387E-1   1.462434256321630E2  
 4.006052842273819E9    -2.693183552633182E-1   1.468267157568351E2  -8.795402316515060E1   1.582478481545874E2  -8.437739497974003E1   7.480868309782686E1  -1.905441181223699E-1   1.462185202978859E2  
 4.006148919135308E9    -2.745638179407235E-1   1.468623891229220E2  -8.291828175331020E1  -1.051936538782785E2  -8.082362102470287E1   1.194091902996922E2  -1.907198878959700E-1   1.462846129597710E2  
 4.006244995996798E9    -2.615906801716719E-1   1.468575924883111E2  -9.884075000576085E1   8.438355293734617E1  -9.224978115635233E1   1.588123227568129E2  -1.836980679824479E-1   1.462243320404968E2  
 4.006341072858287E9    -2.702382567838912E-1   1.468386790145023E2  -8.430154520477215E1   1.758998248090207E2  -8.645518757755418E1   4.039502446070447  -1.871207274093538E-1   1.462024839857428E2  
 4.006437149719776E9    -2.747129721828509E-1   1.467763662861096E2  -8.310500361694638E1  -6.458644847294788E1  -8.099731153208751E1  -1.277460293387639E2  -1.831776170310241E-1   1.462194065090916E2  
 4.006533226581265E9    -2.761703774151514E-1   1.468268801263964E2  -8.871072070163916E1   1.732301210135877E2  -7.965904125111007E1   7.307012785932356E1  -1.847092746726140E-1   1.461688483648803E2  
 4.006629303442754E9    -2.641365934400308E-1   1.467884447463445E2  -1.090504705530462E2  -1.187584330267476E2  -8.150072375838910E1   3.937415807255928E1  -1.896519067368055E-1   1.461510936639652E2  
 4.006725380304244E9    -2.701542466861535E-1   1.467606125214827E2  -8.345104140351668E1  -2.175409706183156E1  -1.076060985433852E2  -2.578310663815943  -1.903533539030841E-1   1.461686007838360E2  
 4.006821457165732E9    -2.727398265872263E-1   1.467668849048710E2  -9.095886857228528E1  -1.109798022170050E2  -8.413791192005473E1  -1.043112983586301E2  -1.778271676004271E-1   1.461676694665925E2  
 4.006917534027222E9    -2.711335522815158E-1   1.467952205783838E2  -8.694155793329188E1  -6.557883941324224E1  -7.892928719043835E1   1.601238132308829E2  -1.932686733149081E-1   1.461225635012805E2  
 4.007013610888711E9    -2.744114961020145E-1   1.466945118052828E2  -8.467404477468070E1   4.912743283986077E1  -9.926212812772542E1  -2.982001797092181E1  -1.893260637966076E-1   1.461044229642475E2  
 4.007109687750200E9    -2.712916598969113E-1   1.467078314055479E2  -8.709576146849214E1  -1.736776814569659E2  -8.813858362904325E1  -8.159376948709335E1  -1.813348610281649E-1   1.461478818937189E2  
 4.007205764611690E9    -2.689212676472265E-1   1.467105336157556E2  -8.117363707619020E1   7.262552638863176E1  -9.336271968854733E1  -1.836759144140778E1  -1.879231720230487E-1   1.460867745665518E2  
 4.007301841473178E9    -2.682506901120799E-1   1.466726670792861E2  -9.749344115054068E1   1.323822484335158E2  -9.964580261511007E1   1.201603365623589E2  -1.830189909058238E-1   1.461159095054802E2  
 4.007397918334668E9    -2.724938529737178E-1   1.467007007418207E2  -8.799730637165119E1   4.473109046798579E1  -8.177326755711630E1  -1.503247293336059E2  -1.801122581059030E-1   1.461713995667225E2  
 4.007493995196157E9    -2.781241022382143E-1   1.467133299904905E2  -8.432861420435995E1  -6.493116402552349E1  -8.306261695730905E1   1.238578930085983E2  -1.846410473639478E-1   1.461668360431200E2  
 4.007590072057646E9    -2.610097345225440E-1   1.467182148449116E2  -8.789436266715879E1   3.100099692734754E1  -8.301340115301420E1  -6.094786338980265E1  -1.839459410981514E-1   1.461079537291846E2  
 4.007686148919135E9    -2.698096623580155E-1   1.466520474243883E2  -7.810202810199280E1  -4.975519190783134  -8.174165214071290E1  -1.334665843624774E2  -1.825261861327321E-1   1.460941224599499E2  
 4.007782225780624E9    -2.651360831553750E-1   1.466852127192369E2  -8.853345112654500E1   1.113488324834679E2  -8.247240672270496E1   9.760030551451156E1  -1.962132301298739E-1   1.460785551093938E2  
 4.007878302642114E9    -2.653831132104315E-1   1.466515567042965E2  -9.562142560109938E1   1.360292522821487E1  -8.838388239645686E1   9.482231597859395E1  -1.856571590634615E-1   1.460430331085721E2  
 4.007974379503603E9    -2.774921447847913E-1   1.466600103836603E2  -9.108251318475321E1  -1.690668446536661E2  -9.114985203732296E1  -1.194990694294089E2  -1.845242591713666E-1   1.461135267404651E2  
 4.008070456365092E9    -2.736657198573042E-1   1.466412150440801E2  -8.152599040918999E1   7.791005363378206E-1  -9.149396708951960E1  -1.434324281427244E2  -1.796036378071075E-1   1.460796034330297E2  
 4.008166533226581E9    -2.718232251208792E-1   1.466926322012093E2  -8.596929044794032E1   1.246061894738506E1  -8.228977458247113E1   1.686375808603794E2  -1.862024002718767E-1   1.460442327670638E2  
 4.008262610088070E9    -2.772431196715041E-1   1.466109130237751E2  -8.889099255384306E1  -1.226044652858581E2  -8.257513808417383E1  -1.308084647380312E1  -1.948796764770791E-1   1.460638076566514E2  
 4.008358686949560E9    -2.760308094575676E-1   1.466520500611378E2  -9.560610662039656E1   2.749895703172637E1  -8.412437349623892E1   7.241263135644198E1  -1.869579819485001E-1   1.460272867676144E2  
 4.008454763811049E9    -2.738513374317249E-1   1.466113722568108E2  -9.017680225784636E1   1.568595422106291E2  -8.557647992751106E1  -1.787078282456169E2  -1.914465932453437E-1   1.460567066163523E2  
 4.008550840672538E9    -2.757394959360160E-1   1.466196195361640E2  -9.122242240646017E1  -1.356470023281069E2  -9.073062250407580E1  -1.345907368888153E2  -1.911131988240335E-1   1.460738815973946E2  
 4.008646917534027E9    -2.731339634572410E-1   1.466283715909926E2  -8.507548322649083E1   5.055539966428559E1  -8.083960193988766E1   1.541018911057032E2  -1.971280862365109E-1   1.460308420086699E2  
 4.008742994395516E9    -2.805821434525794E-1   1.465911186759894E2  -8.004646535868008E1   1.323899498854991E2  -8.436144432242305E1  -7.319563385032875  -1.868395613369547E-1   1.459893853706249E2  
 4.008839071257006E9    -2.726286466799625E-1   1.466101374090787E2  -8.772610901886945E1   1.687118574449242E2  -9.053121460719200E1   7.742682700010958E1  -1.863970188597177E-1   1.459915655636251E2  
 4.008935148118495E9    -2.793246929458986E-1   1.466119525486262E2  -8.776244318742857E1   5.244203255837391E1  -9.182406273568759E1  -1.465593971397665E2  -1.980571087887702E-1   1.460021558428555E2  
 4.009031224979984E9    -2.752751957047286E-1   1.465562537365243E2  -8.913888907928821E1  -6.971228238608008E1  -9.104042050197708E1   7.821533075810100E1  -1.898220643426007E-1   1.460259398415453E2  
 4.009127301841473E9    -2.752439964361103E-1   1.465570486842849E2  -8.645294810950456E1   5.253410983968924E1  -9.867121573293268E1  -8.321153724114463E1  -1.933408618115450E-1   1.459674855310145E2  
 4.009223378702962E9    -2.792408252653260E-1   1.466528934976511E2  -8.600054692503584E1  -3.906007265442730E1  -8.306838230863227E1   6.379220674981188E1  -1.999450936606030E-1   1.459682088420096E2  
