#  HZ   S   DB   R     50.00 
! Rohde & Schwarz ZVA67 4Ports - Version 3.30 - 1305.7002k04 SN: 101038
! Date: 2022-07-22 05:30:39
! Measurements: S11 S21 S12 S22 
! 
 2.000000000000000E7    -4.351607233992211E-2  -2.345774111822846  -6.027195913006784E1   3.297675569617186E1  -7.367269777668803E1   9.071472946031339E1  -4.598357552881890E-2  -2.572794284971839  
 2.400000000000000E7    -1.797573712195662E-1  -1.249257093770871  -6.600193033101186E1  -9.300130281611710E1  -5.645851283332607E1   1.144367447845814E2  -1.382078121018749E-1  -2.288916504527610  
 2.800000000000000E7    -1.039978195208875E-1  -1.186930058811420  -6.840080049536830E1   1.680627329995361E2  -6.354173850367966E1   8.061418584339019E1  -8.409962546532826E-2  -2.503638226618855  
 3.200000000000000E7     8.121392768031310E-2  -8.569876491496521E-1  -7.813522028634787E1   1.449213259881539E2  -7.175061333154147E1  -1.683727341228354E2  -1.841239683810920E-2  -1.817804477194358  
 3.600000000000000E7     1.076164947032817E-1  -1.330474815024773  -6.682444856561286E1  -1.606800569843418E2  -6.536553199480059E1   1.472100366181022E2  -6.668464778643747E-2  -7.341099072641694E-1  
 4.000000000000000E7    -4.102363162374274E-2  -2.482059262109714  -7.274844505094217E1  -1.250082001439420E2  -6.858871739336883E1   1.396076181318086E2   3.689628960760810E-2  -2.054109253973262  
 4.400000000000000E7    -7.662642058284815E-2  -1.742422976223655  -8.084694936801347E1  -1.245784643281690E2  -7.698446068415177E1  -1.254637255791538E2  -3.819880447379772E-2  -1.111888337766559  
 4.800000000000000E7     8.065587283377186E-2  -2.067194437398924  -7.003745073536551E1   8.661102257683270E1  -7.297944614291760E1   1.495751835443687E2  -2.616135005092881E-2  -2.211666385358913  
 5.200000000000000E7     2.573605563944906E-2  -2.862525272320369  -6.916671592734454E1  -2.057455687702184E1  -7.213129672459276E1  -9.925657340505354E1  -1.307515846647807E-1  -1.988726882688260  
 5.600000000000000E7    -4.432636642715349E-2  -2.208773339265174  -7.042169623146330E1  -1.732964163018164E2  -6.808815039592552E1   8.528769808986296E1  -5.380522788735849E-2  -2.845898716191275  
 6.000000000000000E7     3.683869354701934E-2  -2.665771211306761  -7.039207803156930E1  -1.093329072423307E2  -7.607122064282029E1  -4.953890552436432E1  -1.015478492687929E-1  -1.901343977096429  
 6.400000000000000E7     1.676663744886747E-1  -2.647568984681949  -7.440149602208356E1  -1.748526619834265E2  -6.950333663598480E1   3.194144392886626E1   5.220231685187902E-2  -3.092855557446633  
 6.800000000000000E7     4.590016536172984E-2  -4.045425620926310  -7.298822762282620E1   1.224801078738005E1  -6.647656151790530E1   7.361632970011894  -7.747529832954159E-2  -3.024635519883872  
 7.200000000000000E7    -8.541121403621894E-2  -3.792148202944273  -7.177278065296740E1   5.060866773370181E1  -8.036430799285743E1  -1.770635757559254E2  -7.113954064301506E-2  -3.729327478572881  
 7.600000000000000E7    -9.086833550196459E-2  -2.002021122141190  -7.829197964257699E1   6.015284010751133E1  -6.619270952024176E1   1.225792138950563E2  -1.466453682427167E-2  -2.402367180497364  
 8.000000000000000E7    -4.795724131364865E-2  -3.472947862983877  -6.332467104103326E1  -2.617762765097112E1  -7.092248389467427E1  -3.242743702229420  -5.298935212928754E-2  -3.682903184639914  
 8.400000000000000E7     7.423027088231261E-2  -2.513357379572935  -6.824043030080379E1   6.988608193493114E1  -6.967150594252243E1  -1.403906243243971E2   4.940583130992449E-3  -3.139580550739741  
 8.800000000000000E7     2.534041955878281E-2  -4.284627491267236  -7.985578583212700E1   1.413789594752864E1  -7.382833145233647E1   1.565618800743963E2   8.375356276350561E-4  -3.785701754860149  
 9.200000000000000E7    -4.283923931511422E-2  -5.120749342529437  -7.128708059843847E1  -8.193454588975099E1  -7.485001218234841E1   1.724661538621450E1   2.070604842311479E-2  -4.355312602236378  
 9.600000000000000E7     1.881764310729681E-4  -3.675927851988819  -7.318945277937939E1  -1.186919943881967E2  -7.244794058799702E1   1.263811235542811E2  -6.032000760350137E-3  -3.911968276896377  
 1.000000000000000E8     6.874572173484451E-2  -4.330425125208705  -6.953226114367608E1   9.209537400444944E1  -6.759016259172968E1  -9.446435900589010E1   1.155613636038158E-1  -4.550086686939658  
 1.040000000000000E8    -2.667850146053200E-2  -4.913837664510999  -7.017958298414150E1   1.380062576093129E2  -7.596765343991014E1  -1.248370884907038E2  -1.176584995380429E-1  -4.179286479269564  
 1.080000000000000E8    -2.656419193493520E-2  -5.196479056332081  -7.188124274447655E1  -2.536420818900870E1  -7.067619895597601E1  -1.071596276707048E2  -1.230327943801827E-1  -5.376751588204338  
 1.120000000000000E8     4.531165366569097E-2  -5.040146320010061  -7.673270444067920E1  -6.603338642152961E1  -7.635669961035143E1  -1.632047441428099E2  -2.363218201876432E-2  -5.641360203654220  
 1.160000000000000E8    -9.192336629343398E-4  -5.379329928782027  -7.096743965796118E1  -1.204487154045918E1  -7.559200326060349E1  -1.694794433091687E2  -4.681159677229305E-3  -6.128045705367895  
 1.200000000000000E8    -7.819112181936232E-2  -5.751584051311967  -7.805457702123726E1  -6.857953782640936E1  -7.603946987402432E1  -7.414189391958325E1  -3.535172260793766E-2  -5.547732469036600  
 1.240000000000000E8    -6.143674821375180E-2  -5.070583647900267  -7.404920660585965E1   1.533535897767537E2  -7.649361800882996E1  -1.262517705456655E2   2.421687916888490E-2  -4.969889402087966  
 1.280000000000000E8    -5.451366693129845E-2  -4.691252266817950  -8.885200567140619E1   4.373392475656909E1  -7.721334315682599E1   8.303536575082966E1  -2.491437281814551E-2  -5.228230285800564  
 1.320000000000000E8     5.182669063014851E-2  -5.738792693928565  -9.635804311709144E1   1.254150008419016E2  -7.400268031920797E1   1.044923529098354E2   5.943325946136315E-3  -6.060860407984450  
 1.360000000000000E8     3.934242921404634E-2  -6.045962400247316  -7.305388703537727E1   6.241079590491789E1  -7.200245397991228E1  -8.157725424324369E1   8.095062373057593E-2  -6.649368039679922  
 1.400000000000000E8     8.594270831149537E-3  -5.801316101549822  -8.065421779374437E1  -1.258916662605656E2  -7.766796901759491E1  -1.019693846790439E2  -2.597164699797908E-2  -6.208426768144475  
 1.440000000000000E8     6.585183107133090E-2  -6.541373990649044  -7.384135630067989E1   5.646498965910806  -7.119694311809749E1  -1.040490958794301E1   7.390331933439538E-3  -6.401955518502385  
 1.480000000000000E8     3.070508849827462E-2  -6.877397427432241  -8.178711264168310E1   1.377915326491969E2  -8.710937675494203E1   1.384412458281003E2  -3.163719077961276E-2  -6.716387007825549  
 1.520000000000000E8     3.181051038244127E-2  -6.739643218700967  -8.166290194639637E1  -2.533994264259170E1  -8.451347080289625E1   7.924352479255333E1  -2.067038135654778E-2  -6.429053321413061  
 1.560000000000000E8     2.781772376492795E-2  -6.812829190841041  -7.862010433481062E1  -5.746282373184594E1  -6.987513020456417E1  -1.596100759454490E2   1.939134206502973E-2  -6.975403392407864  
 1.600000000000000E8     3.489933867808735E-2  -6.696605275167599  -9.157760894544612E1  -1.003046783838415E2  -7.465945939072496E1   1.061821317587411E2   1.547211429165079E-2  -7.219653539500684  
 1.640000000000000E8    -4.923690087682738E-2  -7.223692948352596  -7.833347503162085E1  -7.146082320510293E1  -7.031198572727182E1   1.511960390875091E2   2.436732576421084E-2  -7.528544453629057  
 1.680000000000000E8    -3.026299383624350E-4  -7.722980974781751  -7.989136044923323E1  -2.962545987064020E1  -7.521214118919976E1  -1.875780267407398E1   4.125901961263342E-2  -7.415009367223067  
 1.720000000000000E8    -2.895178436569449E-2  -7.717878617878252  -6.968477194339558E1   1.358565891143815E2  -7.835160397196978E1   4.979005329669795E1  -1.929877239239864E-3  -7.733568346349918  
 1.760000000000000E8     2.774619918377260E-4  -7.780461978690425  -7.876593136364559E1   1.236300017891748E2  -7.547611161726681E1  -8.983888331610493E1   2.891649552905151E-2  -7.915510620184853  
 1.800000000000000E8     9.183677706654871E-3  -8.026128727446558  -8.601365739036145E1   1.634399117631473E2  -7.355158878440867E1  -1.763970410767070E2  -1.751665719173403E-2  -8.156097556644109  
 1.840000000000000E8    -3.455224270470720E-2  -7.156291348831330  -7.770971943795378E1  -1.365894355895042E2  -7.440628417342099E1   8.875426864931480   3.060572864641217E-2  -7.830440352256329  
 1.880000000000000E8    -1.670295221739584E-2  -7.994525432763499  -7.300823812910237E1   1.547221037898772E2  -8.188460647530697E1  -1.045446978392698E2  -8.613979582929815E-3  -8.540985013753234  
 1.920000000000000E8     4.831161260485070E-3  -8.529241095534848  -7.639152773395324E1  -1.212557400857421E2  -8.167376941324106E1  -6.038390156620190E1  -2.107081662261781E-2  -8.532301617667464  
 1.960000000000000E8    -1.099057125885151E-2  -8.351591068221540  -7.699806133029364E1   1.235163966217236E2  -7.918097882582376E1   3.971043555692426E1  -1.230552991046952E-2  -8.883873893432604  
 2.000000000000000E8     2.573929499698558E-2  -8.444957227124867  -8.751577587295333E1  -1.065194296685641E2  -7.851524194227619E1   1.287086995413465E2   2.617289143958150E-2  -9.059652344634703  
 2.040000000000000E8    -1.113228498963676E-2  -8.874369261998524  -7.873419806463073E1   9.682056683461617E1  -7.340429995854808E1   5.055847299392845  -9.514717853193647E-3  -8.903405716729974  
 2.080000000000000E8    -1.666425251759631E-3  -9.257744736349389  -7.945930469605393E1   5.055648879222720E1  -7.272164046868164E1  -1.180270303549159E2   1.887427113365999E-2  -9.238393531803528  
 2.120000000000000E8    -4.081452093634812E-3  -8.259565922424093  -7.869430072222087E1   4.224551020617277E1  -8.248901149951031E1  -9.258210014685500E1  -8.385358729662741E-3  -8.935527035925786  
 2.160000000000000E8    -1.411049714294583E-2  -9.693813463654356  -7.229335129164939E1  -9.941098905660898E1  -7.551971463365298E1  -1.081470362208929E2  -3.367844633288467E-2  -9.795365555000860  
 2.200000000000000E8    -2.348546849657213E-2  -9.601208353670817  -7.675072655801037E1  -1.358431787654546E2  -7.858538228341568E1   9.493944232608946E1   2.476499124359836E-2  -9.582969133369559  
 2.240000000000000E8     1.786253944487900E-2  -9.835298229430396  -7.749120668524051E1   5.775438629426510E1  -7.514844612856361E1  -8.024100604412132  -4.212014540546005E-3  -9.844466184532919  
 2.280000000000000E8     3.328724191327440E-2  -9.887941787019194  -7.891736923861311E1  -7.382471815509369E1  -7.252963406764260E1  -4.035185198261049E1  -5.909748831846749E-3  -9.956722548295241  
 2.320000000000000E8    -3.568604108927664E-2  -1.032314963762979E1  -9.499766647548027E1   7.308770969274916E1  -7.784861203017934E1  -1.510372284373713E2  -7.046538201255681E-4  -1.027432884988328E1  
 2.360000000000000E8     2.936531082854066E-2  -9.977586171862772  -7.535282556305837E1  -2.259728271310765E1  -7.553781758707008E1  -7.094529778122451E1  -1.802967616663267E-3  -1.007336420626498E1  
 2.400000000000000E8     5.500421505702289E-2  -1.047034410914782E1  -7.162443368231310E1   1.597114205881460E2  -7.876282151359759E1   1.205674887825428E2   3.109367853132250E-2  -1.074960235929635E1  
 2.440000000000000E8     2.459349258533080E-2  -1.061122620480091E1  -7.457850359643464E1   1.380338089575193E2  -7.876471716656037E1   1.304984848223350E2  -5.283263200180032E-3  -1.102288100403900E1  
 2.480000000000000E8    -1.882122759003598E-3  -1.096713842894932E1  -7.837390293858555E1   6.964897577726231E1  -7.101550487029635E1  -1.609982907024726E2  -2.666274204541694E-2  -1.093170620848305E1  
 2.520000000000000E8    -9.793648773691824E-3  -1.095501344261867E1  -7.803710114763358E1   7.349246050650910E1  -7.618737340787293E1  -1.663857849293553E2   2.814542555512009E-2  -1.115843962965012E1  
 2.560000000000000E8    -5.136882922302628E-4  -1.098526530777980E1  -7.229640823217922E1   1.196028878377295E2  -7.419389965180889E1   1.458662407424804E2   4.854553320457775E-2  -1.158907718749346E1  
 2.600000000000000E8    -2.276903887780160E-2  -1.156891146325303E1  -7.935135399913781E1   7.768264064438429E1  -7.498270814805110E1  -2.921935525917993E1   2.497153700470326E-3  -1.168213106283325E1  
 2.640000000000000E8    -4.311403674834070E-2  -1.129714077547964E1  -8.190827793658652E1   6.045137940035283E1  -8.556080637565360E1   2.450681621868102E1   2.408434814100158E-2  -1.140456184537529E1  
 2.680000000000000E8    -5.701954956163026E-2  -1.198002927746734E1  -8.371360387647492E1   2.276154908270598E1  -7.958550908513557E1   2.159211925135910E1  -5.835949729136016E-2  -1.225800232256876E1  
 2.720000000000000E8    -7.092330006212424E-3  -1.187513312685815E1  -8.632097929423054E1  -6.370160368826480E1  -8.111401867904293E1   3.175398932353907  -8.510524835382383E-3  -1.230196325569878E1  
 2.760000000000000E8     1.500770194312630E-2  -1.230313344018533E1  -7.892880482428902E1  -1.638576556209335E2  -8.007331847591287E1  -4.113112120930407E1   2.719467345824679E-2  -1.236241178422521E1  
 2.800000000000000E8    -1.788531945246727E-3  -1.265172869556289E1  -7.190370505678969E1   2.904603012703501E1  -7.731247206692289E1  -1.471837317262607E2  -1.160554058823349E-2  -1.258426904604699E1  
 2.840000000000000E8    -1.736460023347221E-2  -1.266629591165807E1  -7.595777061985508E1   4.340120406087503E1  -6.977701756600246E1  -9.869768406746817E1  -1.529490076863476E-2  -1.266002402780064E1  
 2.880000000000000E8    -6.457820886911550E-3  -1.308175294813136E1  -8.411552042192163E1   3.860707065419754E1  -7.899390334342147E1   1.135339005992288E2  -3.465940981724572E-2  -1.289595163081560E1  
 2.920000000000000E8    -2.595212171212891E-2  -1.283887579606039E1  -7.445542194544674E1   1.546502263594066E2  -7.106630767794803E1  -5.220638313520494E1   1.571812471307924E-3  -1.268119014110606E1  
 2.960000000000000E8    -5.146509429235714E-2  -1.334762931810966E1  -8.789623833427164E1   6.841368462544099E1  -7.257924385727327E1   1.494027814394799E1  -1.825889969532747E-3  -1.324447755794075E1  
 3.000000000000000E8    -3.703485073594685E-2  -1.343768643986669E1  -8.074003306216210E1   9.186014997223909E1  -8.191887064661944E1   1.507340927364947E1  -2.915705149261736E-2  -1.325472272435361E1  
 3.040000000000000E8    -2.644523180160412E-2  -1.341149440237591E1  -8.438944505885029E1  -5.121123417260310E1  -8.946689071305450E1  -3.065715369601931E1  -1.885728892608416E-2  -1.351518368073564E1  
 3.080000000000000E8     2.689837428908514E-3  -1.366794672027719E1  -7.461249151225169E1   1.698215213961516E2  -7.780366688821202E1  -1.642056081712957E2  -1.159776759844045E-2  -1.389498763086147E1  
 3.120000000000000E8    -2.729289063971005E-2  -1.395340049920903E1  -8.874839678661846E1   2.094723270512661E1  -7.929862222333235E1   7.888654864439081E1  -1.152883520200709E-2  -1.415391381096917E1  
 3.160000000000000E8     3.598323144518774E-3  -1.449461941829984E1  -7.951352339894930E1   1.503242599298092E2  -8.509613963880636E1  -1.507951672142020E2  -1.252177859449183E-2  -1.448618297752128E1  
 3.200000000000000E8    -1.104122522335553E-2  -1.452201025524038E1  -7.547433002813364E1  -1.383702258029427E2  -8.339080557889962E1  -1.280338405534275E2  -6.299363097763242E-3  -1.454782443312712E1  
 3.240000000000000E8    -2.180941357082181E-2  -1.462439097090953E1  -1.061003555358453E2  -1.337120720959177E2  -8.507630246926175E1   2.278682641715057E1   1.658917972709025E-3  -1.461694798145480E1  
 3.280000000000000E8    -2.411265872109639E-2  -1.513974923118175E1  -7.812146218401341E1  -1.534559554600408E2  -7.869601166125632E1   1.071347394623030E2  -1.609910456594357E-3  -1.503074339677203E1  
 3.320000000000000E8    -1.950834252372289E-2  -1.467618777066518E1  -7.316710186245111E1   1.600493099766008E2  -9.257088181381928E1   1.085168985929921E1   1.133413036388704E-2  -1.502028666052222E1  
 3.360000000000000E8    -7.123988462526956E-3  -1.495327592782107E1  -7.753522275187919E1  -1.622716458808702E2  -8.064499362304099E1  -8.832833600091995E1   2.697972479255571E-3  -1.539138115787967E1  
 3.400000000000000E8    -1.979510566806522E-2  -1.508453843160442E1  -8.768907816830593E1  -7.934165521838169E1  -8.547910318160052E1   1.585852570793015E2  -1.158844560477764E-2  -1.518682115922526E1  
 3.440000000000000E8    -3.839967721917007E-2  -1.530822698436603E1  -8.203307388602586E1   1.158484802094753E2  -8.594753623320861E1   9.273202366813916E1   8.214283289949005E-3  -1.545609351175320E1  
 3.480000000000000E8     2.140574770438542E-3  -1.551403466405841E1  -9.211284085375553E1  -5.200795237080356E1  -7.242958942326257E1   5.688173385663474E1  -4.592089617808171E-3  -1.553675888722124E1  
 3.520000000000000E8    -2.211654211943927E-2  -1.563737804468546E1  -8.562344271676352E1   3.336764649415552E1  -7.349201582617265E1   7.723894202175522E1  -2.728613970458407E-3  -1.589583053833565E1  
 3.560000000000000E8    -1.384101866442548E-2  -1.588005326543422E1  -8.158971948857275E1   3.854688130201711E1  -8.545673646863747E1  -1.244952640721828E2  -1.079089541822920E-2  -1.617211221830190E1  
 3.600000000000000E8    -2.198200428472096E-2  -1.615721104395862E1  -7.692711371034518E1   5.800967220653444E1  -7.916754282826322E1   1.750028488704716E2   1.221384748665721E-2  -1.624306237901596E1  
 3.640000000000000E8    -1.458491634345198E-2  -1.690009346743837E1  -7.979879870135704E1   3.449667055646334E1  -7.666959858720820E1   9.927319250877929E1   2.868208718383712E-2  -1.667974186900953E1  
 3.680000000000000E8    -1.485257904409928E-2  -1.656841243481202E1  -7.875844413570130E1   1.559719365940885E2  -6.866389361404544E1   1.248087088425579E1  -7.763080884163929E-3  -1.679921498200939E1  
 3.720000000000000E8    -3.566658381976404E-2  -1.647874256318608E1  -8.832987910132404E1  -1.599191527179355E2  -7.157421844642612E1  -5.170043930997325  -2.548546997255974E-2  -1.675243422106467E1  
 3.760000000000000E8    -3.095068045843414E-2  -1.691880651064398E1  -7.732681822725218E1  -1.417445196174699E2  -9.333919764470100E1   6.640585358351603E1   3.342683726308590E-3  -1.685942779620115E1  
 3.800000000000000E8    -1.698207027906805E-2  -1.702072269365863E1  -8.431046114795157E1  -1.560249995689000E2  -8.383781920472664E1   5.122208721775346E1  -1.050279160986794E-2  -1.714221576354670E1  
 3.840000000000000E8    -2.308276684946311E-3  -1.717224013043204E1  -8.171947457575145E1   1.128667461424101E2  -8.518875368353238E1   3.960508324595264E1  -1.281444010461459E-2  -1.713020201941709E1  
 3.880000000000000E8    -2.616048606251347E-2  -1.714636266442706E1  -8.928695916714160E1   3.062567826728499E1  -7.273199562269114E1   1.369287153040795E2  -2.501733415361807E-2  -1.734501495370179E1  
 3.920000000000000E8    -2.098924452451490E-2  -1.765677333554299E1  -9.743372518796949E1  -7.919433335502725E1  -8.297108262436080E1   3.345188218385467E1  -2.057491659709815E-2  -1.773556845092123E1  
 3.960000000000000E8    -4.875236207990327E-2  -1.767992689706240E1  -8.293908315377639E1  -4.868464171695943E1  -7.686098046210122E1  -3.906467071982875E1  -2.956848937145508E-2  -1.778634156801373E1  
 4.000000000000000E8    -6.587057781107014E-2  -1.805931679502380E1  -7.629538793773000E1   3.716249806830862E1  -7.673437147567670E1   1.967021398639600E1  -2.763493601845397E-2  -1.785423308541870E1  
 4.040000000000000E8    -4.881610122630219E-2  -1.802605886856530E1  -7.391600937325799E1   1.369782664699773E2  -8.602069006810407E1   9.416906492022355E1  -8.654345524234967E-3  -1.795698784662477E1  
 4.080000000000000E8    -5.342392153740406E-2  -1.839159359962469E1  -8.786137189105658E1  -1.759174214849611E2  -8.338572498579563E1  -1.128089181328491E2  -1.950694510748418E-2  -1.841621073230330E1  
