!
! C:\Users\Aljaz\Desktop\BPF_final.S2P
!
! Touchstone 1.1 file saved by VNA.EXE V1.65 (www.ke5fx.com/gpib/readme.htm)
! 1. 07. 2022 15:27:08
!
!    Source: HP8510C.07.14: Aug 26  1998 
!  Min freq: 4.050000E+009 Hz
!  Max freq: 4.550000E+009 Hz
!    Points: 801
!    Params: S11 S21 S12 S22
!
!!!!!
# GHZ S DB R 50
4.0499999999999998 -0.031615 -102.254708 -84.362313 -100.337023 -88.429016 -85.039657 -0.467968 -27.202984 
4.0506250000000001 -0.023907 -102.719558 -91.281455 130.793688 -84.448565 -121.892680 -0.461014 -27.580174 
4.0512499999999996 -0.017561 -103.152335 -92.437889 157.528972 -97.668775 -140.298633 -0.451687 -27.958077 
4.0518749999999999 -0.025646 -103.617284 -83.888701 165.835773 -84.103076 166.671570 -0.443046 -28.376524 
4.0525000000000002 -0.025229 -104.097065 -88.210409 35.508623 -95.572039 -16.111366 -0.445089 -28.767335 
4.0531249999999996 -0.017463 -104.601414 -84.083469 -119.223796 -88.330438 -15.993215 -0.454925 -29.129411 
4.0537500000000000 -0.016884 -105.060747 -89.059449 -25.675187 -94.512407 -146.235182 -0.441969 -29.533338 
4.0543750000000003 -0.018162 -105.560785 -81.759325 -52.381528 -99.552679 64.451564 -0.443203 -29.908750 
4.0549999999999997 -0.013240 -106.035843 -87.755264 -38.545428 -90.632791 146.691486 -0.439244 -30.316807 
4.0556250000000000 -0.016849 -106.504423 -83.048036 -66.694719 -94.838780 -66.173293 -0.437279 -30.719041 
4.0562500000000004 -0.014884 -106.985288 -93.868429 20.451221 -99.276731 -86.379104 -0.435897 -31.110056 
4.0568749999999998 -0.018394 -107.449150 -95.612744 42.750981 -91.031519 -38.370452 -0.434270 -31.488646 
4.0575000000000001 -0.014885 -107.925372 -91.317590 -131.999178 -91.998910 -132.934379 -0.425896 -31.892874 
4.0581250000000004 -0.011030 -108.407270 -93.442433 175.254270 -90.867166 35.072518 -0.425025 -32.268533 
4.0587499999999999 -0.003115 -108.895713 -92.107188 -122.513096 -92.951482 4.596126 -0.420020 -32.652196 
4.0593750000000002 -0.010888 -109.367299 -92.603386 -57.446213 -89.747496 175.573383 -0.416413 -33.040867 
4.0599999999999996 0.001976 -109.860784 -94.393837 39.749851 -81.112157 -67.712494 -0.422589 -33.427352 
4.0606249999999999 0.000441 -110.331758 -87.526516 115.798728 -82.919947 -73.095601 -0.413562 -33.795349 
4.0612500000000002 0.000912 -110.788096 -91.227519 -136.520158 -85.944993 -102.888679 -0.414041 -34.171240 
4.0618749999999997 0.006021 -111.275112 -92.410541 -46.857039 -85.916007 1.754867 -0.412758 -34.547526 
4.0625000000000000 0.010281 -111.746604 -85.117485 82.027681 -100.735335 103.305199 -0.412236 -34.906550 
4.0631250000000003 0.001672 -112.189673 -94.254251 -18.567315 -87.394706 -135.513592 -0.406104 -35.308284 
4.0637499999999998 0.004630 -112.667588 -86.482238 1.839336 -80.539071 126.411587 -0.408447 -35.659118 
4.0643750000000001 0.008888 -113.133681 -86.548543 60.285783 -84.654226 155.672715 -0.395031 -36.062892 
4.0650000000000004 0.009567 -113.584572 -91.795230 130.289605 -96.109864 42.555677 -0.401562 -36.419034 
4.0656249999999998 0.007725 -114.067319 -86.512480 111.479272 -88.027302 54.752434 -0.394051 -36.783535 
4.0662500000000001 0.007785 -114.509884 -84.476803 -77.031233 -84.254217 137.853422 -0.393007 -37.160782 
4.0668749999999996 0.015265 -115.000552 -78.891053 169.291716 -88.720645 79.626897 -0.393106 -37.524865 
4.0674999999999999 0.018281 -115.452244 -85.474036 48.930219 -90.269297 -118.062859 -0.396917 -37.884294 
4.0681250000000002 0.018511 -115.910363 -91.413646 -107.336016 -85.159060 -79.930101 -0.391003 -38.260469 
4.0687499999999996 0.027910 -116.404483 -89.254589 -179.513711 -84.828769 87.665954 -0.384591 -38.640114 
4.0693750000000000 0.025275 -116.863674 -82.554658 155.984869 -97.678834 145.479474 -0.388641 -38.994784 
4.0700000000000003 0.024729 -117.319863 -96.516508 -139.158602 -87.474187 70.435123 -0.382471 -39.360118 
4.0706249999999997 0.028511 -117.774775 -94.500428 -23.832475 -105.937402 50.541584 -0.383012 -39.737485 
4.0712500000000000 0.024033 -118.242651 -87.228326 89.479992 -82.446053 -130.832941 -0.381269 -40.104292 
4.0718750000000004 0.035273 -118.711916 -83.081809 76.032403 -91.144946 5.323057 -0.380043 -40.478250 
4.0724999999999998 0.032061 -119.177445 -88.500613 37.873233 -80.929712 58.964135 -0.374878 -40.848620 
4.0731250000000001 0.028407 -119.635069 -95.226908 71.602074 -97.134301 -52.767545 -0.373827 -41.234696 
4.0737500000000004 0.032094 -120.097306 -115.087750 125.946879 -87.896927 -104.042666 -0.367212 -41.590366 
4.0743749999999999 0.029835 -120.548064 -98.044705 17.602972 -81.529430 -144.005749 -0.372088 -41.978803 
4.0750000000000002 0.035815 -121.019304 -86.057136 94.979029 -82.318694 -30.308812 -0.364866 -42.346673 
4.0756249999999996 0.035809 -121.485782 -93.268377 -13.973632 -93.919627 50.217841 -0.366961 -42.728156 
4.0762499999999999 0.033108 -121.930789 -81.042596 -33.108014 -91.776928 -100.617995 -0.367493 -43.070054 
4.0768750000000002 0.035342 -122.392655 -96.707519 5.353321 -90.624840 -150.995763 -0.365826 -43.475537 
4.0774999999999997 0.042255 -122.880234 -89.085082 -23.762954 -93.791138 116.138889 -0.360099 -43.845220 
4.0781250000000000 0.041934 -123.319896 -86.716931 -165.077515 -83.362663 -8.572887 -0.355421 -44.233593 
4.0787500000000003 0.037156 -123.791956 -87.905846 -80.862898 -90.130498 -127.348848 -0.358925 -44.608273 
4.0793749999999998 0.034754 -124.235406 -86.490163 39.019763 -97.288052 -139.578926 -0.356393 -44.992271 
4.0800000000000001 0.032871 -124.706611 -90.164414 46.042153 -105.337808 -172.550407 -0.355221 -45.385119 
4.0806250000000004 0.037487 -125.190986 -91.387849 174.966884 -104.714680 87.101716 -0.351319 -45.767332 
4.0812499999999998 0.038755 -125.644321 -92.055396 -113.856346 -88.873959 -56.172206 -0.356669 -46.125977 
4.0818750000000001 0.035932 -126.117630 -87.065007 -114.244538 -86.115792 -5.047510 -0.354298 -46.523732 
4.0824999999999996 0.032197 -126.557373 -89.900539 128.615782 -84.698845 72.451430 -0.354482 -46.912885 
4.0831249999999999 0.038132 -127.054430 -86.352439 51.168073 -84.718315 -157.554101 -0.353110 -47.299150 
4.0837500000000002 0.029676 -127.493051 -91.284719 35.383256 -94.528942 -62.410370 -0.354685 -47.682448 
4.0843749999999996 0.032781 -127.955192 -88.358530 142.141925 -87.080241 41.886658 -0.356364 -48.077646 
4.0850000000000000 0.030842 -128.415186 -94.615554 82.401751 -82.806993 -18.837776 -0.351617 -48.488635 
4.0856250000000003 0.030464 -128.894644 -92.661760 -176.814058 -93.913892 100.788025 -0.361077 -48.882491 
4.0862499999999997 0.029334 -129.352185 -81.979831 47.125522 -86.248876 79.762773 -0.358773 -49.276754 
4.0868750000000000 0.025882 -129.814274 -95.607094 -153.152882 -89.350635 -3.556795 -0.358394 -49.672049 
4.0875000000000004 0.024577 -130.270148 -86.663788 94.608841 -87.262445 -42.676540 -0.363830 -50.070935 
4.0881249999999998 0.026036 -130.745758 -85.453697 80.770084 -91.683174 34.875730 -0.361054 -50.479618 
4.0887500000000001 0.019736 -131.195279 -95.517499 98.503056 -90.756652 48.164964 -0.370411 -50.862858 
4.0893750000000004 0.015881 -131.662238 -82.363769 137.151229 -90.898943 48.694538 -0.370578 -51.279488 
4.0899999999999999 0.019282 -132.162669 -90.700700 57.610318 -86.774486 172.404901 -0.369303 -51.684966 
4.0906250000000002 0.009492 -132.602077 -86.983246 27.170790 -94.522795 -35.391075 -0.375843 -52.091868 
4.0912499999999996 0.010444 -133.055877 -94.975077 -89.970089 -94.496801 103.365228 -0.368375 -52.526620 
4.0918749999999999 0.006095 -133.519670 -100.579428 119.054332 -90.438360 19.695012 -0.373462 -52.950491 
4.0925000000000002 -0.002336 -133.969751 -90.124165 76.253532 -87.920740 -78.988053 -0.377870 -53.348524 
4.0931249999999997 -0.001100 -134.457146 -96.473055 10.466229 -86.264308 -23.156507 -0.379240 -53.757356 
4.0937500000000000 0.002828 -134.923368 -90.929352 -93.053160 -93.265087 -100.715202 -0.386456 -54.176917 
4.0943750000000003 -0.009922 -135.384963 -88.233086 -141.436088 -91.699830 -3.926834 -0.389083 -54.603049 
4.0949999999999998 -0.010875 -135.839356 -91.801667 158.750345 -90.930908 98.979371 -0.389299 -55.027155 
4.0956250000000001 -0.015185 -136.305554 -83.882477 -109.133099 -84.946197 -25.384936 -0.397166 -55.438778 
4.0962500000000004 -0.017600 -136.773157 -89.254242 -0.706167 -89.026261 124.964966 -0.397326 -55.894670 
4.0968749999999998 -0.017487 -137.252877 -85.138111 147.897938 -85.621769 -75.276465 -0.404098 -56.312471 
4.0975000000000001 -0.033627 -137.690653 -92.750629 -147.392385 -92.469575 34.408404 -0.404926 -56.745882 
4.0981249999999996 -0.034548 -138.155801 -104.341496 150.340494 -86.589326 77.144418 -0.412168 -57.189199 
4.0987499999999999 -0.029130 -138.652174 -88.359520 51.201861 -89.509072 -42.631328 -0.413759 -57.624306 
4.0993750000000002 -0.037071 -139.125959 -96.961526 55.321023 -89.946731 -177.312296 -0.421745 -58.070109 
4.0999999999999996 -0.046664 -139.571840 -85.267176 23.182918 -95.643177 -9.619571 -0.423630 -58.519867 
4.1006250000000000 -0.048105 -140.051702 -91.022213 36.232094 -80.985594 65.683082 -0.432191 -58.966908 
4.1012500000000003 -0.054433 -140.492707 -88.796091 146.166519 -87.713419 -136.187623 -0.435691 -59.411131 
4.1018749999999997 -0.070067 -140.949831 -87.655662 63.731081 -84.724408 -150.685208 -0.441540 -59.855331 
4.1025000000000000 -0.071931 -141.415083 -95.633809 136.076234 -89.916587 -1.407362 -0.445932 -60.322697 
4.1031250000000004 -0.075309 -141.880911 -84.296697 -143.451093 -83.080608 75.264797 -0.458123 -60.772272 
4.1037499999999998 -0.078132 -142.355894 -90.125699 69.182262 -92.817710 52.637612 -0.455829 -61.231593 
4.1043750000000001 -0.088536 -142.814613 -94.276874 -86.449842 -80.824233 -64.211649 -0.465281 -61.701369 
4.1050000000000004 -0.096087 -143.274726 -106.190077 121.865233 -88.607263 -121.992280 -0.475455 -62.148816 
4.1056249999999999 -0.100373 -143.753102 -98.560760 30.721827 -84.855510 43.772478 -0.477777 -62.624434 
4.1062500000000002 -0.110901 -144.203746 -85.742507 115.847640 -92.287994 29.109424 -0.485008 -63.094277 
4.1068749999999996 -0.120089 -144.657081 -96.896638 53.741941 -86.734258 96.296941 -0.491909 -63.572321 
4.1074999999999999 -0.124134 -145.117398 -80.148122 37.969431 -86.250290 91.584748 -0.499769 -64.017239 
4.1081250000000002 -0.129001 -145.597686 -85.494457 3.680971 -87.476358 -70.392523 -0.509509 -64.504689 
4.1087499999999997 -0.138017 -146.048791 -84.864122 -1.264977 -84.494239 -9.052586 -0.514262 -64.984115 
4.1093750000000000 -0.150019 -146.500385 -88.667832 116.970288 -90.463392 -92.881071 -0.523374 -65.477659 
4.1100000000000003 -0.153813 -146.979788 -88.828294 -116.637582 -107.191582 137.420814 -0.525552 -65.952072 
4.1106249999999998 -0.165832 -147.411797 -94.422247 -153.216475 -89.063890 18.212647 -0.537964 -66.413764 
4.1112500000000001 -0.169788 -147.882727 -93.000209 104.142042 -105.918507 -24.843102 -0.549600 -66.901691 
4.1118750000000004 -0.175038 -148.367365 -88.138018 -12.977271 -92.683709 -24.086178 -0.555291 -67.403506 
4.1124999999999998 -0.181735 -148.813017 -89.114942 16.385419 -83.876608 -30.881101 -0.560825 -67.884450 
4.1131250000000001 -0.193117 -149.257617 -90.439359 54.617696 -93.522531 -32.976746 -0.567320 -68.381946 
4.1137499999999996 -0.197039 -149.738412 -86.029741 51.168666 -88.294425 -148.663380 -0.579222 -68.874726 
4.1143749999999999 -0.210649 -150.186903 -81.052198 -12.233248 -84.661058 -103.362484 -0.592053 -69.358948 
4.1150000000000002 -0.218871 -150.652795 -97.485722 -52.141307 -85.089403 -144.606313 -0.590294 -69.870433 
4.1156249999999996 -0.222148 -151.100637 -84.916993 74.972564 -104.247670 151.554998 -0.602989 -70.371895 
4.1162500000000000 -0.228832 -151.581669 -115.977743 -19.439227 -98.775637 42.178917 -0.611539 -70.882779 
4.1168750000000003 -0.239464 -152.043391 -87.524797 60.772339 -87.818137 154.346030 -0.620559 -71.364317 
4.1174999999999997 -0.242615 -152.515805 -90.592535 -42.780559 -95.892506 -26.543487 -0.624437 -71.888272 
4.1181250000000000 -0.249540 -152.965769 -87.470760 139.320197 -91.689087 134.888406 -0.637842 -72.383293 
4.1187500000000004 -0.261551 -153.413998 -90.226922 29.831029 -91.397606 -13.366607 -0.645578 -72.899904 
4.1193749999999998 -0.267142 -153.890565 -91.080017 60.247535 -97.996847 -89.913141 -0.650148 -73.422228 
4.1200000000000001 -0.279062 -154.337766 -85.691958 161.281036 -106.114599 -171.475499 -0.660749 -73.936168 
4.1206250000000004 -0.283701 -154.793205 -97.605421 -18.726336 -86.117241 4.654130 -0.666725 -74.456588 
4.1212499999999999 -0.291962 -155.274240 -89.051891 -86.208874 -88.380665 52.638540 -0.669443 -74.988048 
4.1218750000000002 -0.296516 -155.741567 -84.614685 13.232206 -102.809840 -171.939247 -0.688550 -75.488619 
4.1224999999999996 -0.305766 -156.194006 -83.562235 -63.080358 -89.816302 43.928688 -0.698803 -76.008798 
4.1231249999999999 -0.310882 -156.665536 -90.127605 23.242656 -97.048335 105.834510 -0.698330 -76.563525 
4.1237500000000002 -0.315744 -157.128788 -93.483666 -39.232851 -85.990100 30.922900 -0.707713 -77.094246 
4.1243749999999997 -0.323317 -157.597359 -91.211978 -70.345907 -88.208060 -135.725177 -0.719924 -77.609239 
4.1250000000000000 -0.323624 -158.078610 -87.055733 5.746960 -83.673308 -116.729699 -0.728846 -78.164230 
4.1256250000000003 -0.337146 -158.533771 -85.337517 -163.986579 -83.261364 -38.129923 -0.729099 -78.693798 
4.1262499999999998 -0.354382 -158.971773 -89.735995 13.787711 -87.820244 166.666862 -0.737229 -79.247400 
4.1268750000000001 -0.351671 -159.463563 -92.131654 19.192029 -86.262350 73.885781 -0.747402 -79.777308 
4.1275000000000004 -0.354210 -159.923377 -86.233186 31.004643 -87.556690 31.858492 -0.757794 -80.311215 
4.1281249999999998 -0.360889 -160.405275 -88.509391 99.489426 -98.413088 18.938888 -0.763465 -80.875712 
4.1287500000000001 -0.368403 -160.865265 -86.320859 -16.198521 -87.196390 -79.242674 -0.771302 -81.418592 
4.1293749999999996 -0.377372 -161.319622 -85.510419 88.983541 -88.182685 -61.241625 -0.779590 -81.978637 
4.1299999999999999 -0.377816 -161.801835 -89.091697 -116.339387 -87.815351 -120.744571 -0.788403 -82.519228 
4.1306250000000002 -0.386002 -162.264523 -101.911213 -108.073804 -92.135844 34.208347 -0.792045 -83.075980 
4.1312499999999996 -0.390103 -162.733362 -92.049018 161.994727 -91.204204 -0.007763 -0.792078 -83.623636 
4.1318750000000000 -0.395698 -163.209957 -82.587688 141.173151 -93.300328 94.517553 -0.805605 -84.188612 
4.1325000000000003 -0.399740 -163.685163 -91.772752 23.705922 -88.931177 162.842865 -0.804739 -84.767362 
4.1331249999999997 -0.405055 -164.157275 -94.168607 167.102678 -83.762297 -2.041179 -0.814447 -85.305097 
4.1337500000000000 -0.405255 -164.645739 -84.925517 -89.134425 -88.659922 -91.078911 -0.816202 -85.880169 
4.1343750000000004 -0.412292 -165.098343 -94.589437 82.903740 -81.626217 -26.148355 -0.817900 -86.449309 
4.1349999999999998 -0.416721 -165.572221 -92.332313 40.538087 -88.814363 25.715762 -0.834708 -87.007346 
4.1356250000000001 -0.422720 -166.035438 -102.382290 -148.184738 -99.000295 98.638587 -0.834670 -87.571983 
4.1362500000000004 -0.420564 -166.518832 -90.097172 130.136362 -96.484769 -159.650836 -0.843183 -88.146116 
4.1368749999999999 -0.419939 -167.006209 -86.501953 -16.304877 -90.235072 -1.099242 -0.840904 -88.724704 
4.1375000000000002 -0.426081 -167.484541 -92.803238 137.812039 -80.727118 23.542338 -0.847375 -89.300223 
4.1381249999999996 -0.435614 -167.937214 -95.171317 36.928358 -104.196823 -8.762929 -0.851800 -89.868849 
4.1387499999999999 -0.429942 -168.440731 -82.892278 110.982996 -93.041701 -11.017784 -0.855345 -90.459222 
4.1393750000000002 -0.434615 -168.893758 -95.778613 165.926354 -94.451815 82.629688 -0.857427 -91.034503 
4.1399999999999997 -0.433626 -169.396605 -82.861148 6.754036 -81.284206 -15.351915 -0.863932 -91.603261 
4.1406250000000000 -0.441212 -169.864141 -103.498280 131.557637 -92.245793 -157.216905 -0.869822 -92.182540 
4.1412500000000003 -0.446069 -170.336751 -93.992983 28.421300 -87.998721 -165.984564 -0.873403 -92.756289 
4.1418749999999998 -0.442066 -170.829862 -93.142117 177.894057 -84.189815 175.822985 -0.870987 -93.345915 
4.1425000000000001 -0.436594 -171.323316 -87.698810 -34.653881 -86.578952 107.883591 -0.872954 -93.933678 
4.1431250000000004 -0.445583 -171.811073 -88.163660 32.314059 -87.118341 65.601746 -0.880646 -94.507642 
4.1437499999999998 -0.443065 -172.290939 -92.830631 -105.690783 -90.266402 74.660492 -0.875470 -95.098830 
4.1443750000000001 -0.445886 -172.758091 -87.522107 -42.781956 -85.531299 -43.217890 -0.873485 -95.690005 
4.1449999999999996 -0.443390 -173.258884 -87.084377 -116.662155 -82.579002 -162.401629 -0.875398 -96.274625 
4.1456249999999999 -0.438634 -173.747548 -87.612759 -74.178211 -91.894514 -176.720044 -0.882231 -96.864066 
4.1462500000000002 -0.435887 -174.261599 -87.196008 8.639523 -88.163571 122.731618 -0.877369 -97.460680 
4.1468749999999996 -0.434711 -174.757305 -89.545895 -26.511336 -84.524639 -27.043960 -0.877995 -98.046935 
4.1475000000000000 -0.433348 -175.245213 -87.090091 -179.560629 -103.906401 116.031871 -0.872255 -98.651215 
4.1481250000000003 -0.435865 -175.736240 -84.968773 31.950662 -88.376287 12.792979 -0.872911 -99.233155 
4.1487499999999997 -0.437077 -176.216750 -85.181464 -2.322212 -89.744989 50.922041 -0.877810 -99.834731 
4.1493750000000000 -0.430437 -176.731396 -86.943068 -35.901899 -88.071317 -77.475590 -0.871553 -100.428470 
4.1500000000000004 -0.425872 -177.242505 -91.228570 175.321911 -86.674881 156.650917 -0.868962 -101.017346 
4.1506249999999998 -0.423600 -177.739404 -92.162836 111.981475 -101.328559 107.889289 -0.863752 -101.650826 
4.1512500000000001 -0.422666 -178.244779 -87.072226 104.030983 -93.017322 -146.052256 -0.863353 -102.232609 
4.1518750000000004 -0.415005 -178.771058 -89.289514 -0.394951 -97.318165 50.194179 -0.859723 -102.838490 
4.1524999999999999 -0.411561 -179.264800 -86.968960 92.393280 -89.640143 17.462199 -0.855464 -103.434420 
4.1531250000000002 -0.407770 -179.787423 -86.549460 171.477872 -87.355317 24.302644 -0.857434 -104.023608 
4.1537499999999996 -0.401883 179.705156 -89.292817 -81.560607 -90.507079 135.671683 -0.847570 -104.652019 
4.1543749999999999 -0.399208 179.199928 -89.547564 -150.676704 -91.184400 -65.565642 -0.842516 -105.247515 
4.1550000000000002 -0.394408 178.676970 -90.325243 -144.545008 -80.639097 -99.532196 -0.840302 -105.853321 
4.1556249999999997 -0.389193 178.160053 -92.919066 -139.777787 -89.634965 69.837470 -0.834629 -106.459933 
4.1562500000000000 -0.384061 177.636274 -94.565139 -156.893601 -85.604152 39.241595 -0.825631 -107.050847 
4.1568750000000003 -0.379106 177.121997 -91.140844 8.478442 -99.658898 -139.213955 -0.824893 -107.665784 
4.1574999999999998 -0.369392 176.588003 -103.418720 -178.281364 -84.240170 12.591236 -0.816616 -108.282483 
4.1581250000000001 -0.365258 176.050550 -94.682310 30.516726 -84.646725 14.406150 -0.807264 -108.887616 
4.1587500000000004 -0.361790 175.540335 -92.433196 118.427808 -85.218918 133.174839 -0.806341 -109.488882 
4.1593749999999998 -0.353099 175.002098 -86.282580 -3.585804 -103.974954 156.977463 -0.792460 -110.122216 
4.1600000000000001 -0.344753 174.464282 -89.640573 56.683527 -86.216124 -90.508656 -0.785670 -110.730787 
4.1606249999999996 -0.337020 173.926584 -107.863079 -107.260362 -84.649045 69.896209 -0.788196 -111.338140 
4.1612499999999999 -0.326154 173.380741 -99.992575 130.565874 -85.305817 -5.350872 -0.777301 -111.949839 
4.1618750000000002 -0.321953 172.848425 -91.469139 73.695819 -93.233186 22.448862 -0.766523 -112.552583 
4.1624999999999996 -0.314877 172.307588 -87.382503 -34.588252 -90.510206 54.933505 -0.761032 -113.183801 
4.1631250000000000 -0.305437 171.745421 -91.545086 53.139782 -87.865894 -170.482569 -0.754794 -113.767090 
4.1637500000000003 -0.299452 171.213108 -83.695038 -99.436009 -84.280827 -109.265311 -0.747193 -114.402480 
4.1643749999999997 -0.295666 170.643556 -102.640989 -7.745788 -86.894126 107.124946 -0.737698 -115.021495 
