!
! C:\Users\Aljaz\OneDrive - Univerza v Ljubljani\DOKTORAT\NOVI SA\MIX1\IF-RF.S2P
!
! Touchstone 1.1 file saved by VNA.EXE V1.65 (www.ke5fx.com/gpib/readme.htm)
! 23. 07. 2022 09:35:56
!
!    Source: HP8510C.07.14: Aug 26  1998 
!  Min freq: 4.500000E+007 Hz
!  Max freq: 1.600000E+010 Hz
!    Points: 801
!    Params: S11 S21 S12 S22
!
!!!!!
# GHZ S DB R 50
0.0450000000000000 1.421300 -109.965595 -74.444882 39.772990 -76.582143 110.885723 1.253992 121.735702 
0.0649437500000000 1.617664 -150.434794 -71.449895 58.517269 -73.344376 66.191802 1.044651 92.450360 
0.0848875000000000 1.401717 171.032791 -63.135620 34.996840 -62.154443 -36.708405 0.831409 65.161934 
0.1048312500000000 1.092380 134.587868 -64.676920 21.262473 -64.413093 -58.826459 0.860434 37.214810 
0.1247750000000000 0.986552 98.481067 -60.272329 -25.252982 -61.488288 -78.839515 0.921178 8.647406 
0.1447187500000000 0.871359 60.867202 -58.493714 -55.643353 -58.042486 -121.053525 0.864686 -18.446953 
0.1646625000000000 0.790540 23.264822 -55.999019 -84.713891 -57.118191 -137.076586 0.864613 -44.180680 
0.1846062500000000 0.773551 -13.085739 -54.664654 -114.875798 -56.273911 176.985342 0.788856 -70.181404 
0.2045500000000000 0.779166 -48.528811 -52.171638 -145.806858 -54.021850 153.570770 0.694235 -95.970475 
0.2244937500000000 0.833713 -83.856626 -50.773313 -169.217472 -50.924303 122.209357 0.671593 -122.775680 
0.2444375000000000 0.822957 -120.655535 -49.639114 151.567461 -50.303435 93.522751 0.670542 -150.583172 
0.2643812500000000 0.934105 -164.270288 -48.313048 117.130603 -48.092147 45.767560 1.030967 177.949825 
0.2843250000000000 0.820651 156.612567 -46.691417 85.852557 -47.143362 13.317608 0.848834 149.983494 
0.3042687500000000 0.698762 119.256598 -45.009459 54.785443 -45.918458 -17.296685 0.633470 123.349675 
0.3242125000000000 0.600645 81.450834 -44.335982 22.382705 -45.439017 -48.087427 0.633045 96.035722 
0.3441562500000000 0.412496 42.354444 -42.957250 -10.375256 -44.237604 -80.247231 0.591974 67.098445 
0.3641000000000000 0.481995 4.125688 -42.854997 -43.396305 -43.057541 -111.594370 0.545720 39.173986 
0.3840437500000000 0.647452 -33.465906 -41.933236 -75.553160 -43.306563 -141.360796 0.680331 12.241554 
0.4039875000000000 0.681543 -68.916059 -41.560053 -109.466876 -41.968139 -176.162444 0.663121 -13.349418 
0.4239312500000000 0.581518 -102.427354 -40.900017 -136.256844 -41.261176 154.248722 0.578129 -38.200686 
0.4438750000000000 0.477719 -137.539066 -39.629514 -169.037147 -40.131141 124.092397 0.471176 -64.947587 
0.4638187500000000 0.288000 -174.738802 -39.302812 160.305978 -39.928605 92.404222 0.272259 -92.834479 
0.4837625000000000 0.008594 147.755762 -38.248351 128.788501 -39.571672 59.948359 0.123712 -120.837522 
0.5037062500000000 0.000263 111.929335 -37.966111 97.745209 -38.843824 31.618784 0.036812 -148.270904 
0.5236500000000000 0.173682 76.143750 -37.287818 66.098609 -38.341748 1.343188 0.051958 -174.272116 
0.5435937500000000 0.320217 39.013010 -36.419788 34.702710 -37.389776 -28.782069 0.101664 159.602736 
0.5635375000000000 0.456637 1.134814 -35.443089 0.303969 -36.256910 -62.247747 0.128645 132.168922 
0.5834812500000000 0.371320 -36.478196 -35.039001 -33.592042 -35.980987 -96.193921 0.163238 103.991711 
0.6034250000000000 0.233131 -73.042818 -34.540571 -65.965602 -35.553259 -127.164966 0.133550 76.083610 
0.6233687500000000 -0.030193 -110.234649 -34.228921 -98.758771 -35.061000 -158.493949 0.118300 49.751183 
0.6433125000000000 -0.212488 -149.416986 -33.774131 -130.455719 -34.409863 169.400622 0.123599 23.658993 
0.6632562500000000 -0.088135 169.814594 -32.919729 -164.036673 -33.680769 135.491843 0.091497 -2.987687 
0.6832000000000000 -0.008633 129.781145 -32.728882 162.625943 -33.542710 101.986612 0.068952 -30.839698 
0.7031437500000000 0.032189 94.764798 -32.403089 130.120071 -33.270319 70.154799 -0.056896 -60.615975 
0.7230875000000000 0.115280 60.835122 -32.234051 97.988197 -32.813089 38.863508 -0.240819 -88.718145 
0.7430312500000000 -0.019396 24.487754 -31.930035 66.680140 -32.704941 8.705990 -0.192894 -114.743426 
0.7629750000000000 -0.191803 -12.676936 -31.341196 34.928917 -32.065483 -24.000987 -0.076953 -141.977722 
0.7829187500000000 -0.155816 -50.251410 -30.960811 2.467345 -31.770508 -56.458582 -0.146881 -169.766413 
0.8028625000000000 -0.118237 -86.568175 -30.843713 -30.262612 -31.554273 -88.119151 -0.178833 162.126672 
0.8228062500000000 -0.147557 -120.891161 -30.378128 -61.465165 -31.263637 -118.655109 -0.157902 133.021595 
0.8427500000000000 -0.094746 -156.331148 -29.987415 -93.850566 -30.859628 -150.404901 -0.101800 105.415867 
0.8626937500000000 0.031608 157.751489 -29.322694 -129.321796 -30.350291 163.731377 0.269679 74.582682 
0.8826375000000000 0.005574 117.200397 -28.936461 -162.976855 -29.926206 129.239383 0.159266 45.791506 
0.9025812500000000 0.008936 79.787021 -28.774071 162.720990 -29.533589 95.912316 -0.133527 16.700775 
0.9225250000000000 -0.102972 44.260555 -28.506938 129.378580 -29.371721 63.884222 -0.369529 -13.338831 
0.9424687500000000 -0.239524 7.810577 -28.180724 96.197816 -29.017559 31.586482 -0.397678 -42.591856 
0.9624125000000000 -0.383642 -31.391884 -27.926757 64.088667 -28.837576 -1.112510 -0.181341 -70.778542 
0.9823562500000000 -0.449806 -69.775866 -27.803201 30.549090 -28.699844 -32.545814 0.002648 -97.613931 
1.0023000000000000 -0.278194 -105.760885 -27.658324 -0.902632 -28.368944 -64.284208 0.014829 -124.246824 
1.0222437499999999 -0.198865 -140.662632 -27.495178 -31.955690 -28.159409 -96.117887 -0.234687 -151.558718 
1.0421875000000000 -0.302461 -175.616154 -27.243531 -63.919928 -27.970692 -126.966751 -0.413700 -179.570882 
1.0621312500000000 -0.358625 147.959270 -26.964843 -96.689199 -27.584779 -160.301292 -0.383411 150.902266 
1.0820749999999999 -0.335775 110.747702 -26.890430 -129.245385 -27.594429 167.799109 -0.291705 121.931972 
1.1020187500000000 -0.269679 74.745357 -26.802383 -160.508501 -27.289518 136.622483 -0.181145 95.112963 
1.1219625000000000 -0.268291 39.778555 -26.543769 168.115530 -27.186905 104.722576 -0.172996 68.909086 
1.1419062499999999 -0.472125 3.968815 -26.332065 135.413294 -26.867089 73.560147 -0.336190 41.939795 
1.1618500000000000 -0.666681 -33.159610 -26.044320 104.890479 -26.767245 42.218246 -0.422441 14.287791 
1.1817937500000000 -0.598904 -70.808530 -25.732937 71.118387 -26.491869 9.265815 -0.393045 -14.314008 
1.2017374999999999 -0.446129 -108.106659 -25.636382 37.800886 -26.348137 -23.712678 -0.371143 -42.108343 
1.2216812500000001 -0.462296 -143.865926 -25.677141 6.395879 -26.490294 -54.730518 -0.388458 -68.136455 
1.2416250000000000 -0.653662 -179.425004 -25.362102 -25.241134 -26.249068 -85.410783 -0.429807 -93.494736 
1.2615687499999999 -0.862176 142.827709 -25.099113 -56.806050 -25.967408 -116.734091 -0.474684 -119.428778 
1.2815125000000001 -0.930095 103.188480 -24.679506 -90.119869 -25.716144 -148.862156 -0.482334 -147.272215 
1.3014562500000000 -0.756183 64.156683 -24.526303 -123.836545 -25.533900 177.324900 -0.465521 -176.097078 
1.3213999999999999 -0.571990 27.533087 -24.651077 -156.449399 -25.542990 145.788952 -0.502931 156.381020 
1.3413437500000001 -0.589739 -8.709170 -24.571354 171.251727 -25.413427 113.185207 -0.578636 129.918520 
1.3612875000000000 -0.779342 -45.971113 -24.531534 139.154450 -25.304982 82.360929 -0.651971 104.050413 
1.3812312499999999 -0.880986 -84.145565 -24.248161 107.527537 -25.064585 50.777263 -0.690195 77.006094 
1.4011750000000001 -0.774795 -122.335279 -24.143097 73.795086 -24.995138 17.826885 -0.709489 48.140982 
1.4211187500000000 -0.618896 -158.113162 -24.210615 41.695582 -25.027673 -14.177154 -0.695661 18.403801 
1.4410624999999999 -0.615551 167.288576 -24.321915 9.060743 -25.134833 -46.540991 -0.717108 -9.413929 
1.4610062500000001 -0.843254 132.219510 -24.376053 -21.781593 -25.173079 -76.864365 -0.734902 -35.074016 
1.4809500000000000 -0.982448 96.116407 -24.096939 -52.304440 -24.864694 -107.293762 -0.729159 -61.106644 
1.5008937499999999 -0.855073 58.633544 -23.843613 -84.900136 -24.660076 -140.354268 -0.782941 -88.803999 
1.5208375000000001 -0.746726 22.967397 -23.947142 -117.610607 -24.672721 -172.315072 -0.821524 -118.367796 
1.5407812500000000 -0.711605 -10.736006 -23.977489 -149.154753 -24.714143 156.059656 -0.876941 -147.730124 
1.5607249999999999 -0.807757 -45.335157 -23.994254 178.888707 -24.825846 125.013555 -0.792342 -174.736377 
1.5806687500000001 -1.049312 -81.851478 -23.859843 148.531166 -24.554359 94.737113 -0.624908 160.152542 
1.6006125000000000 -1.047975 -119.847896 -23.512661 115.933781 -24.321011 62.907689 -0.609464 133.984025 
1.6205562499999999 -0.900965 -158.049475 -23.518996 82.565621 -24.375656 30.849305 -0.759651 106.947832 
1.6405000000000001 -0.860587 166.557507 -23.618490 52.291337 -24.369395 -1.113350 -0.806891 78.776614 
1.6604437500000000 -0.841993 132.849859 -23.474247 19.985891 -24.391073 -31.713851 -0.898994 50.739925 
1.6803874999999999 -0.949998 96.487961 -23.546428 -11.549151 -24.221737 -63.637569 -0.911031 24.763608 
1.7003312500000001 -1.116207 58.694568 -23.535694 -42.003327 -24.331976 -93.981898 -0.835742 0.481288 
1.7202750000000000 -1.043595 21.356172 -23.377407 -73.448691 -24.201844 -124.277625 -0.820204 -23.936927 
1.7402187499999999 -0.947884 -13.711304 -23.302722 -103.588866 -24.046707 -155.280928 -0.870206 -49.835598 
1.7601625000000001 -0.933174 -46.150938 -23.057582 -134.049496 -23.807517 175.060784 -0.930892 -77.197802 
1.7801062500000000 -0.865309 -79.897126 -22.672694 -166.505310 -23.356827 142.918115 -0.966140 -105.465424 
1.8000499999999999 -0.981694 -117.463386 -22.645378 160.368106 -23.455655 109.595605 -1.141489 -132.653031 
1.8199937500000001 -1.242611 -154.371509 -22.722497 129.881570 -23.436043 80.585710 -1.221119 -157.998283 
1.8399375000000000 -1.155802 172.040796 -22.303596 101.282550 -22.997879 51.415870 -1.045858 175.546080 
1.8598812499999999 -0.957491 139.077258 -21.613797 69.328129 -22.468443 20.133215 -1.060444 146.213497 
1.8798250000000001 -0.979597 104.754020 -21.266109 35.633802 -21.963745 -13.169603 -1.129203 116.647866 
1.8997687500000000 -1.181555 67.232812 -21.045260 2.071191 -21.835135 -46.732757 -1.126855 88.339484 
1.9197124999999999 -1.462647 27.944926 -21.045882 -30.367173 -21.791698 -78.771727 -1.277420 61.873062 
1.9396562500000001 -1.448556 -9.515644 -20.852647 -60.817059 -21.599831 -108.778133 -1.319245 36.387112 
1.9596000000000000 -1.247407 -45.956360 -20.205373 -92.720139 -20.899639 -141.000212 -1.317528 8.580771 
1.9795437499999999 -1.267815 -83.759909 -19.832502 -128.358797 -20.583821 -176.364901 -1.375783 -21.743966 
1.9994875000000001 -1.456925 -122.655956 -19.770283 -162.705402 -20.470549 150.045342 -1.378438 -51.793051 
2.0194312499999998 -1.523155 -162.647714 -19.703923 163.121692 -20.446724 115.444350 -1.333173 -80.586274 
2.0393750000000002 -1.490199 159.529717 -19.926770 130.837078 -20.705757 84.017426 -1.402096 -107.416663 
2.0593187500000001 -1.320601 124.435344 -19.728554 100.657652 -20.394805 53.803956 -1.530235 -133.277428 
2.0792625000000000 -1.221506 88.546778 -19.195550 67.582583 -20.026102 20.397222 -1.579512 -161.454962 
2.0992062499999999 -1.472001 50.981101 -19.162756 32.497072 -19.946946 -13.437179 -1.595010 167.389151 
2.1191499999999999 -1.638507 13.953279 -19.255898 -0.182567 -20.011048 -46.611121 -1.662819 136.307224 
2.1390937499999998 -1.397076 -21.685096 -19.220032 -32.066803 -20.092887 -77.451304 -1.651765 108.239678 
2.1590375000000002 -1.244014 -56.699442 -19.083668 -63.515873 -19.804877 -108.876933 -1.591383 82.125022 
2.1789812500000001 -1.354468 -91.340723 -18.621390 -95.500532 -19.484500 -140.846094 -1.734708 55.492138 
2.1989250000000000 -1.635035 -128.218752 -18.217866 -129.203357 -19.065044 -173.414677 -1.888425 26.485359 
2.2188687499999999 -1.768299 -167.075747 -17.986479 -163.522901 -18.750174 151.472473 -2.064789 -5.363695 
2.2388124999999999 -1.605907 153.783976 -17.881332 161.575340 -18.752863 118.083403 -2.159976 -36.327728 
2.2587562499999998 -1.490582 116.086938 -17.874992 128.650987 -18.577418 84.959617 -2.057168 -64.541893 
2.2787000000000002 -1.610913 79.394306 -17.613781 95.665336 -18.447016 51.981058 -2.037785 -91.985754 
2.2986437500000001 -1.756255 40.823697 -17.316177 61.304499 -18.082124 18.582933 -2.202524 -120.165771 
2.3185875000000000 -1.824034 0.239445 -17.168159 26.390077 -17.912655 -17.371761 -2.462982 -151.592628 
2.3385312500000000 -1.669438 -38.460247 -17.225722 -9.128656 -18.050174 -51.826983 -2.712445 174.246132 
2.3584749999999999 -1.458263 -73.832449 -17.460173 -42.714002 -18.123993 -85.347361 -2.721512 141.559842 
2.3784187499999998 -1.466783 -107.674873 -17.466560 -75.186780 -18.241170 -118.011689 -2.565187 110.914043 
2.3983625000000002 -1.684522 -141.658451 -17.374030 -108.496254 -18.050126 -150.171311 -2.526741 80.787230 
2.4183062500000001 -1.497443 -137.887859 -17.199949 -89.825837 -17.968928 -141.369098 -2.185344 94.790906 
2.4382500000000000 -1.662469 -172.909914 -17.098813 -123.236914 -17.733457 -174.868083 -2.298046 63.833301 
2.4581937500000000 -1.476040 148.357737 -16.916673 -159.648442 -17.686979 149.122988 -2.665947 29.423265 
2.4781374999999999 -1.388843 112.258602 -16.923400 165.083607 -17.580141 114.737484 -2.880983 -4.577710 
2.4980812499999998 -1.517890 78.993510 -17.075307 132.277362 -17.771316 80.921864 -2.782691 -39.053311 
2.5180250000000002 -1.672108 46.809432 -16.964208 99.136547 -17.692126 49.067551 -2.637395 -72.045231 
2.5379687500000001 -1.692263 11.583691 -16.827169 66.152087 -17.370977 15.476928 -2.679930 -103.145921 
2.5579125000000000 -1.673006 -27.178462 -16.574509 31.163882 -17.266354 -18.980888 -2.848746 -134.519424 
2.5778562500000000 -1.775085 -66.516657 -16.590531 -4.548128 -17.236038 -54.361766 -2.908556 -166.971494 
2.5977999999999999 -1.916771 -104.246177 -16.812240 -38.910019 -17.462072 -89.324382 -2.831881 159.641865 
2.6177437499999998 -2.055586 -141.731157 -16.925244 -73.473871 -17.578101 -122.699250 -2.646787 127.907220 
2.6376875000000002 -2.007311 178.805824 -16.960552 -107.833859 -17.634837 -156.881621 -2.518246 98.728220 
2.6576312500000001 -1.816864 138.244925 -17.087750 -142.624289 -17.788337 168.523919 -2.561524 69.797408 
2.6775750000000000 -1.787653 100.092350 -17.390384 -177.510027 -18.030537 133.870227 -2.712715 39.960072 
2.6975187500000000 -1.890106 64.712344 -17.736882 149.726353 -18.464093 100.933872 -2.737148 8.354105 
2.7174624999999999 -2.055577 30.073527 -17.846496 117.314932 -18.574455 69.029734 -2.583333 -23.210954 
2.7374062499999998 -2.006314 -5.588720 -17.868357 83.928335 -18.592820 36.169497 -2.368870 -53.498968 
2.7573500000000002 -1.693522 -43.507780 -17.856179 49.965295 -18.618523 2.472791 -2.453681 -82.985165 
2.7772937500000001 -1.665901 -80.822882 -18.113184 15.247868 -18.865933 -32.319520 -2.768522 -112.010859 
2.7972375000000000 -1.961750 -114.655440 -18.333510 -16.938920 -19.130211 -64.068132 -2.816083 -143.463804 
2.8171812500000000 -2.126807 -148.460100 -18.067288 -49.992141 -18.860780 -97.086023 -2.651847 -178.070531 
2.8371249999999999 -2.122451 173.282596 -18.018288 -86.302125 -18.811310 -132.397803 -2.462759 149.238515 
2.8570687499999998 -2.070537 132.024987 -18.267731 -121.137240 -19.034934 -167.182466 -2.404587 120.405677 
2.8770125000000002 -1.999583 92.234742 -18.524296 -155.404796 -19.329672 158.815920 -2.519126 93.640912 
2.8969562500000001 -2.138433 55.229874 -18.680112 171.408151 -19.540735 126.387691 -2.656560 64.969338 
2.9169000000000000 -2.332959 18.027005 -18.534713 137.094618 -19.296196 91.590471 -2.712137 31.864057 
2.9368437500000000 -2.387264 -23.597223 -18.608128 99.379978 -19.490931 55.044115 -2.626539 -2.859212 
2.9567874999999999 -2.321208 -66.487682 -19.397709 63.401207 -20.049434 19.050827 -2.459167 -34.233969 
2.9767312499999998 -2.096999 -104.848249 -19.980165 29.861188 -20.806210 -14.060090 -2.345422 -61.483137 
2.9966750000000002 -1.980440 -139.846571 -20.503365 -1.955137 -21.182908 -45.158500 -2.347845 -87.554533 
3.0166187500000001 -2.138437 -173.880128 -20.592382 -33.587531 -21.275517 -77.056040 -2.429130 -116.577459 
3.0365625000000001 -2.194396 149.800273 -20.459738 -67.491635 -21.314928 -109.872091 -2.462520 -148.838753 
3.0565062500000000 -2.119472 110.167106 -20.844105 -103.096804 -21.538046 -145.555174 -2.339362 179.082086 
3.0764499999999999 -2.049404 72.999651 -21.543033 -135.882400 -22.257329 -178.727284 -2.292910 150.956891 
3.0963937499999998 -1.940451 39.980240 -21.782757 -165.562818 -22.591057 153.229463 -2.227160 126.458649 
3.1163375000000002 -1.938217 6.380017 -21.454397 163.511881 -22.216003 121.355622 -2.177966 100.371767 
3.1362812500000001 -2.253207 -30.787296 -21.114276 127.968261 -21.953463 87.160693 -2.343033 69.650065 
3.1562250000000001 -2.454180 -71.138167 -21.174249 92.708220 -21.866921 51.868339 -2.430250 36.987403 
3.1761687500000000 -2.380680 -112.446312 -21.446469 56.395137 -22.163190 15.924985 -2.328083 5.412160 
3.1961124999999999 -2.347811 -151.059116 -21.862994 22.736954 -22.613432 -16.716501 -2.251522 -22.050931 
3.2160562499999998 -2.435149 171.582528 -21.940299 -9.144245 -22.723228 -50.229270 -2.231347 -47.400114 
3.2360000000000002 -2.647636 131.099585 -21.597416 -43.783217 -22.415875 -83.430296 -2.330350 -75.794608 
3.2559437500000001 -2.762890 88.831894 -21.723596 -81.163862 -22.456419 -120.512158 -2.524647 -108.724815 
3.2758875000000001 -2.642318 47.808419 -22.257137 -117.648849 -22.996896 -157.324580 -2.563016 -143.417108 
3.2958312500000000 -2.517878 10.543299 -22.938909 -152.080253 -23.672269 169.042026 -2.510904 -174.458289 
3.3157749999999999 -2.414996 -24.438416 -23.394193 177.214065 -24.019269 138.437674 -2.440104 158.818680 
3.3357187499999998 -2.383738 -61.967574 -23.070853 143.862207 -23.752903 105.619809 -2.435409 131.612011 
3.3556625000000002 -2.550669 -101.264397 -23.085213 107.496305 -23.761110 68.556242 -2.538724 99.453464 
3.3756062500000001 -2.618452 -138.612618 -23.456437 71.973553 -24.238586 34.234190 -2.740816 63.659016 
3.3955500000000001 -2.518428 -174.889979 -23.877032 37.392113 -24.583740 0.213034 -2.701464 31.059523 
3.4154937500000000 -2.571547 147.359130 -24.168482 4.359019 -24.874976 -32.727854 -2.356146 3.621395 
3.4354374999999999 -2.820331 107.156445 -24.267015 -29.460207 -24.842276 -66.280689 -2.174408 -22.318567 
3.4553812499999998 -2.926304 65.316885 -24.211920 -64.602582 -25.026600 -101.088583 -2.295073 -49.812454 
3.4753250000000002 -2.952438 24.131086 -24.413441 -100.374057 -25.044595 -136.164457 -2.466531 -81.229998 
3.4952687500000001 -2.999953 -15.475854 -24.700650 -136.412713 -25.389726 -172.832876 -2.446468 -114.724158 
3.5152125000000001 -3.164451 -57.280348 -25.205375 -172.119229 -25.828828 153.148111 -2.155424 -144.645197 
3.5351562500000000 -3.279223 -101.527021 -25.624082 153.551675 -26.212421 117.954189 -1.919099 -170.555603 
3.5550999999999999 -3.061011 -144.932181 -25.947949 118.523448 -26.691331 83.792269 -1.934319 165.182713 
3.5750437499999999 -2.850048 176.309943 -26.327487 85.489462 -27.072601 51.419173 -2.041057 138.525704 
3.5949874999999998 -2.748528 140.993200 -26.439109 51.953428 -27.302060 17.063429 -2.185725 106.865961 
3.6149312500000002 -2.811281 104.230845 -26.762503 16.659577 -27.508435 -16.518366 -2.163029 74.998655 
3.6348750000000001 -2.943769 63.812469 -27.216510 -16.943582 -27.846923 -51.287122 -1.901015 47.091821 
3.6548187500000000 -2.898152 22.854017 -27.337651 -50.174235 -28.222770 -84.182640 -1.724613 22.660387 
3.6747624999999999 -2.724033 -14.943281 -27.584256 -83.572829 -28.227984 -116.236115 -1.768393 -1.395453 
3.6947062499999999 -2.748756 -51.155447 -27.394320 -117.008146 -28.155545 -150.302607 -2.048811 -29.351963 
3.7146499999999998 -3.130213 -88.826566 -27.413865 -153.469368 -28.045353 175.444890 -2.329651 -61.406878 
3.7345937500000002 -3.550915 -131.402538 -27.526375 171.344937 -28.114947 138.213653 -2.283614 -93.477313 
