!
! C:\Users\Aljaz\OneDrive - Univerza v Ljubljani\DOKTORAT\NOVI SA\MIX1\LO-RF.S2P
!
! Touchstone 1.1 file saved by VNA.EXE V1.65 (www.ke5fx.com/gpib/readme.htm)
! 23. 07. 2022 09:37:42
!
!    Source: HP8510C.07.14: Aug 26  1998 
!  Min freq: 4.500000E+007 Hz
!  Max freq: 1.600000E+010 Hz
!    Points: 801
!    Params: S11 S21 S12 S22
!
!!!!!
# GHZ S DB R 50
0.0450000000000000 1.450052 113.425516 -75.829693 135.721857 -63.649740 -36.835586 1.255567 121.827181 
0.0649437500000000 1.380882 90.641368 -60.363564 27.022123 -70.146858 -30.981653 1.043305 92.531448 
0.0848875000000000 1.164685 69.855939 -65.317413 12.840702 -60.905874 -59.024869 0.829304 65.173020 
0.1048312500000000 1.159483 49.268763 -57.730912 -29.757595 -59.782022 -83.679302 0.869878 37.473879 
0.1247750000000000 1.204310 27.388770 -62.056811 -35.508749 -59.079047 -112.967890 0.931704 8.891130 
0.1447187500000000 1.151607 5.426247 -56.625509 -64.525506 -56.743154 -133.975875 0.875651 -18.242983 
0.1646625000000000 1.123367 -15.522460 -56.605676 -84.288485 -56.553227 -155.745346 0.865125 -44.104619 
0.1846062500000000 1.125667 -36.291740 -54.459014 -104.852493 -55.937230 -175.462160 0.797116 -69.881969 
0.2045500000000000 1.102697 -56.165134 -56.762568 -130.824301 -54.862368 159.405458 0.694117 -95.837486 
0.2244937500000000 1.146859 -76.265522 -55.431501 -158.730791 -55.392535 136.000259 0.679989 -122.634385 
0.2444375000000000 1.156060 -97.388906 -53.448377 176.071164 -53.543841 109.491929 0.679374 -150.407945 
0.2643812500000000 1.297077 -125.965370 -52.179437 143.137880 -52.110513 78.566929 1.024164 177.988651 
0.2843250000000000 1.283935 -148.407419 -51.889304 116.519416 -53.122075 51.482252 0.848636 150.065117 
0.3042687500000000 1.223010 -169.883446 -50.591215 109.973431 -54.076284 33.563161 0.678221 123.502584 
0.3242125000000000 1.195985 170.052742 -49.920577 67.427546 -51.550012 -3.593726 0.634574 96.221009 
0.3441562500000000 1.145393 149.395523 -49.672694 52.344659 -50.450503 -18.129205 0.589256 67.216750 
0.3641000000000000 0.945976 128.346586 -50.076063 30.320263 -49.470995 -40.446997 0.586419 39.329081 
0.3840437500000000 0.814125 107.266840 -50.044836 6.081732 -50.140453 -65.271012 0.675382 12.530210 
0.4039875000000000 0.876251 84.712832 -49.612469 -20.154464 -50.613745 -92.086686 0.669353 -13.326360 
0.4239312500000000 0.879434 61.511742 -48.129794 -46.459395 -49.645130 -116.102344 0.581599 -38.213897 
0.4438750000000000 0.813851 40.087704 -49.357217 -70.289377 -48.880993 -139.081125 0.478607 -64.676100 
0.4638187500000000 0.838561 19.994502 -48.256717 -89.886909 -48.472415 -164.845937 0.272148 -92.678433 
0.4837625000000000 0.927978 0.355129 -47.546997 -121.939619 -48.222155 170.342357 0.136753 -120.726133 
0.5037062500000000 1.045410 -20.054898 -47.758288 -146.983754 -47.769560 147.922713 0.040180 -148.014173 
0.5236500000000000 1.074008 -41.769687 -47.168481 -171.077461 -48.795766 124.209489 0.057265 -174.066099 
0.5435937500000000 1.005315 -63.292871 -46.774395 166.085163 -47.556229 102.508295 0.107281 159.721491 
0.5635375000000000 0.861967 -84.700927 -46.329508 137.600248 -47.122756 78.935816 0.150940 132.353797 
0.5834812500000000 0.715639 -105.047797 -46.027690 113.605734 -47.365313 54.615637 0.168482 104.129831 
0.6034250000000000 0.599746 -125.494424 -46.275442 92.059864 -46.932283 28.152984 0.136473 76.308171 
0.6233687500000000 0.457046 -147.035526 -45.971983 64.551608 -46.290465 7.259596 0.122203 49.707452 
0.6433125000000000 0.416383 -169.145062 -45.436127 39.268560 -46.282478 -16.801727 0.129520 23.837605 
0.6632562500000000 0.551501 167.451615 -44.585594 16.443908 -45.842035 -42.804098 0.087340 -2.715280 
0.6832000000000000 0.569985 144.445764 -44.320272 -6.117181 -45.611375 -69.203880 0.068787 -30.654648 
0.7031437500000000 0.526243 124.148798 -45.149290 -32.304018 -46.289755 -92.246575 -0.045261 -60.277355 
0.7230875000000000 0.626842 105.324176 -45.058883 -54.259606 -45.399245 -114.274707 -0.234053 -88.440629 
0.7430312500000000 0.675988 85.482196 -44.201818 -77.251035 -45.323263 -141.175212 -0.194033 -114.538363 
0.7629750000000000 0.545042 64.751852 -44.174718 -104.080173 -44.468259 -164.158493 -0.071317 -141.690686 
0.7829187500000000 0.459749 43.135147 -44.000014 -130.428463 -44.448567 174.119270 -0.150578 -169.563074 
0.8028625000000000 0.483404 20.511718 -43.807321 -155.861852 -44.178487 148.927469 -0.177607 162.247373 
0.8228062500000000 0.440332 -1.745473 -43.843177 179.232389 -44.578789 121.825821 -0.138016 133.327761 
0.8427500000000000 0.357444 -22.379130 -43.717735 153.673950 -44.183915 98.666134 -0.108089 105.636789 
0.8626937500000000 0.512023 -50.518408 -42.616730 127.324088 -43.670250 64.338246 0.282078 74.707026 
0.8826375000000000 0.498205 -72.830752 -42.894878 103.282107 -44.077358 38.117718 0.181516 46.024415 
0.9025812500000000 0.428086 -95.551268 -42.768824 76.074036 -43.398608 8.581507 -0.109485 17.034381 
0.9225250000000000 0.426691 -118.667190 -42.651453 46.036866 -43.850599 -14.284512 -0.345700 -12.840235 
0.9424687500000000 0.435277 -141.397594 -42.411056 21.120362 -43.674915 -38.880305 -0.360103 -42.364903 
0.9624125000000000 0.429761 -161.732922 -42.880711 4.966115 -43.165723 -65.192581 -0.179123 -70.564220 
0.9823562500000000 0.519529 179.156700 -41.914260 -22.221654 -42.942787 -86.599321 0.030789 -97.446806 
1.0023000000000000 0.551830 159.109395 -43.037439 -49.045779 -42.863513 -111.679716 0.049168 -124.053182 
1.0222437499999999 0.438346 138.356932 -42.374584 -74.156216 -42.968638 -137.039684 -0.196122 -151.413375 
1.0421875000000000 0.373031 116.958330 -42.676003 -96.245346 -42.620962 -159.068853 -0.397027 -179.366700 
1.0621312500000000 0.394910 94.552733 -42.155498 -121.463098 -42.564790 176.187146 -0.341939 151.149604 
1.0820749999999999 0.429416 72.693435 -42.178761 -151.240888 -42.396244 148.217858 -0.253441 122.154994 
1.1020187500000000 0.456230 51.854512 -42.625249 -173.627565 -42.359051 124.705699 -0.180336 95.404702 
1.1219625000000000 0.456412 31.327089 -42.060073 160.416649 -42.682796 97.853057 -0.174747 68.963900 
1.1419062499999999 0.305016 10.433189 -42.031106 136.764985 -42.657511 81.067390 -0.303280 42.269303 
1.1618500000000000 0.124071 -10.943143 -42.311166 112.210855 -42.731953 50.841711 -0.390820 14.569010 
1.1817937500000000 0.111724 -32.905843 -42.427681 88.574497 -43.064895 27.353625 -0.367287 -14.054383 
1.2017374999999999 0.217761 -55.031449 -41.562014 63.716486 -43.311250 1.804282 -0.339858 -42.032491 
1.2216812500000001 0.355990 -76.720081 -42.095141 40.966584 -43.225672 -19.649958 -0.351482 -68.004518 
1.2416250000000000 0.393138 -96.686404 -41.871920 14.577529 -43.054321 -44.968419 -0.399353 -93.223903 
1.2615687499999999 0.352367 -116.497472 -42.207761 -8.556808 -42.761051 -65.057951 -0.449015 -119.116127 
1.2815125000000001 0.236196 -136.834033 -41.617970 -36.255696 -42.425689 -95.328513 -0.457731 -147.027669 
1.3014562500000000 0.094346 -158.486376 -42.036860 -57.651733 -42.458266 -119.230163 -0.476231 -175.788578 
1.3213999999999999 0.039260 179.060010 -42.052301 -84.148930 -42.711784 -143.076717 -0.493198 156.451479 
1.3413437500000001 0.112019 157.023753 -42.301055 -108.174841 -42.922710 -166.312573 -0.555008 130.075245 
1.3612875000000000 0.230777 135.609225 -42.166658 -133.220895 -43.476372 170.798050 -0.632064 104.324038 
1.3812312499999999 0.265936 115.104999 -42.241540 -158.345364 -43.706554 144.061573 -0.698582 77.325671 
1.4011750000000001 0.194680 95.215167 -41.743588 175.878934 -42.510469 122.220940 -0.672539 48.348416 
1.4211187500000000 0.063992 74.540739 -41.861766 150.781654 -43.014955 94.944704 -0.670186 18.690589 
1.4410624999999999 -0.109863 52.865543 -42.705185 125.687284 -42.792658 71.852223 -0.715294 -9.169540 
1.4610062500000001 -0.164240 31.119303 -42.738358 102.629742 -42.676624 47.762949 -0.707050 -34.769651 
1.4809500000000000 -0.025470 9.042555 -42.012711 78.159774 -42.395260 22.883331 -0.707459 -60.732041 
1.5008937499999999 0.083811 -12.163092 -41.696822 51.711347 -43.470635 -2.282063 -0.755586 -88.523475 
1.5208375000000001 0.052841 -31.968539 -42.396314 27.998899 -42.668735 -24.724031 -0.800388 -118.144669 
1.5407812500000000 0.055138 -51.492146 -42.322194 7.371620 -43.260711 -51.209768 -0.846369 -147.581290 
1.5607249999999999 -0.046089 -72.284931 -42.668419 -18.765619 -43.438861 -74.426787 -0.805920 -174.402421 
1.5806687500000001 -0.205706 -94.394448 -42.511551 -45.761010 -43.277827 -99.502932 -0.619268 160.371437 
1.6006125000000000 -0.163307 -116.825609 -42.095653 -68.477241 -43.479470 -123.838810 -0.594583 134.233382 
1.6205562499999999 -0.060038 -139.730040 -42.595055 -100.270749 -43.580627 -148.426283 -0.721118 107.146731 
1.6405000000000001 -0.051142 -161.114528 -42.851029 -121.148847 -43.318815 -173.218359 -0.822953 79.149253 
1.6604437500000000 -0.033305 179.654212 -42.863214 -143.286239 -43.939375 162.859648 -0.869583 51.072169 
1.6803874999999999 -0.000092 159.707954 -43.268649 -168.174069 -43.719381 141.003650 -0.879264 25.076620 
1.7003312500000001 -0.110652 138.310283 -42.983992 168.299121 -43.991714 117.953267 -0.834151 0.742985 
1.7202750000000000 -0.228099 116.213432 -43.145058 143.609248 -44.080655 93.800697 -0.782192 -23.754816 
1.7402187499999999 -0.211514 93.029266 -42.940079 116.472496 -43.959448 67.702380 -0.845958 -49.409158 
1.7601625000000001 -0.229659 70.299438 -43.405488 91.366863 -44.285256 41.541202 -0.905529 -76.895270 
1.7801062500000000 -0.264722 50.212894 -43.090147 69.401051 -44.125273 21.381298 -0.942981 -105.136312 
1.8000499999999999 -0.098501 31.232472 -43.013365 42.752866 -43.508719 -5.633439 -1.118827 -132.211475 
1.8199937500000001 0.093891 10.274216 -42.540662 18.512504 -43.567439 -32.123944 -1.189372 -157.602087 
1.8399375000000000 -0.003846 -12.953449 -42.319390 -6.675340 -43.395211 -55.748166 -1.071639 175.913677 
1.8598812499999999 -0.200736 -36.297994 -42.111300 -36.434762 -43.560716 -85.388654 -1.029682 146.578014 
1.8798250000000001 -0.277017 -59.084233 -42.767299 -63.264407 -43.766572 -111.930172 -1.093555 117.085654 
1.8997687500000000 -0.281354 -80.505313 -43.368713 -88.248198 -43.807316 -132.669529 -1.133677 88.782611 
1.9197124999999999 -0.144138 -100.333309 -43.675567 -111.033765 -43.781556 -158.761192 -1.251403 62.309554 
1.9396562500000001 0.017103 -120.686920 -43.133183 -140.209734 -43.792999 174.352726 -1.292443 36.853258 
1.9596000000000000 -0.036370 -142.664793 -43.362251 -166.012553 -43.826866 145.770746 -1.287371 8.911899 
1.9795437499999999 -0.233499 -165.007489 -44.027797 166.107043 -44.124405 116.356824 -1.355027 -21.316006 
1.9994875000000001 -0.320129 172.498745 -43.485091 137.222446 -44.315501 93.412342 -1.352927 -51.422516 
2.0194312499999998 -0.317433 150.370066 -44.414646 112.381246 -45.181241 59.208099 -1.310908 -80.206396 
2.0393750000000002 -0.299472 130.163130 -45.669154 85.019118 -44.958885 40.370525 -1.368976 -106.999032 
2.0593187500000001 -0.170684 110.710907 -44.915061 59.655079 -46.296277 18.442082 -1.501830 -132.913934 
2.0792625000000000 -0.081021 89.606422 -44.733466 33.243808 -45.755134 -14.716854 -1.553051 -161.032123 
2.0992062499999999 -0.247374 67.068347 -44.967607 3.991645 -45.825356 -42.796967 -1.570748 167.883879 
2.1191499999999999 -0.494365 44.899224 -45.331534 -23.745712 -46.493811 -69.484480 -1.641361 136.686482 
2.1390937499999998 -0.439552 23.575349 -45.412583 -50.542116 -47.415886 -94.940284 -1.632024 108.617102 
2.1590375000000002 -0.258946 2.383997 -45.436405 -77.572878 -46.153313 -121.271105 -1.605905 82.472639 
2.1789812500000001 -0.154233 -17.824819 -45.913438 -108.377774 -47.258950 -149.439889 -1.712103 55.859877 
2.1989250000000000 -0.159635 -37.579451 -45.219133 -136.353022 -46.746029 -175.588085 -1.861288 26.808234 
2.2188687499999999 -0.333594 -58.045269 -45.531375 -168.706271 -47.262566 149.967955 -2.032666 -4.953378 
2.2388124999999999 -0.502537 -79.367712 -46.535273 161.376212 -47.002189 115.206495 -2.129235 -36.002077 
2.2587562499999998 -0.490336 -101.644827 -46.427539 126.646574 -47.880425 88.710435 -2.024145 -64.327390 
2.2787000000000002 -0.404606 -123.844017 -46.479569 103.169273 -47.592204 62.895394 -2.004163 -91.594685 
2.2986437500000001 -0.349988 -144.596065 -46.687538 71.716187 -46.643375 32.714767 -2.165136 -119.914074 
2.3185875000000000 -0.300703 -163.863900 -47.191906 40.152636 -47.308099 -6.723348 -2.430327 -151.274529 
2.3385312500000000 -0.327390 176.559011 -46.170882 4.613822 -48.524222 -41.842538 -2.688300 174.654774 
2.3584749999999999 -0.448525 155.966098 -46.313562 -25.168484 -48.060543 -64.387659 -2.695013 141.916704 
2.3784187499999998 -0.573112 134.132251 -46.624563 -56.904553 -47.070233 -101.207146 -2.545681 111.208994 
2.3983625000000002 -0.496142 111.787312 -45.658326 -92.936212 -47.239002 -131.088192 -2.503716 81.262881 
2.4183062500000001 -0.403938 110.542750 -46.544967 -67.340618 -47.699861 -123.074998 -2.158252 95.135976 
2.4382500000000000 -0.293573 87.865317 -45.191139 -101.743374 -46.692721 -159.756629 -2.267011 64.170968 
2.4581937500000000 -0.195372 64.674665 -45.255149 -140.543559 -46.287136 174.645145 -2.627246 29.733729 
2.4781374999999999 -0.314006 44.383391 -45.837071 -161.261375 -45.647612 142.746414 -2.853163 -4.460731 
2.4980812499999998 -0.435229 25.437816 -44.382190 162.872983 -44.697676 117.004676 -2.742987 -38.903221 
2.5180250000000002 -0.424767 5.411867 -43.986004 134.020219 -44.267866 91.393423 -2.598398 -71.835762 
2.5379687500000001 -0.310285 -16.810154 -43.262980 103.718840 -43.567950 61.095260 -2.620774 -102.725246 
2.5579125000000000 -0.266363 -40.437412 -42.623524 77.249131 -42.886141 23.221095 -2.814641 -134.170826 
2.5778562500000000 -0.324907 -63.270970 -41.326235 48.192938 -42.208464 2.995941 -2.889057 -166.753339 
2.5977999999999999 -0.411831 -84.601733 -41.780690 22.255726 -41.990908 -30.667359 -2.793705 159.930347 
2.6177437499999998 -0.535984 -105.124298 -40.966872 -10.127035 -41.868980 -58.110616 -2.616145 128.299238 
2.6376875000000002 -0.544687 -126.210101 -40.834371 -38.737310 -40.830291 -85.389638 -2.472869 99.131777 
2.6576312500000001 -0.443193 -148.533539 -40.504677 -63.108625 -40.607498 -115.696263 -2.527493 70.180964 
2.6775750000000000 -0.325429 -171.949994 -39.851634 -95.973298 -40.369428 -143.272354 -2.685758 40.056891 
2.6975187500000000 -0.277973 164.898793 -39.614129 -128.163098 -40.256625 -170.555719 -2.712137 8.680219 
2.7174624999999999 -0.345380 143.146840 -39.507337 -154.909345 -39.557590 156.820500 -2.556469 -22.864844 
2.7374062499999998 -0.585575 122.264323 -39.181750 178.908379 -39.422446 133.949729 -2.335612 -53.196456 
2.7573500000000002 -0.767825 102.202282 -39.063320 154.403574 -39.651329 104.605977 -2.423103 -82.716463 
2.7772937500000001 -0.668669 80.933520 -38.786609 127.411128 -39.210344 82.293257 -2.736398 -111.687949 
2.7972375000000000 -0.415333 56.670100 -37.838952 98.059909 -39.051566 55.472933 -2.793668 -143.043755 
2.8171812500000000 -0.383541 32.279873 -38.007927 72.123506 -38.710840 24.577081 -2.613808 -177.577766 
2.8371249999999999 -0.519526 10.857413 -37.712714 45.102439 -38.664603 -4.744773 -2.405458 149.572223 
2.8570687499999998 -0.620724 -8.786141 -38.049644 16.992966 -38.560927 -29.272265 -2.369608 120.710459 
2.8770125000000002 -0.718248 -28.470552 -37.724647 -4.016861 -38.608185 -49.847837 -2.482081 93.839924 
2.8969562500000001 -0.781518 -49.831160 -36.743002 -31.648088 -37.896194 -75.838412 -2.622046 65.283820 
2.9169000000000000 -0.686517 -73.520434 -36.233254 -56.815788 -37.037106 -104.663771 -2.685242 32.259638 
2.9368437500000000 -0.652214 -98.010418 -36.416070 -89.954790 -37.378741 -135.684322 -2.591323 -2.625889 
2.9567874999999999 -0.667527 -120.224768 -36.873053 -120.716617 -37.589967 -162.723161 -2.410604 -33.972345 
2.9767312499999998 -0.606840 -140.006209 -37.364079 -145.149095 -38.138850 173.367589 -2.319723 -61.135275 
2.9966750000000002 -0.651617 -159.470205 -37.162744 -168.504551 -37.803782 146.201650 -2.320038 -87.153106 
3.0166187500000001 -0.812510 -179.220464 -37.126026 163.827632 -37.387865 121.031398 -2.407818 -116.205997 
3.0365625000000001 -0.835830 159.248598 -36.621315 138.575447 -37.000260 94.965550 -2.420455 -148.454554 
3.0565062500000000 -0.777708 134.595689 -36.755272 110.591034 -37.206382 68.308201 -2.303428 179.493939 
3.0764499999999999 -0.811577 110.444824 -36.929687 81.942344 -37.698533 41.287478 -2.266420 151.346425 
3.0963937499999998 -0.799272 89.292585 -37.619561 61.016205 -38.023829 19.025397 -2.203912 126.932546 
3.1163375000000002 -0.683076 69.894718 -37.089397 37.784491 -37.760071 -3.373278 -2.146106 100.848072 
3.1362812500000001 -0.645282 50.095317 -36.767008 13.545751 -37.763318 -28.090495 -2.315454 70.191245 
3.1562250000000001 -0.806818 29.351484 -36.367099 -14.350263 -37.314859 -52.884226 -2.405970 37.431333 
3.1761687500000000 -0.874727 6.982780 -36.430169 -38.929119 -37.284870 -80.247545 -2.299993 5.804460 
3.1961124999999999 -0.872071 -17.136983 -36.489542 -66.424717 -37.462069 -107.097625 -2.229561 -21.768256 
3.2160562499999998 -0.877383 -40.371759 -36.740558 -92.033483 -37.539865 -131.152041 -2.205171 -47.077092 
3.2360000000000002 -0.827181 -61.338426 -36.161100 -117.455671 -37.052136 -156.443713 -2.309878 -75.334114 
3.2559437500000001 -0.797825 -81.397961 -36.049548 -143.519484 -36.486060 178.574236 -2.480371 -108.148027 
3.2758875000000001 -0.855435 -101.572546 -36.059517 -170.028619 -36.370669 149.795225 -2.546680 -142.882077 
3.2958312500000000 -0.867888 -123.125203 -35.951869 161.969467 -37.216410 122.742978 -2.487252 -174.162218 
3.3157749999999999 -0.894053 -147.380758 -36.296976 136.147876 -36.815489 98.288360 -2.408403 159.163919 
3.3357187499999998 -1.041979 -171.750852 -36.167923 111.223753 -37.149515 72.435621 -2.415639 132.035100 
3.3556625000000002 -1.107357 166.307724 -36.523575 82.984673 -37.230374 46.692582 -2.508700 100.026772 
3.3756062500000001 -0.995165 145.311419 -36.245801 57.737841 -36.919771 17.810744 -2.697472 64.113420 
3.3955500000000001 -0.905198 123.265406 -36.636915 28.509945 -37.453571 -6.937463 -2.664216 31.386759 
3.4154937500000000 -1.030305 100.052686 -37.019871 8.093365 -37.737260 -29.642759 -2.335846 4.076162 
3.4354374999999999 -1.165282 76.522931 -37.350112 -20.110584 -37.920924 -54.427829 -2.145851 -21.780207 
3.4553812499999998 -1.167669 52.841281 -37.128586 -43.522950 -38.210109 -80.784759 -2.262319 -49.198883 
3.4753250000000002 -1.190222 30.187871 -37.154402 -69.776012 -38.097206 -104.092665 -2.432189 -80.662815 
3.4952687500000001 -1.200959 9.016049 -37.594172 -96.492290 -38.284212 -131.881208 -2.419308 -114.139583 
3.5152125000000001 -1.236058 -12.618674 -37.675185 -120.198650 -38.420414 -156.874979 -2.141980 -144.083341 
3.5351562500000000 -1.368314 -35.923385 -38.002016 -146.844555 -39.052042 178.831462 -1.884816 -170.084135 
3.5550999999999999 -1.481979 -60.820509 -37.848906 -175.580846 -39.088545 153.790285 -1.904998 165.643211 
3.5750437499999999 -1.480252 -86.672379 -38.896050 159.303994 -39.147965 128.128708 -2.018241 139.071395 
3.5949874999999998 -1.472851 -110.832701 -39.093976 136.784314 -39.306827 100.125027 -2.140127 107.437432 
3.6149312500000002 -1.448281 -132.480880 -39.438652 106.965652 -40.343361 72.371295 -2.124644 75.576511 
3.6348750000000001 -1.451706 -153.436799 -40.444035 87.981067 -40.800432 53.894656 -1.882788 47.586942 
3.6548187500000000 -1.579288 -175.801868 -40.566132 62.429429 -41.418092 31.522578 -1.679758 23.082701 
3.6747624999999999 -1.803045 159.344719 -41.979863 42.610471 -41.958514 8.641798 -1.736268 -0.986618 
3.6947062499999999 -1.975167 133.146484 -41.653590 21.997495 -42.414209 -15.918145 -2.025854 -28.910711 
3.7146499999999998 -1.919827 107.471381 -42.470360 -5.594982 -43.355603 -39.186298 -2.307433 -61.002767 
3.7345937500000002 -1.854753 83.628972 -42.367116 -29.101129 -43.495780 -51.372100 -2.271055 -92.878625 
3.7545375000000001 -1.880125 61.367362 -42.546999 -45.944158 -43.376754 -75.618707 -1.966727 -121.235283 
