!
! C:\Users\Aljaz\Desktop\LPF_3900.S2P
!
! Touchstone 1.1 file saved by VNA.EXE V1.65 (www.ke5fx.com/gpib/readme.htm)
! 21. 07. 2022 18:11:16
!
!    Source: HP8510C.07.14: Aug 26  1998 
!  Min freq: 4.500000E+007 Hz
!  Max freq: 1.000000E+010 Hz
!    Points: 801
!    Params: S11 S21 S12 S22
!
!!!!!
# GHZ S DB R 50
0.0450000000000000 -53.021416 13.511793 -0.079633 -8.199978 0.283590 -7.341225 -50.226900 13.614129 
0.0574437500000000 -58.218863 46.185274 -0.061363 -10.667577 0.278024 -10.056439 -50.471848 6.377964 
0.0698875000000000 -57.304526 38.739184 -0.042253 -13.040709 0.285972 -12.562942 -51.895297 14.234340 
0.0823312500000000 -50.109628 66.654936 -0.075520 -15.459625 0.258039 -15.051469 -49.903240 30.966325 
0.0947750000000000 -47.804533 62.632962 -0.072737 -17.904680 0.239991 -17.231655 -46.440247 29.329483 
0.1072187500000000 -46.951114 47.313298 -0.075403 -20.290362 0.229489 -19.720496 -45.455750 31.311477 
0.1196625000000000 -48.346058 45.364851 -0.075827 -22.695303 0.203807 -22.037699 -45.313106 22.131105 
0.1321062500000000 -48.010497 65.913157 -0.086695 -25.037376 0.185266 -24.489425 -44.498982 19.824421 
0.1445500000000000 -45.425845 83.290167 -0.090893 -27.454053 0.170575 -26.941534 -43.338834 15.788304 
0.1569937500000000 -42.681933 82.423671 -0.095891 -29.863079 0.162396 -29.335971 -42.565931 20.506418 
0.1694375000000000 -41.704644 75.747666 -0.099642 -32.285485 0.137793 -31.720250 -41.651575 16.135566 
0.1818812500000000 -41.214887 74.231999 -0.101843 -34.528661 0.139395 -34.099535 -40.708827 12.498906 
0.1943250000000000 -39.688145 76.314711 -0.114680 -36.909941 0.131097 -36.492361 -40.398480 12.331489 
0.2067687500000000 -38.087114 79.701231 -0.104744 -39.149574 0.124196 -38.921200 -40.246869 13.117236 
0.2192125000000000 -36.922526 74.757153 -0.103785 -41.436623 0.107612 -41.209158 -38.787991 9.298641 
0.2316562500000000 -36.395063 69.720354 -0.117618 -43.821861 0.102059 -43.472380 -38.025315 5.112850 
0.2441000000000000 -36.481704 68.782613 -0.124088 -46.235469 0.105193 -45.884413 -37.180080 2.085723 
0.2565437500000000 -36.049408 65.248707 -0.138571 -48.590283 0.191369 -47.890611 -36.401252 -0.922562 
0.2689875000000000 -35.128754 67.323510 -0.122921 -51.147699 0.163925 -50.246276 -35.797806 -5.018480 
0.2814312500000000 -34.116169 62.885093 -0.158151 -53.525412 0.175555 -52.778482 -34.900083 -11.721577 
0.2938750000000000 -33.774249 62.180691 -0.143931 -55.893787 0.170587 -55.166701 -34.268395 -14.158861 
0.3063187500000000 -32.960946 59.206256 -0.127465 -58.218246 0.147911 -57.586815 -34.109826 -14.664525 
0.3187625000000000 -31.537827 57.503335 -0.157525 -60.419651 0.147245 -59.996250 -33.063203 -18.602097 
0.3312062500000000 -30.910351 52.739813 -0.157313 -62.802709 0.145356 -62.365991 -32.583812 -20.608055 
0.3436500000000000 -30.640848 47.177471 -0.169482 -65.135199 0.146605 -64.610644 -31.839566 -23.429093 
0.3560937500000000 -30.464697 41.833970 -0.171194 -67.608131 0.111499 -66.943527 -31.274750 -28.187732 
0.3685375000000000 -30.158159 42.653885 -0.181855 -69.886159 0.112300 -69.219509 -30.601386 -28.756024 
0.3809812500000000 -29.388809 40.674143 -0.187817 -72.282082 0.097988 -71.651980 -30.282618 -30.936814 
0.3934250000000000 -28.825011 35.721557 -0.197574 -74.546267 0.095213 -74.038927 -29.572383 -35.028271 
0.4058687500000000 -28.742368 32.125022 -0.198865 -76.980444 0.076560 -76.347125 -29.008963 -38.021553 
0.4183125000000000 -28.457430 28.692893 -0.190058 -79.335002 0.087997 -78.682599 -28.651149 -38.142270 
0.4307562500000000 -27.926776 28.926119 -0.205333 -81.746589 0.071379 -81.070832 -28.268213 -42.789326 
0.4432000000000000 -27.109804 25.781635 -0.214062 -83.761731 0.067330 -83.458630 -27.630960 -45.466939 
0.4556437500000000 -26.688057 20.181725 -0.209746 -86.203323 0.057206 -85.897055 -27.320353 -46.716245 
0.4680875000000000 -26.260602 16.499098 -0.210864 -88.561278 0.069828 -88.188848 -27.120175 -49.023637 
0.4805312500000000 -25.870454 12.758082 -0.230594 -90.964264 0.063777 -90.545028 -26.662624 -53.050555 
0.4929750000000000 -25.606701 10.355176 -0.225028 -93.269412 0.028125 -92.765276 -26.358650 -55.155242 
0.5054187500000000 -25.178465 7.441927 -0.228332 -95.645755 0.030057 -95.166503 -25.940992 -57.164702 
0.5178625000000000 -24.930341 4.212254 -0.231862 -97.926924 0.027203 -97.534289 -25.497240 -60.446295 
0.5303062500000000 -24.890263 2.332181 -0.242823 -100.381398 0.006217 -99.809897 -25.292500 -63.687527 
0.5427500000000000 -24.625063 0.297806 -0.244595 -102.803469 0.011804 -102.171224 -25.012673 -66.126234 
0.5551937500000000 -24.098282 -2.246291 -0.251150 -105.161671 -0.005769 -104.668133 -24.633008 -68.651775 
0.5676375000000000 -23.847644 -6.696911 -0.260035 -107.371759 -0.003146 -107.011039 -24.396451 -72.185367 
0.5800812500000000 -23.506467 -9.966460 -0.271579 -109.654191 -0.000956 -109.310928 -24.008100 -74.080555 
0.5925250000000000 -23.154340 -13.829682 -0.269771 -112.056968 -0.020899 -111.774072 -23.863234 -76.091120 
0.6049687500000001 -22.972820 -16.810379 -0.278046 -114.348180 -0.026986 -114.035329 -23.468868 -78.930353 
0.6174125000000000 -22.730419 -20.457961 -0.277405 -116.743477 -0.044256 -116.251452 -23.109395 -81.632020 
0.6298562500000000 -22.513471 -24.011988 -0.276788 -119.061967 -0.044664 -118.615365 -22.844335 -83.871793 
0.6423000000000000 -22.467301 -26.297546 -0.284438 -121.462628 -0.054614 -120.991818 -22.732157 -86.315358 
0.6547437500000000 -22.366970 -29.169189 -0.295739 -123.894784 -0.064292 -123.321692 -22.410268 -89.379784 
0.6671875000000000 -22.213464 -31.722599 -0.291011 -126.237411 -0.067832 -125.707095 -22.179408 -91.977937 
0.6796312500000000 -22.067533 -35.898726 -0.307863 -128.629254 -0.058789 -128.038181 -22.005794 -95.299628 
0.6920750000000000 -21.876817 -38.490765 -0.304186 -130.765500 -0.064914 -130.482257 -21.950235 -97.854619 
0.7045187500000000 -21.620264 -42.117597 -0.314343 -133.128006 -0.085701 -132.828066 -21.736944 -99.496112 
0.7169625000000000 -21.172837 -45.365288 -0.327643 -135.464788 -0.086684 -135.332183 -21.481168 -101.690682 
0.7294062500000000 -20.789400 -50.232125 -0.344070 -137.719089 -0.098245 -137.643163 -21.260438 -104.421755 
0.7418500000000000 -20.691652 -55.770992 -0.340110 -140.057069 -0.105422 -139.879211 -21.195208 -107.978102 
0.7542937500000000 -20.771184 -58.763831 -0.330899 -142.431850 -0.116806 -142.153927 -21.101010 -109.903829 
0.7667375000000000 -20.683770 -59.578455 -0.329119 -144.873783 -0.117492 -144.593155 -20.900759 -112.291254 
0.7791812500000001 -20.446522 -61.081947 -0.355480 -147.273420 -0.131456 -146.942121 -20.805127 -115.209416 
0.7916250000000000 -20.195611 -64.599705 -0.368635 -149.641662 -0.112578 -149.238260 -20.640570 -117.901553 
0.8040687500000000 -20.218348 -68.598975 -0.360011 -151.981544 -0.132176 -151.529105 -20.531651 -120.819101 
0.8165125000000000 -20.472333 -71.089952 -0.355360 -154.258560 -0.141926 -153.953992 -20.447794 -123.614114 
0.8289562500000000 -20.372449 -73.158935 -0.369067 -156.558976 -0.138434 -156.406227 -20.332385 -126.413893 
0.8414000000000000 -20.123376 -76.343366 -0.377624 -158.928398 -0.143674 -158.789166 -20.353980 -128.464619 
0.8538437500000000 -19.868281 -81.534701 -0.408130 -161.183133 -0.004488 -160.899513 -20.334694 -130.897445 
0.8662875000000000 -19.874984 -86.201114 -0.397287 -163.878609 -0.060993 -163.544975 -20.259026 -133.753147 
0.8787312500000000 -19.939101 -89.544211 -0.398386 -166.474787 -0.072075 -165.812381 -20.255273 -136.286111 
0.8911750000000001 -19.795065 -91.731502 -0.411688 -168.734654 -0.071427 -167.937011 -20.188421 -138.810715 
0.9036187500000000 -19.695176 -94.579976 -0.404032 -171.146603 -0.099297 -170.433296 -20.174050 -141.688098 
0.9160625000000000 -19.739673 -98.256389 -0.393940 -173.328646 -0.115543 -172.842238 -20.130094 -143.704296 
0.9285062500000000 -19.891045 -101.274800 -0.385401 -175.709663 -0.084906 -175.127852 -20.064751 -146.474221 
0.9409500000000000 -19.876529 -103.295671 -0.405607 -178.002586 -0.103197 -177.452956 -20.049719 -149.904486 
0.9533937500000000 -19.859679 -106.196205 -0.409769 179.536250 -0.080850 -179.714091 -19.998234 -152.608161 
0.9658375000000000 -19.901128 -110.588673 -0.427684 177.223538 -0.080844 177.823379 -20.086148 -154.678921 
0.9782812500000000 -19.882413 -114.433426 -0.441390 175.065400 -0.108315 175.255028 -20.128181 -157.182380 
0.9907250000000000 -20.028033 -117.531003 -0.439031 172.565418 -0.138798 172.910681 -20.155045 -159.711407 
1.0031687499999999 -20.021476 -120.578971 -0.448114 170.394209 -0.139311 170.680517 -20.123528 -162.294181 
1.0156125000000000 -19.983739 -124.180777 -0.446296 168.003080 -0.144291 168.409746 -20.174380 -164.838172 
1.0280562499999999 -20.039599 -128.114928 -0.413589 165.691119 -0.171390 166.048531 -20.381401 -167.305968 
1.0405000000000000 -20.179320 -129.927273 -0.426480 163.267509 -0.188642 163.698697 -20.431666 -169.414917 
1.0529437500000001 -20.279234 -132.298588 -0.443129 160.899954 -0.188833 161.301720 -20.476610 -172.113169 
1.0653874999999999 -20.211726 -135.031671 -0.449340 158.616779 -0.191925 159.019860 -20.563285 -174.422139 
1.0778312500000000 -20.341389 -138.955858 -0.428115 156.257027 -0.169886 156.750836 -20.822837 -177.536334 
1.0902750000000001 -20.770591 -143.417190 -0.426855 153.835773 -0.162541 154.394265 -21.002392 -179.776772 
1.1027187500000000 -21.112007 -145.073104 -0.436608 151.483309 -0.165919 151.920384 -21.058850 177.950273 
1.1151625000000001 -21.156088 -146.902025 -0.464556 149.036245 -0.182637 149.657317 -21.115771 175.070624 
1.1276062499999999 -21.234595 -151.620579 -0.473373 146.662782 -0.171066 147.336779 -21.396234 172.027443 
1.1400500000000000 -21.374188 -156.439672 -0.457775 144.340406 -0.198615 145.008861 -21.553521 170.134195 
1.1524937500000001 -21.722601 -159.906237 -0.430381 141.957424 -0.216238 142.699512 -21.787493 167.220728 
1.1649375000000000 -21.848008 -161.875433 -0.468263 139.638701 -0.213985 140.285524 -21.903377 164.530802 
1.1773812500000000 -21.861709 -163.530838 -0.474984 137.348649 -0.217440 137.729204 -22.178806 162.272988 
1.1898249999999999 -21.850969 -168.299123 -0.484219 135.188252 -0.221759 135.339924 -22.587186 160.207555 
1.2022687500000000 -22.310467 -172.225199 -0.451284 132.690342 -0.244993 133.048736 -22.837487 159.127605 
1.2147125000000001 -22.936548 -175.917224 -0.467100 130.395956 -0.228374 130.779456 -23.042403 156.490182 
1.2271562499999999 -23.474624 -177.370931 -0.467899 127.911077 -0.199390 128.409450 -23.313053 153.646793 
1.2396000000000000 -23.768222 179.021835 -0.475839 125.375145 -0.205060 125.979726 -23.809344 150.281807 
1.2520437499999999 -24.300374 174.088881 -0.486480 123.029452 -0.214634 123.677641 -24.186167 149.334558 
1.2644875000000000 -25.165515 169.456510 -0.482497 120.449893 -0.221446 121.224306 -24.617004 147.047465 
1.2769312500000001 -25.789312 167.791823 -0.489209 117.932660 -0.244202 118.799054 -25.055333 144.732876 
1.2893749999999999 -25.806080 166.341289 -0.504786 115.560547 -0.239818 116.462159 -25.487980 141.725129 
1.3018187500000000 -25.603712 161.090723 -0.492322 113.380585 -0.249083 113.985873 -26.248610 140.614446 
1.3142624999999999 -26.125715 154.025602 -0.483415 111.048925 -0.261866 111.566160 -26.642815 138.776531 
1.3267062500000000 -27.130648 150.516965 -0.492847 108.636847 -0.256190 109.194096 -27.226236 136.282107 
1.3391500000000001 -27.968941 149.453746 -0.516453 106.282622 -0.232344 106.715586 -27.977416 135.215867 
1.3515937499999999 -28.480804 148.041052 -0.504189 103.842988 -0.228502 104.352772 -28.908606 134.280170 
1.3640375000000000 -29.599230 139.714227 -0.506138 101.477137 -0.240892 102.019299 -29.653666 131.270886 
1.3764812500000001 -31.072390 133.123770 -0.498102 99.033082 -0.240920 99.581428 -30.175883 132.529293 
1.3889250000000000 -33.733846 132.289957 -0.495378 96.425846 -0.221287 97.325467 -31.631518 130.510606 
1.4013687500000001 -35.847869 135.291054 -0.507086 94.038735 -0.250520 94.751240 -33.445520 130.249327 
1.4138124999999999 -36.791697 132.816351 -0.520295 91.583769 -0.271188 92.394579 -34.431729 133.613940 
1.4262562500000000 -37.556730 119.778897 -0.510886 89.310127 -0.281784 89.947621 -36.059674 132.421731 
1.4387000000000001 -38.898586 102.382369 -0.538290 87.046367 -0.282254 87.495695 -37.773486 136.984308 
1.4511437500000000 -42.487885 87.971276 -0.534371 84.539749 -0.277425 84.996633 -40.447366 142.855397 
1.4635875000000000 -43.031024 76.750945 -0.529965 82.047837 -0.259931 82.543584 -42.794428 167.064847 
1.4760312499999999 -42.916163 29.389089 -0.543715 79.776572 -0.275798 80.245992 -40.480052 -159.981617 
1.4884750000000000 -40.386068 -12.609048 -0.559254 77.368238 -0.268736 77.738597 -39.499291 -148.047653 
1.5009187500000001 -37.136011 -42.194006 -0.554811 74.828579 -0.294594 75.490382 -38.661150 -134.586021 
1.5133624999999999 -34.656004 -59.514401 -0.551280 72.471814 -0.284370 72.988395 -36.429224 -121.546159 
1.5258062500000000 -33.290452 -65.224150 -0.564468 69.948660 -0.300919 70.507147 -34.312997 -118.912040 
1.5382499999999999 -32.357992 -67.243434 -0.553830 67.643482 -0.331456 68.124378 -32.933954 -121.128258 
1.5506937500000000 -30.763641 -70.955876 -0.561460 65.128585 -0.340070 65.743405 -31.813028 -118.356279 
1.5631375000000001 -30.242603 -74.395328 -0.556162 62.682956 -0.338700 63.269897 -30.780058 -117.000413 
1.5755812499999999 -29.988887 -76.433781 -0.567045 60.313230 -0.337038 60.795323 -29.474375 -117.429938 
1.5880250000000000 -29.141347 -72.426352 -0.580560 57.791903 -0.366277 58.354981 -28.781720 -121.441522 
1.6004687500000001 -27.926804 -75.055956 -0.602587 55.615991 -0.336092 56.020081 -27.949910 -122.537123 
1.6129125000000000 -27.018679 -84.100336 -0.616567 53.098562 -0.344267 53.594373 -27.272739 -125.947377 
1.6253562500000001 -26.588565 -91.941719 -0.609419 50.543128 -0.345523 50.984425 -26.601412 -126.912901 
1.6377999999999999 -26.423012 -96.204687 -0.627718 48.124832 -0.346943 48.486756 -25.989102 -129.644120 
1.6502437500000000 -25.559062 -97.969778 -0.607055 45.649704 -0.361927 46.064781 -25.623302 -131.952759 
1.6626875000000001 -24.356116 -102.048884 -0.633946 43.289353 -0.401592 43.657064 -24.966814 -131.186107 
1.6751312500000000 -23.730850 -108.045727 -0.606284 40.808119 -0.428392 41.302050 -24.465613 -133.159642 
1.6875750000000000 -23.544887 -113.842167 -0.579234 38.410230 -0.414903 38.958276 -23.889528 -136.416166 
1.7000187499999999 -23.621062 -114.806641 -0.611765 35.910406 -0.412699 36.393521 -23.680614 -139.534331 
1.7124625000000000 -23.264132 -115.587178 -0.607381 33.415985 -0.403946 33.929356 -23.595621 -141.096201 
1.7249062500000001 -22.926536 -117.382410 -0.644657 31.049342 -0.420017 31.469844 -23.119041 -142.228647 
1.7373499999999999 -22.784852 -122.165012 -0.642422 28.523907 -0.394202 29.135288 -22.704797 -145.742148 
1.7497937500000000 -22.890842 -125.461831 -0.656651 25.914795 -0.386939 26.530713 -22.506895 -149.832167 
1.7622374999999999 -22.836568 -127.654028 -0.681765 23.432281 -0.402798 23.961930 -22.413181 -152.858087 
1.7746812500000000 -22.279952 -130.001317 -0.677521 21.278006 -0.448611 21.486175 -22.221474 -153.532144 
1.7871250000000001 -21.620782 -134.862170 -0.711648 18.530974 -0.501850 19.301412 -21.902451 -154.281878 
1.7995687499999999 -21.264087 -140.967092 -0.701386 16.421633 -0.513855 16.898962 -21.503375 -156.917767 
1.8120125000000000 -21.051845 -145.015255 -0.667474 13.873670 -0.486163 14.773589 -21.361421 -159.815294 
1.8244562499999999 -20.919324 -149.287091 -0.680208 11.400050 -0.486863 12.095531 -21.258729 -162.081981 
1.8369000000000000 -20.891254 -152.516462 -0.653536 8.703305 -0.468285 9.757512 -21.157974 -163.705729 
1.8493437500000001 -21.031733 -155.598418 -0.675845 6.298868 -0.446731 7.079349 -20.925588 -166.672602 
1.8617874999999999 -21.311787 -156.510353 -0.714715 3.721758 -0.453284 4.427528 -20.980336 -170.405339 
1.8742312500000000 -21.257792 -157.172596 -0.749346 1.197100 -0.450596 1.972774 -21.023138 -172.766409 
1.8866750000000001 -21.066746 -159.292681 -0.768038 -1.140454 -0.450006 -0.572720 -20.883356 -174.438199 
1.8991187500000000 -20.772357 -165.011183 -0.773359 -3.551652 -0.480074 -3.019003 -20.754748 -176.920678 
1.9115625000000001 -20.804271 -169.972016 -0.766323 -5.917541 -0.515109 -5.403391 -20.678896 -179.636044 
1.9240062499999999 -20.792613 -173.884839 -0.789134 -8.283646 -0.539655 -7.884078 -20.703883 178.364371 
1.9364500000000000 -20.432464 -177.000735 -0.765446 -10.640303 -0.557509 -10.148927 -20.656924 176.716735 
1.9488937500000001 -20.177076 177.661604 -0.743468 -12.965775 -0.545756 -12.508817 -20.571666 174.412047 
1.9613375000000000 -20.265721 171.602507 -0.721854 -15.571914 -0.516779 -15.001707 -20.610744 171.202674 
1.9737812500000000 -20.708091 168.800287 -0.726014 -18.276245 -0.510801 -17.681374 -20.832791 168.626380 
1.9862249999999999 -20.958476 168.146790 -0.740615 -20.846661 -0.501949 -20.268316 -21.050976 166.700861 
1.9986687500000000 -20.971420 167.132895 -0.768522 -23.435881 -0.511009 -22.774642 -21.010104 165.035368 
2.0111124999999999 -20.902085 163.183232 -0.793047 -25.946485 -0.509078 -25.276416 -20.947733 161.677594 
2.0235562499999999 -21.220657 157.806216 -0.802536 -28.389600 -0.503051 -27.775711 -21.066012 157.722282 
2.0360000000000000 -21.837946 154.731029 -0.819642 -31.008904 -0.529874 -30.532824 -21.364631 155.992065 
2.0484437500000001 -21.955265 154.156034 -0.827423 -33.395082 -0.583582 -32.937473 -21.522979 155.258148 
2.0608875000000002 -21.407654 150.042163 -0.838740 -35.646926 -0.606555 -35.304453 -21.272377 154.373137 
2.0733312499999998 -21.148196 143.348130 -0.830602 -37.967790 -0.591425 -37.538118 -21.294800 150.956238 
2.0857749999999999 -21.211713 136.236791 -0.786244 -40.348199 -0.566173 -40.054324 -21.435835 147.957168 
2.0982187500000000 -21.712326 132.431710 -0.802242 -43.007589 -0.553829 -42.788184 -22.085838 145.944607 
2.1106625000000001 -21.868919 129.796202 -0.793329 -45.673275 -0.561242 -45.443167 -22.307294 144.591227 
2.1231062500000002 -22.230168 127.438957 -0.809324 -48.302385 -0.542464 -47.888691 -22.493162 142.128208 
2.1355499999999998 -22.840709 123.060781 -0.823871 -51.033343 -0.542757 -50.546896 -23.028780 139.227857 
2.1479937499999999 -23.634619 120.998788 -0.833411 -53.652837 -0.556557 -53.175592 -23.280726 136.819912 
2.1604375000000000 -24.232046 120.547623 -0.868627 -56.237040 -0.574493 -55.656572 -23.499002 135.564172 
2.1728812500000001 -24.257918 117.941606 -0.865150 -58.538660 -0.603063 -58.120772 -23.704414 132.817825 
2.1853250000000002 -24.077210 111.438621 -0.866265 -60.887980 -0.599153 -60.653164 -24.039811 129.731603 
2.1977687499999998 -24.378082 104.270544 -0.865665 -63.338192 -0.602385 -63.318451 -24.490706 127.592726 
2.2102124999999999 -24.754701 98.829330 -0.849955 -65.893414 -0.624753 -65.923807 -24.804104 127.726842 
2.2226562500000000 -24.719165 93.905314 -0.857326 -68.377062 -0.648116 -68.429142 -25.230855 126.390528 
2.2351000000000001 -24.720799 88.326771 -0.840047 -70.960830 -0.635038 -70.986231 -25.380976 125.742088 
2.2475437500000002 -25.349710 80.836366 -0.847132 -73.704558 -0.620207 -73.543588 -26.300288 123.377673 
2.2599874999999998 -26.745349 78.279102 -0.840823 -76.444026 -0.613369 -76.078902 -27.137080 124.762745 
2.2724312499999999 -28.161591 79.930788 -0.855873 -79.239168 -0.632945 -78.608922 -27.709066 124.044212 
2.2848750000000000 -28.614572 78.752477 -0.882062 -81.677481 -0.620206 -81.265691 -28.241736 119.942340 
2.2973187500000001 -29.465549 70.959774 -0.885655 -84.276690 -0.615635 -83.952484 -29.356100 116.961849 
2.3097625000000002 -30.627501 61.087735 -0.880324 -86.782281 -0.649614 -86.500539 -31.275552 119.334320 
2.3222062499999998 -32.217952 55.583621 -0.893232 -89.383731 -0.678080 -89.166257 -31.675979 123.540102 
2.3346499999999999 -32.424736 53.787544 -0.892329 -91.872164 -0.679128 -91.775678 -31.596532 123.960177 
2.3470937500000000 -31.367376 45.451925 -0.917493 -94.306593 -0.705553 -94.286270 -32.457822 120.860716 
