!
! C:\Users\Aljaz\OneDrive - Univerza v Ljubljani\DOKTORAT\NOVI SA\Slabilec PE43711B\meritve\0_25dB.S2P
!
! Touchstone 1.1 file saved by VNA.EXE V1.65 (www.ke5fx.com/gpib/readme.htm)
! 2. 04. 2022 19:08:15
!
!    Source: HP8510C.07.14: Aug 26  1998 
!  Min freq: 4.500000E+007 Hz
!  Max freq: 6.000000E+009 Hz
!    Points: 801
!    Params: S11 S21 S12 S22
!
!!!!!
# GHZ S DB R 50
0.0450000000000000 -19.041428 -23.549918 -1.300880 -0.861193 -1.264005 -0.861587 -19.484509 -25.213619 
0.0524437500000000 -19.118639 -22.677123 -1.280047 -1.732634 -1.249677 -1.732648 -19.604403 -24.331441 
0.0598875000000000 -19.180062 -22.549638 -1.300575 -2.468383 -1.264182 -2.389230 -19.663624 -24.158044 
0.0673312500000000 -19.255356 -22.635148 -1.304825 -3.104310 -1.277657 -3.074326 -19.714561 -24.248961 
0.0747750000000000 -19.288448 -22.997365 -1.296187 -3.749933 -1.274227 -3.665379 -19.747885 -24.742667 
0.0822187500000000 -19.320110 -23.365517 -1.302036 -4.273756 -1.261809 -4.262084 -19.755732 -25.125116 
0.0896625000000000 -19.320933 -24.160743 -1.292967 -4.916650 -1.278724 -4.825216 -19.785452 -25.983341 
0.0971062500000000 -19.327549 -24.700264 -1.299120 -5.478839 -1.277709 -5.400195 -19.776779 -26.680323 
0.1045500000000000 -19.298478 -25.663395 -1.307083 -6.031349 -1.277508 -6.004658 -19.788898 -27.571561 
0.1119937500000000 -19.316794 -26.531619 -1.299235 -6.591796 -1.278381 -6.545336 -19.785084 -28.566046 
0.1194375000000000 -19.300311 -27.500266 -1.305224 -7.163327 -1.274865 -7.130038 -19.775588 -29.508701 
0.1268812500000000 -19.293475 -28.558677 -1.301516 -7.666182 -1.286756 -7.659229 -19.747683 -30.591273 
0.1343250000000000 -19.287771 -29.600272 -1.301266 -8.221732 -1.276914 -8.227209 -19.760655 -31.593153 
0.1417687500000000 -19.293921 -30.646172 -1.314305 -8.733945 -1.290984 -8.718556 -19.741913 -32.621386 
0.1492125000000000 -19.290081 -31.619379 -1.320712 -9.222703 -1.292411 -9.243829 -19.738971 -33.938305 
0.1566562500000000 -19.304809 -32.639704 -1.315442 -9.823544 -1.304163 -9.740570 -19.716024 -34.949216 
0.1641000000000000 -19.291087 -33.608499 -1.321489 -10.320505 -1.299295 -10.295943 -19.721925 -36.042627 
0.1715437500000000 -19.275801 -34.692864 -1.337869 -10.829907 -1.306569 -10.782206 -19.705384 -37.255694 
0.1789875000000000 -19.272789 -35.749384 -1.339690 -11.289525 -1.301742 -11.316306 -19.695028 -38.438011 
0.1864312500000000 -19.251493 -36.939677 -1.321540 -11.814214 -1.305982 -11.778238 -19.668849 -39.591686 
0.1938750000000000 -19.263730 -38.063955 -1.333092 -12.286684 -1.307612 -12.331267 -19.669864 -40.809437 
0.2013187500000000 -19.250860 -39.309578 -1.337816 -12.822167 -1.312594 -12.782274 -19.660347 -41.962218 
0.2087625000000000 -19.263447 -40.353447 -1.338198 -13.325314 -1.314862 -13.303536 -19.644931 -43.171904 
0.2162062500000000 -19.256014 -41.503750 -1.339997 -13.806645 -1.313794 -13.827069 -19.636754 -44.413040 
0.2236500000000000 -19.235854 -42.549298 -1.350057 -14.364194 -1.321681 -14.314242 -19.625318 -45.575826 
0.2310937500000000 -19.218131 -43.683476 -1.335745 -14.847877 -1.329322 -14.800816 -19.614770 -46.793648 
0.2385375000000000 -19.199843 -44.816767 -1.344933 -15.343925 -1.331950 -15.301421 -19.596207 -48.074507 
0.2459812500000000 -19.181887 -46.009970 -1.345653 -15.843322 -1.323914 -15.840779 -19.562174 -49.272926 
0.2534250000000000 -19.157007 -47.274131 -1.351497 -16.343308 -1.327849 -16.367695 -19.547810 -50.592641 
0.2608687500000000 -19.147885 -48.631221 -1.355036 -16.872680 -1.319764 -16.789510 -19.519222 -51.849510 
0.2683125000000000 -19.129027 -49.903313 -1.362012 -17.423938 -1.322263 -17.311999 -19.503344 -53.076431 
0.2757562500000000 -19.098192 -51.058663 -1.360004 -17.943482 -1.334586 -17.831440 -19.473808 -54.392491 
0.2832000000000000 -19.080979 -52.058452 -1.372979 -18.456321 -1.333199 -18.338892 -19.436771 -55.618500 
0.2906437500000000 -19.068925 -53.322133 -1.379286 -18.889914 -1.338792 -18.811678 -19.420197 -56.816880 
0.2980875000000000 -19.039661 -54.313321 -1.383079 -19.386810 -1.348146 -19.308069 -19.380266 -58.026111 
0.3055312500000000 -19.012428 -55.426373 -1.387208 -19.908274 -1.363484 -19.762539 -19.358638 -59.213106 
0.3129750000000000 -18.997594 -56.503837 -1.385899 -20.372643 -1.366126 -20.217383 -19.330268 -60.300544 
0.3204187500000000 -18.975124 -57.536705 -1.398638 -20.814239 -1.362711 -20.739677 -19.304655 -61.513685 
0.3278625000000000 -18.978227 -58.579368 -1.395515 -21.319078 -1.370729 -21.185097 -19.273940 -62.671613 
0.3353062500000000 -18.924623 -59.545617 -1.410801 -21.741063 -1.364306 -21.707191 -19.243119 -63.783452 
0.3427500000000000 -18.917174 -60.609559 -1.407007 -22.198856 -1.368097 -22.187196 -19.217684 -64.926874 
0.3501937500000000 -18.884277 -61.724885 -1.396253 -22.725382 -1.385160 -22.676971 -19.182395 -65.966814 
0.3576375000000000 -18.866124 -62.796696 -1.408330 -23.216683 -1.383925 -23.154432 -19.183690 -67.244231 
0.3650812500000000 -18.838073 -63.896692 -1.411274 -23.729611 -1.381782 -23.682317 -19.150882 -68.332196 
0.3725250000000000 -18.842495 -65.063201 -1.414930 -24.222210 -1.394051 -24.097353 -19.129362 -69.437481 
0.3799687500000000 -18.833544 -66.183611 -1.428583 -24.690781 -1.391173 -24.577622 -19.125917 -70.655013 
0.3874125000000000 -18.829985 -67.211004 -1.427381 -25.191690 -1.390899 -25.060658 -19.091170 -71.594309 
0.3948562500000000 -18.791276 -68.334544 -1.426993 -25.667387 -1.396367 -25.579620 -19.065936 -72.752527 
0.4023000000000000 -18.796041 -69.289407 -1.429424 -26.204609 -1.393730 -26.086732 -19.065270 -73.872633 
0.4097437500000000 -18.759161 -70.221013 -1.432515 -26.677558 -1.401131 -26.617426 -19.016204 -74.895856 
0.4171875000000000 -18.751416 -71.234010 -1.446051 -27.162638 -1.395267 -27.138957 -18.985687 -76.012815 
0.4246312500000000 -18.728448 -72.509020 -1.447574 -27.668108 -1.414863 -27.617937 -18.953040 -77.090188 
0.4320750000000000 -18.712140 -73.492621 -1.447986 -28.144060 -1.422553 -28.103502 -18.929318 -78.061786 
0.4395187500000000 -18.724847 -74.510335 -1.469011 -28.536088 -1.438307 -28.588230 -18.879997 -79.159173 
0.4469625000000000 -18.705991 -75.435770 -1.467385 -29.049977 -1.438560 -28.996481 -18.868294 -80.203639 
0.4544062500000000 -18.711745 -76.488434 -1.468574 -29.510139 -1.447245 -29.544531 -18.821804 -81.134429 
0.4618500000000000 -18.671958 -77.310058 -1.472958 -30.006208 -1.448729 -29.997536 -18.779109 -82.151361 
0.4692937500000000 -18.647669 -78.215000 -1.479751 -30.452088 -1.457120 -30.436397 -18.761524 -83.134265 
0.4767375000000000 -18.624268 -79.088117 -1.475247 -30.940656 -1.465767 -30.908020 -18.718944 -84.092174 
0.4841812500000000 -18.588462 -79.961024 -1.487217 -31.415008 -1.470897 -31.356615 -18.692784 -84.999637 
0.4916250000000000 -18.570652 -81.047617 -1.490339 -31.934967 -1.470324 -31.852806 -18.665905 -85.868845 
0.4990687500000000 -18.552122 -81.946037 -1.500185 -32.432302 -1.467103 -32.350357 -18.639718 -86.836340 
0.5065125000000000 -18.527422 -82.877269 -1.496451 -32.932431 -1.481496 -32.836525 -18.596487 -87.615374 
0.5139562500000000 -18.497915 -83.614330 -1.506106 -33.408602 -1.477514 -33.351459 -18.552390 -88.506776 
0.5214000000000000 -18.462088 -84.653060 -1.513700 -33.851702 -1.486791 -33.840270 -18.508093 -89.375985 
0.5288437500000000 -18.402921 -85.501705 -1.523394 -34.355276 -1.492357 -34.348869 -18.464735 -90.358986 
0.5362875000000000 -18.332972 -86.483643 -1.532213 -34.843697 -1.507134 -34.764212 -18.413594 -91.238239 
0.5437312500000000 -18.286835 -87.560646 -1.554107 -35.335674 -1.516785 -35.278932 -18.358477 -92.215115 
0.5511750000000000 -18.227558 -88.600819 -1.555437 -35.794421 -1.530863 -35.708600 -18.324371 -93.222215 
0.5586187500000001 -18.193179 -89.866863 -1.573152 -36.210572 -1.532649 -36.214480 -18.275131 -94.394722 
0.5660625000000000 -18.157200 -90.906939 -1.582663 -36.605969 -1.548100 -36.663439 -18.224683 -95.447511 
0.5735062500000000 -18.123985 -92.119076 -1.583397 -37.078875 -1.557121 -37.037246 -18.179473 -96.597182 
0.5809500000000000 -18.107731 -93.148045 -1.587814 -37.470294 -1.559369 -37.532359 -18.150120 -97.805102 
0.5883937500000001 -18.085772 -94.269879 -1.587917 -37.919169 -1.569760 -37.953439 -18.127168 -98.897253 
0.5958375000000000 -18.054774 -95.248681 -1.587532 -38.255910 -1.566027 -38.293539 -18.110568 -99.944216 
0.6032812500000000 -18.052049 -96.374137 -1.592256 -38.766415 -1.574283 -38.733136 -18.089318 -101.238376 
0.6107250000000000 -18.048530 -97.437276 -1.593994 -39.186384 -1.569778 -39.169872 -18.088634 -102.226327 
0.6181687500000000 -18.054211 -98.313419 -1.598417 -39.558262 -1.572236 -39.576172 -18.075344 -103.257669 
0.6256125000000000 -18.063799 -99.200386 -1.586765 -40.040998 -1.573082 -40.047332 -18.083163 -104.262413 
0.6330562500000000 -18.041224 -99.997167 -1.589970 -40.532283 -1.559301 -40.568840 -18.071143 -105.297650 
0.6405000000000000 -18.048954 -100.968550 -1.580834 -41.026294 -1.560962 -41.020555 -18.060397 -106.281109 
0.6479437500000000 -18.038667 -101.843121 -1.572874 -41.594207 -1.567435 -41.419784 -18.078919 -107.294142 
0.6553875000000000 -18.027844 -102.751536 -1.588156 -42.016393 -1.564003 -41.895717 -18.080431 -108.126861 
0.6628312500000000 -18.030415 -103.721868 -1.597320 -42.502703 -1.551554 -42.354549 -18.079081 -109.081526 
0.6702750000000000 -18.033561 -104.656367 -1.590277 -43.026297 -1.551917 -42.873760 -18.081469 -109.929212 
0.6777187500000000 -18.031335 -105.618223 -1.595498 -43.528991 -1.545665 -43.428056 -18.084366 -110.794460 
0.6851625000000000 -18.007093 -106.377871 -1.598019 -44.030996 -1.553636 -43.990090 -18.080690 -111.636755 
0.6926062500000000 -18.004549 -107.378578 -1.621029 -44.490387 -1.565688 -44.532118 -18.061248 -112.580327 
0.7000500000000000 -17.992277 -108.320849 -1.629502 -44.928409 -1.588450 -45.038599 -18.064192 -113.477854 
0.7074937500000000 -17.986165 -109.331197 -1.639928 -45.401711 -1.602121 -45.472820 -18.054432 -114.520735 
0.7149375000000000 -18.003477 -110.288927 -1.647022 -45.787647 -1.612910 -45.873892 -18.065768 -115.444690 
0.7223812500000000 -18.021881 -111.195712 -1.648240 -46.188416 -1.617302 -46.240798 -18.069441 -116.257474 
0.7298250000000000 -18.028058 -111.987062 -1.651203 -46.558256 -1.619183 -46.688144 -18.077073 -117.062481 
0.7372687500000000 -18.035024 -112.682221 -1.646855 -47.000067 -1.602810 -47.155109 -18.071759 -117.986094 
0.7447125000000000 -18.048449 -113.396649 -1.628119 -47.450946 -1.610847 -47.632294 -18.070696 -118.816091 
0.7521562500000000 -18.024641 -113.950295 -1.623926 -48.028769 -1.619401 -48.112231 -18.058999 -119.677011 
0.7596000000000001 -17.996385 -114.646183 -1.632234 -48.556233 -1.629752 -48.579123 -18.031693 -120.640121 
0.7670437500000000 -17.970663 -115.519583 -1.639246 -49.073918 -1.633691 -48.999500 -18.034684 -121.455513 
0.7744875000000000 -17.954573 -116.334880 -1.654818 -49.559784 -1.634793 -49.486386 -18.032961 -122.324972 
0.7819312500000000 -17.955590 -117.154447 -1.656641 -49.973631 -1.644273 -49.893053 -18.035334 -123.205613 
0.7893750000000001 -17.963175 -118.058139 -1.665847 -50.413563 -1.636455 -50.335253 -18.031046 -124.000788 
0.7968187500000000 -17.979493 -118.653046 -1.665665 -50.852920 -1.631525 -50.777392 -18.014767 -124.771035 
0.8042625000000000 -17.976087 -119.329560 -1.659513 -51.318372 -1.629743 -51.286168 -18.019901 -125.571667 
0.8117062500000000 -17.984437 -120.078916 -1.660687 -51.839086 -1.641702 -51.765419 -17.976101 -126.496959 
0.8191500000000000 -17.942781 -120.657319 -1.676652 -52.339858 -1.632061 -52.305075 -17.993880 -127.086763 
0.8265937500000000 -17.947084 -121.512438 -1.677583 -52.871759 -1.638198 -52.805779 -17.965698 -127.799606 
0.8340375000000000 -17.929270 -122.281933 -1.687853 -53.322498 -1.650911 -53.321682 -17.980770 -128.602454 
0.8414812500000000 -17.932661 -123.098542 -1.711864 -53.686746 -1.646690 -53.846609 -17.967126 -129.485578 
0.8489250000000000 -17.954507 -123.942980 -1.718429 -54.005997 -1.665067 -54.190010 -17.984780 -130.218750 
0.8563687500000000 -17.953535 -124.802735 -1.713702 -54.542792 -1.673095 -54.782201 -17.956285 -130.998884 
0.8638125000000000 -17.972384 -125.401484 -1.717924 -54.932740 -1.694441 -55.134550 -17.945081 -131.658039 
0.8712562500000000 -17.953560 -125.927321 -1.714014 -55.384190 -1.700894 -55.562566 -17.954113 -132.406588 
0.8787000000000000 -17.979888 -126.631915 -1.720453 -55.964087 -1.712887 -55.920677 -17.953456 -133.070345 
0.8861437500000000 -17.956586 -127.458644 -1.720607 -56.371414 -1.718640 -56.298114 -17.925495 -133.766936 
0.8935875000000000 -17.969930 -128.115345 -1.734961 -56.832829 -1.701143 -56.795404 -17.924169 -134.460879 
0.9010312500000000 -17.995295 -128.576885 -1.725856 -57.230430 -1.710290 -57.141967 -17.927308 -135.102260 
0.9084750000000000 -17.975469 -129.546670 -1.730895 -57.791025 -1.702327 -57.715932 -17.876488 -135.767349 
0.9159187500000000 -17.979736 -130.247342 -1.738588 -58.182317 -1.723241 -58.144691 -17.892354 -136.387249 
0.9233625000000000 -17.982667 -130.742246 -1.727455 -58.748318 -1.715332 -58.547409 -17.880284 -137.092775 
0.9308062500000000 -17.985606 -131.361208 -1.736423 -59.161125 -1.721342 -58.937166 -17.867580 -137.806131 
0.9382500000000000 -17.980535 -132.207389 -1.752693 -59.636529 -1.710060 -59.386031 -17.878280 -138.523701 
0.9456937500000000 -18.005144 -132.805619 -1.766960 -60.166075 -1.703927 -59.898085 -17.893337 -139.024445 
0.9531375000000000 -17.990731 -133.515983 -1.780775 -60.481945 -1.703897 -60.427963 -17.909122 -139.701895 
0.9605812500000001 -17.969390 -134.289237 -1.781975 -60.952486 -1.717103 -60.974786 -17.896477 -140.240558 
0.9680250000000000 -18.008152 -134.911527 -1.781240 -61.361958 -1.717822 -61.523890 -17.885029 -140.972542 
0.9754687500000000 -17.976834 -135.590151 -1.775879 -61.747194 -1.738464 -62.002902 -18.014784 -142.031973 
0.9829125000000000 -17.983430 -136.182492 -1.779521 -62.244761 -1.760433 -62.429358 -17.909823 -142.043782 
0.9903562500000001 -17.978402 -136.718346 -1.788202 -62.674995 -1.766817 -62.836917 -17.937460 -142.674705 
0.9978000000000000 -17.980403 -137.224912 -1.787649 -63.096791 -1.768088 -63.198197 -17.943171 -143.130453 
1.0052437500000000 -17.982267 -137.784587 -1.789671 -63.568507 -1.773357 -63.602789 -17.932869 -143.849892 
1.0126875000000000 -17.994412 -138.555215 -1.802568 -63.979627 -1.769097 -64.060935 -17.965538 -144.288436 
1.0201312499999999 -18.003591 -138.998378 -1.794177 -64.443494 -1.769587 -64.592136 -17.963217 -144.878529 
1.0275749999999999 -18.042784 -139.659860 -1.799339 -64.836656 -1.779786 -65.027450 -17.976504 -145.510835 
1.0350187500000001 -18.023919 -140.047538 -1.791847 -65.347941 -1.798638 -65.471671 -18.005351 -146.071434 
1.0424625000000001 -18.034357 -140.621803 -1.807412 -65.818688 -1.808141 -65.887316 -18.012490 -146.853384 
1.0499062500000000 -18.055998 -141.104139 -1.820130 -66.224693 -1.811268 -66.236311 -18.022823 -147.223868 
1.0573500000000000 -18.053050 -141.927539 -1.823355 -66.732874 -1.805964 -66.662629 -18.027118 -147.894935 
1.0647937500000000 -18.084307 -142.599966 -1.817893 -67.132570 -1.800761 -67.058753 -18.054041 -148.646448 
1.0722375000000000 -18.130667 -143.199543 -1.819664 -67.501534 -1.796274 -67.539753 -18.053453 -149.246259 
1.0796812499999999 -18.170335 -143.715797 -1.815842 -67.928862 -1.800560 -68.018424 -18.095335 -149.809017 
1.0871249999999999 -18.167057 -144.261108 -1.804648 -68.434000 -1.807939 -68.494861 -18.077420 -150.501500 
1.0945687500000001 -18.183986 -144.747215 -1.798759 -68.890376 -1.808085 -68.924307 -18.106672 -151.131306 
1.1020125000000001 -18.209050 -145.430931 -1.799159 -69.386560 -1.819442 -69.356899 -18.120654 -151.771984 
1.1094562500000000 -18.191905 -145.961907 -1.810710 -69.913847 -1.816543 -69.787271 -18.152324 -152.357899 
1.1169000000000000 -18.208104 -146.669974 -1.821238 -70.411160 -1.817367 -70.269188 -18.177107 -152.896899 
1.1243437500000000 -18.211344 -147.372733 -1.830618 -70.860528 -1.803385 -70.731386 -18.188369 -153.655517 
1.1317874999999999 -18.214285 -148.052890 -1.841171 -71.229459 -1.817124 -71.185398 -18.207158 -154.203891 
1.1392312499999999 -18.239103 -148.446159 -1.831672 -71.681118 -1.826094 -71.645561 -18.226846 -154.619321 
1.1466750000000001 -18.227195 -148.786536 -1.838300 -72.134903 -1.833435 -72.133899 -18.238464 -155.305860 
1.1541187500000001 -18.241130 -149.317874 -1.840924 -72.567069 -1.834452 -72.546511 -18.275672 -155.584975 
1.1615625000000001 -18.260135 -149.834863 -1.846332 -73.114943 -1.828579 -73.019610 -18.306272 -156.346114 
1.1690062500000000 -18.239234 -150.192911 -1.854264 -73.607407 -1.839892 -73.416673 -18.334423 -156.921295 
1.1764500000000000 -18.238886 -150.837938 -1.871223 -74.055495 -1.833340 -73.906589 -18.350194 -157.232199 
1.1838937500000000 -18.259307 -151.165697 -1.880049 -74.357000 -1.844977 -74.374493 -18.340537 -157.796247 
1.1913374999999999 -18.312535 -151.728381 -1.883822 -74.674584 -1.852950 -74.900728 -18.401967 -158.465348 
1.1987812499999999 -18.326659 -152.044150 -1.867472 -75.132961 -1.868641 -75.323755 -18.392766 -158.844198 
1.2062250000000001 -18.402335 -152.197921 -1.862231 -75.522872 -1.878107 -75.704216 -18.424850 -159.419841 
1.2136687500000001 -18.429694 -152.428202 -1.846649 -75.962180 -1.876906 -76.064291 -18.418643 -159.885986 
1.2211125000000000 -18.436937 -152.878098 -1.842137 -76.439278 -1.867515 -76.450134 -18.442510 -160.337333 
1.2285562500000000 -18.433600 -153.274159 -1.839759 -76.964890 -1.857420 -76.902319 -18.417695 -160.961334 
1.2360000000000000 -18.488967 -153.890000 -1.843297 -77.458292 -1.854695 -77.348393 -18.482675 -161.282408 
1.2434437500000000 -18.528574 -154.297242 -1.849399 -77.885600 -1.856252 -77.900253 -18.474741 -161.739007 
1.2508874999999999 -18.566680 -154.843161 -1.840185 -78.331499 -1.867069 -78.387788 -18.488874 -162.239369 
1.2583312499999999 -18.591664 -155.161518 -1.841290 -78.837158 -1.864258 -78.844773 -18.510975 -162.602148 
1.2657750000000001 -18.629516 -155.522371 -1.838841 -79.405830 -1.869822 -79.321196 -18.526865 -163.225489 
1.2732187500000001 -18.597075 -156.133054 -1.844438 -79.946178 -1.881217 -79.691269 -18.575355 -163.678512 
1.2806625000000000 -18.620609 -156.632226 -1.852923 -80.448015 -1.882250 -80.164241 -18.593174 -164.125837 
1.2881062500000000 -18.616257 -157.058131 -1.882462 -80.857571 -1.871667 -80.596511 -18.618315 -164.489165 
1.2955500000000000 -18.690475 -157.524870 -1.892146 -81.364416 -1.869460 -81.106286 -18.662188 -164.702153 
1.3029937500000000 -18.632054 -158.223554 -1.904268 -81.755056 -1.887361 -81.549388 -18.680113 -165.185052 
1.3104374999999999 -18.672173 -158.571657 -1.908134 -82.169305 -1.894017 -82.067949 -18.705622 -165.471421 
1.3178812499999999 -18.671434 -158.708509 -1.908567 -82.500792 -1.904036 -82.473980 -18.748818 -165.831106 
1.3253250000000001 -18.697973 -158.963037 -1.901297 -82.932755 -1.899992 -82.863647 -18.771724 -166.123450 
1.3327687500000001 -18.704839 -159.002091 -1.902636 -83.352599 -1.896918 -83.311006 -18.806677 -166.329243 
1.3402125000000000 -18.709070 -159.420585 -1.906042 -83.825498 -1.893032 -83.721034 -18.837872 -166.762762 
1.3476562500000000 -18.745004 -159.727123 -1.906160 -84.252356 -1.888097 -84.176969 -18.851448 -167.140730 
1.3551000000000000 -18.781130 -159.997097 -1.909076 -84.653120 -1.903327 -84.715700 -18.873903 -167.238798 
1.3625437499999999 -18.817201 -160.320001 -1.904559 -85.025356 -1.899559 -85.124325 -18.900199 -167.718292 
1.3699874999999999 -18.852181 -160.523959 -1.897456 -85.459470 -1.901807 -85.631846 -18.938313 -168.043300 
1.3774312500000001 -18.851070 -160.422940 -1.876417 -85.962313 -1.913905 -85.975413 -18.985645 -168.507377 
1.3848750000000001 -18.872047 -160.595637 -1.866176 -86.451516 -1.909492 -86.390102 -18.981533 -169.101404 
1.3923187500000000 -18.920238 -160.904616 -1.861357 -86.995978 -1.903731 -86.815581 -18.999594 -169.373882 
1.3997625000000000 -18.940843 -161.319709 -1.868361 -87.607827 -1.889121 -87.314936 -19.022105 -169.683623 
