!
! C:\Users\Aljaz\OneDrive - Univerza v Ljubljani\DOKTORAT\NOVI SA\Slabilec PE43711B\meritve\0_5dB.S2P
!
! Touchstone 1.1 file saved by VNA.EXE V1.65 (www.ke5fx.com/gpib/readme.htm)
! 2. 04. 2022 19:09:28
!
!    Source: HP8510C.07.14: Aug 26  1998 
!  Min freq: 4.500000E+007 Hz
!  Max freq: 6.000000E+009 Hz
!    Points: 801
!    Params: S11 S21 S12 S22
!
!!!!!
# GHZ S DB R 50
0.0450000000000000 -19.128946 -23.115521 -1.553139 -0.800832 -1.506912 -0.831941 -20.232185 -26.511845 
0.0524437500000000 -19.207362 -22.322290 -1.541041 -1.685238 -1.499971 -1.685604 -20.359967 -25.564523 
0.0598875000000000 -19.264954 -22.122888 -1.550601 -2.431713 -1.516793 -2.372247 -20.421718 -25.320313 
0.0673312500000000 -19.347037 -22.280666 -1.557641 -3.076667 -1.512674 -3.035756 -20.498137 -25.472900 
0.0747750000000000 -19.384473 -22.703974 -1.541409 -3.748653 -1.515241 -3.639315 -20.523168 -25.989915 
0.0822187500000000 -19.425144 -23.034201 -1.544353 -4.277596 -1.504853 -4.268578 -20.525123 -26.358413 
0.0896625000000000 -19.431242 -23.597494 -1.556120 -4.879327 -1.519346 -4.825218 -20.569006 -27.087921 
0.0971062500000000 -19.426972 -24.236517 -1.553170 -5.421400 -1.517626 -5.374096 -20.569191 -27.864515 
0.1045500000000000 -19.392663 -25.101111 -1.560449 -6.012729 -1.516339 -5.965416 -20.579712 -28.798613 
0.1119937500000000 -19.385372 -26.074189 -1.553607 -6.592810 -1.517211 -6.525301 -20.563404 -29.612973 
0.1194375000000000 -19.384539 -27.059510 -1.551308 -7.155352 -1.522700 -7.100203 -20.550947 -30.632264 
0.1268812500000000 -19.365039 -28.234297 -1.558554 -7.663495 -1.537668 -7.590227 -20.533603 -31.644956 
0.1343250000000000 -19.350562 -29.318975 -1.554038 -8.195756 -1.522048 -8.152793 -20.518309 -32.664968 
0.1417687500000000 -19.372442 -30.316883 -1.568477 -8.721955 -1.540556 -8.653620 -20.521238 -33.820738 
0.1492125000000000 -19.367820 -31.359336 -1.569876 -9.253614 -1.539083 -9.186743 -20.502838 -35.019153 
0.1566562500000000 -19.389100 -32.359321 -1.569944 -9.795365 -1.556515 -9.680341 -20.484001 -36.139168 
0.1641000000000000 -19.368096 -33.342852 -1.567957 -10.324892 -1.547188 -10.236263 -20.481952 -37.221074 
0.1715437500000000 -19.358711 -34.397274 -1.586448 -10.825435 -1.556374 -10.747117 -20.450039 -38.406362 
0.1789875000000000 -19.363482 -35.392226 -1.583826 -11.296762 -1.539769 -11.277176 -20.441906 -39.540857 
0.1864312500000000 -19.338025 -36.576232 -1.572952 -11.815048 -1.546544 -11.738121 -20.430961 -40.766961 
0.1938750000000000 -19.353076 -37.704163 -1.590758 -12.279852 -1.547058 -12.294243 -20.422298 -41.998638 
0.2013187500000000 -19.346627 -38.890300 -1.592927 -12.833872 -1.557724 -12.748905 -20.409506 -43.198148 
0.2087625000000000 -19.353431 -40.004035 -1.583498 -13.315125 -1.557917 -13.236565 -20.411048 -44.359930 
0.2162062500000000 -19.357588 -41.117372 -1.590282 -13.792291 -1.559896 -13.764724 -20.394883 -45.619469 
0.2236500000000000 -19.342809 -42.145967 -1.593279 -14.301672 -1.564704 -14.251546 -20.370194 -46.819528 
0.2310937500000000 -19.311227 -43.225117 -1.596757 -14.806883 -1.570842 -14.722771 -20.355692 -48.015498 
0.2385375000000000 -19.295188 -44.370122 -1.601045 -15.308596 -1.578351 -15.258980 -20.331667 -49.329745 
0.2459812500000000 -19.264770 -45.634779 -1.606941 -15.804082 -1.569684 -15.778209 -20.296653 -50.533805 
0.2534250000000000 -19.244302 -46.918592 -1.603680 -16.312277 -1.573713 -16.285106 -20.280371 -51.849620 
0.2608687500000000 -19.202828 -47.849309 -1.600386 -16.878458 -1.571110 -16.719313 -20.239243 -53.175934 
0.2683125000000000 -19.199777 -49.129099 -1.608958 -17.373481 -1.578221 -17.233312 -20.216753 -54.501658 
0.2757562500000000 -19.156961 -50.265537 -1.616008 -17.887491 -1.578724 -17.759851 -20.192777 -55.730415 
0.2832000000000000 -19.135822 -51.434131 -1.633181 -18.428277 -1.588660 -18.304163 -20.156611 -57.035191 
0.2906437500000000 -19.103001 -52.630198 -1.628090 -18.857787 -1.590192 -18.710521 -20.133679 -58.330119 
0.2980875000000000 -19.086790 -53.606645 -1.627713 -19.354640 -1.589591 -19.213155 -20.084512 -59.320501 
0.3055312500000000 -19.077978 -54.865153 -1.642389 -19.819227 -1.598158 -19.696519 -20.053670 -60.664286 
0.3129750000000000 -19.071599 -55.904098 -1.632674 -20.351060 -1.608452 -20.132678 -20.019385 -61.742861 
0.3204187500000000 -19.060050 -56.899658 -1.647080 -20.795016 -1.613183 -20.694529 -20.003869 -62.952841 
0.3278625000000000 -19.080742 -57.701170 -1.651420 -21.256748 -1.614787 -21.156192 -19.962759 -64.106526 
0.3353062500000000 -19.048822 -58.566903 -1.655676 -21.722443 -1.612167 -21.655991 -19.931194 -65.178820 
0.3427500000000000 -19.016617 -59.562755 -1.657212 -22.189647 -1.621194 -22.117986 -19.887498 -66.415837 
0.3501937500000000 -18.967705 -60.534838 -1.655573 -22.697982 -1.621747 -22.645963 -19.855281 -67.500840 
0.3576375000000000 -18.942891 -61.670015 -1.655104 -23.188316 -1.627679 -23.106376 -19.850035 -68.693657 
0.3650812500000000 -18.917022 -62.814521 -1.655963 -23.691166 -1.629396 -23.612110 -19.821260 -69.722377 
0.3725250000000000 -18.911641 -64.138644 -1.667709 -24.158679 -1.634681 -24.044992 -19.787609 -70.871004 
0.3799687500000000 -18.910169 -65.328673 -1.678742 -24.654985 -1.638432 -24.523990 -19.763619 -72.060773 
0.3874125000000000 -18.920057 -66.447092 -1.668240 -25.181504 -1.644266 -24.995321 -19.745021 -73.103565 
0.3948562500000000 -18.902565 -67.416279 -1.674231 -25.636721 -1.641521 -25.528730 -19.728643 -74.235598 
0.4023000000000000 -18.900542 -68.423524 -1.683499 -26.161632 -1.637812 -26.011723 -19.699727 -75.339503 
0.4097437500000000 -18.854691 -69.308527 -1.686735 -26.596391 -1.647670 -26.557487 -19.648914 -76.450462 
0.4171875000000000 -18.822875 -70.436300 -1.697721 -27.111750 -1.647232 -27.036740 -19.621341 -77.486399 
0.4246312500000000 -18.787663 -71.830149 -1.696086 -27.663997 -1.673649 -27.553053 -19.603846 -78.553687 
0.4320750000000000 -18.770176 -72.980396 -1.696816 -28.113879 -1.668956 -28.025493 -19.554668 -79.517977 
0.4395187500000000 -18.782884 -74.115670 -1.715005 -28.546025 -1.680937 -28.496495 -19.513278 -80.638247 
0.4469625000000000 -18.783049 -75.063315 -1.719237 -29.030590 -1.683180 -28.959572 -19.497003 -81.609986 
0.4544062500000000 -18.788941 -75.926865 -1.719022 -29.486616 -1.692464 -29.446292 -19.453033 -82.572576 
0.4618500000000000 -18.755992 -76.661549 -1.727238 -29.942271 -1.699579 -29.913420 -19.392924 -83.601288 
0.4692937500000000 -18.729490 -77.437196 -1.728433 -30.408320 -1.701736 -30.371723 -19.369013 -84.567083 
0.4767375000000000 -18.679509 -78.341758 -1.729284 -30.954974 -1.710590 -30.841435 -19.336099 -85.463703 
0.4841812500000000 -18.671884 -79.126730 -1.738202 -31.389774 -1.709427 -31.279198 -19.298392 -86.378772 
0.4916250000000000 -18.637989 -80.217909 -1.745141 -31.889825 -1.717614 -31.769578 -19.257420 -87.239902 
0.4990687500000000 -18.627836 -81.099464 -1.743122 -32.409070 -1.717981 -32.256107 -19.240646 -88.187258 
0.5065125000000000 -18.616345 -81.931045 -1.755279 -32.866770 -1.730853 -32.722276 -19.190036 -88.986498 
0.5139562500000000 -18.582277 -82.612932 -1.756917 -33.343951 -1.717961 -33.272214 -19.122818 -89.871576 
0.5214000000000000 -18.554347 -83.524113 -1.757043 -33.845614 -1.730109 -33.772928 -19.097009 -90.728865 
0.5288437500000000 -18.483965 -84.447763 -1.777568 -34.307187 -1.741641 -34.251890 -19.047357 -91.578851 
0.5362875000000000 -18.400707 -85.455437 -1.777701 -34.831534 -1.747414 -34.713677 -18.987678 -92.533492 
0.5437312500000000 -18.340524 -86.529423 -1.806030 -35.272422 -1.765306 -35.180009 -18.930053 -93.517148 
0.5511750000000000 -18.288483 -87.782916 -1.806708 -35.751647 -1.768942 -35.612430 -18.889563 -94.464790 
0.5586187500000001 -18.255135 -89.129266 -1.823432 -36.153767 -1.784585 -36.110574 -18.834526 -95.574241 
0.5660625000000000 -18.224415 -90.213787 -1.826536 -36.562637 -1.790705 -36.577651 -18.786867 -96.713610 
0.5735062500000000 -18.199351 -91.366210 -1.838624 -36.986146 -1.794846 -36.968361 -18.740946 -97.884637 
0.5809500000000000 -18.162932 -92.369374 -1.840249 -37.436563 -1.807015 -37.442578 -18.691436 -99.017878 
0.5883937500000001 -18.151596 -93.455990 -1.837026 -37.856793 -1.823250 -37.868172 -18.668867 -100.137129 
0.5958375000000000 -18.112597 -94.420689 -1.842131 -38.182116 -1.808215 -38.225673 -18.652025 -101.260017 
0.6032812500000000 -18.116529 -95.577881 -1.845758 -38.697972 -1.820657 -38.645665 -18.639296 -102.469217 
0.6107250000000000 -18.115940 -96.501074 -1.844789 -39.098470 -1.815959 -39.055287 -18.624930 -103.455241 
0.6181687500000000 -18.129166 -97.400411 -1.843971 -39.538433 -1.817344 -39.513860 -18.621801 -104.503502 
0.6256125000000000 -18.139774 -98.139584 -1.834277 -40.013785 -1.817801 -39.962060 -18.607853 -105.522610 
0.6330562500000000 -18.114761 -98.850621 -1.836320 -40.509215 -1.812688 -40.396138 -18.593921 -106.582266 
0.6405000000000000 -18.115485 -99.767758 -1.821897 -40.957080 -1.808897 -40.911235 -18.572717 -107.531805 
0.6479437500000000 -18.108977 -100.603457 -1.822271 -41.530016 -1.808228 -41.341894 -18.588631 -108.581243 
0.6553875000000000 -18.108860 -101.576098 -1.843009 -41.973393 -1.810538 -41.772690 -18.612557 -109.408832 
0.6628312500000000 -18.093296 -102.624737 -1.848263 -42.466193 -1.797943 -42.254015 -18.601284 -110.240946 
0.6702750000000000 -18.098587 -103.597158 -1.837395 -42.970842 -1.793735 -42.771117 -18.591207 -111.060452 
0.6777187500000000 -18.106238 -104.551592 -1.850284 -43.495904 -1.796247 -43.298373 -18.604950 -111.941749 
0.6851625000000000 -18.077495 -105.396305 -1.854827 -43.946797 -1.800087 -43.898641 -18.593016 -112.879094 
0.6926062500000000 -18.054282 -106.418618 -1.862628 -44.449966 -1.813445 -44.398226 -18.569675 -113.894544 
0.7000500000000000 -18.022840 -107.516751 -1.880442 -44.864895 -1.834960 -44.923637 -18.570011 -114.758176 
0.7074937500000000 -18.022586 -108.583560 -1.899231 -45.284635 -1.851292 -45.313674 -18.563241 -115.734925 
0.7149375000000000 -18.037569 -109.717047 -1.894653 -45.738151 -1.862080 -45.735383 -18.577221 -116.627288 
0.7223812500000000 -18.073488 -110.647435 -1.901634 -46.123547 -1.866223 -46.128174 -18.586393 -117.391583 
0.7298250000000000 -18.096471 -111.459123 -1.901645 -46.520717 -1.861133 -46.576466 -18.582542 -118.274843 
0.7372687500000000 -18.114086 -111.993479 -1.891246 -46.955654 -1.856187 -47.028961 -18.581574 -119.079675 
0.7447125000000000 -18.119624 -112.531311 -1.876832 -47.431562 -1.862922 -47.495142 -18.577588 -119.973425 
0.7521562500000000 -18.078785 -112.964861 -1.870531 -47.985545 -1.869530 -48.023589 -18.548613 -120.829916 
0.7596000000000001 -18.019451 -113.496075 -1.886090 -48.481751 -1.876888 -48.442704 -18.534814 -121.741153 
0.7670437500000000 -17.991969 -114.375484 -1.890324 -48.974800 -1.879476 -48.895970 -18.529208 -122.528792 
0.7744875000000000 -17.964846 -115.269687 -1.905110 -49.491045 -1.885053 -49.326602 -18.512970 -123.395329 
0.7819312500000000 -17.965083 -116.151337 -1.908188 -49.902163 -1.890664 -49.771938 -18.528074 -124.312306 
0.7893750000000001 -18.001660 -117.043429 -1.912804 -50.322501 -1.885205 -50.202214 -18.512893 -125.110764 
0.7968187500000000 -18.024749 -117.585893 -1.913205 -50.788801 -1.879354 -50.625819 -18.501427 -125.847923 
0.8042625000000000 -18.034729 -118.180466 -1.910602 -51.245598 -1.877675 -51.166299 -18.502866 -126.582181 
0.8117062500000000 -18.039258 -118.779852 -1.911511 -51.764204 -1.876122 -51.682491 -18.467361 -127.604227 
0.8191500000000000 -17.998220 -119.359934 -1.918948 -52.298310 -1.878542 -52.174519 -18.471120 -128.169168 
0.8265937500000000 -17.995080 -120.248076 -1.933409 -52.788890 -1.882018 -52.710117 -18.454078 -128.877790 
0.8340375000000000 -17.956768 -121.231882 -1.947935 -53.228569 -1.895693 -53.164902 -18.454884 -129.614429 
0.8414812500000000 -17.956592 -122.199847 -1.962495 -53.626330 -1.900762 -53.684621 -18.448202 -130.386752 
0.8489250000000000 -17.984934 -122.951725 -1.969984 -53.946178 -1.907246 -54.049646 -18.448787 -131.177154 
0.8563687500000000 -18.016809 -123.803435 -1.963187 -54.446267 -1.923350 -54.684261 -18.421207 -131.959984 
0.8638125000000000 -18.043943 -124.307134 -1.970448 -54.885406 -1.937319 -55.019975 -18.417746 -132.653683 
0.8712562500000000 -18.015590 -124.766334 -1.961406 -55.351972 -1.953624 -55.408709 -18.413170 -133.337686 
0.8787000000000000 -18.006536 -125.314694 -1.957304 -55.874940 -1.949914 -55.783643 -18.425669 -134.079404 
0.8861437500000000 -17.974177 -126.145995 -1.972579 -56.311757 -1.956344 -56.214562 -18.400790 -134.578318 
0.8935875000000000 -17.969544 -126.740823 -1.988114 -56.749523 -1.950694 -56.633499 -18.384612 -135.207880 
0.9010312500000000 -17.981715 -127.295738 -1.971375 -57.188054 -1.957263 -57.015896 -18.381543 -136.019845 
0.9084750000000000 -17.978981 -128.140203 -1.966295 -57.734992 -1.942716 -57.607973 -18.345752 -136.600897 
0.9159187500000000 -17.991600 -128.579628 -1.990542 -58.093441 -1.964023 -57.974867 -18.365888 -137.222135 
0.9233625000000000 -17.998413 -129.027676 -1.981634 -58.596986 -1.960530 -58.432694 -18.355356 -137.988857 
0.9308062500000000 -17.993334 -129.608110 -1.979946 -59.070896 -1.972817 -58.835280 -18.338663 -138.631355 
0.9382500000000000 -17.973303 -130.404363 -2.006994 -59.548194 -1.961073 -59.234679 -18.337465 -139.282028 
0.9456937500000000 -17.981864 -131.152840 -2.016057 -60.054065 -1.947842 -59.763881 -18.337026 -139.832317 
0.9531375000000000 -18.010996 -131.841853 -2.030393 -60.419511 -1.948614 -60.276290 -18.348680 -140.499637 
0.9605812500000001 -17.990278 -132.778691 -2.032022 -60.884882 -1.957441 -60.829230 -18.340233 -140.965170 
0.9680250000000000 -18.042616 -133.623094 -2.030132 -61.227528 -1.964087 -61.375719 -18.337245 -141.665475 
0.9754687500000000 -18.035577 -134.241886 -2.032401 -61.689665 -1.983642 -61.849837 -18.455589 -142.725019 
0.9829125000000000 -18.064316 -134.726679 -2.029856 -62.136834 -2.009754 -62.306430 -18.352940 -142.760159 
0.9903562500000001 -18.021202 -135.385190 -2.029722 -62.625901 -2.018151 -62.675323 -18.387915 -143.289498 
0.9978000000000000 -18.034521 -135.898545 -2.039751 -62.977060 -2.019608 -63.042258 -18.383735 -143.792794 
1.0052437500000000 -18.010543 -136.687828 -2.038825 -63.490325 -2.016672 -63.434949 -18.378119 -144.537786 
1.0126875000000000 -18.012289 -137.399201 -2.046643 -63.899142 -2.017570 -63.909428 -18.410719 -144.955342 
1.0201312499999999 -18.025311 -137.958688 -2.041637 -64.343038 -2.017312 -64.427318 -18.409728 -145.420986 
1.0275749999999999 -18.052888 -138.376327 -2.038145 -64.762985 -2.021025 -64.896593 -18.402072 -146.100131 
1.0350187500000001 -18.028381 -138.730836 -2.040603 -65.253129 -2.047560 -65.363523 -18.423623 -146.665879 
1.0424625000000001 -18.008085 -139.186470 -2.051882 -65.768818 -2.054867 -65.747807 -18.437247 -147.455431 
1.0499062500000000 -17.991262 -139.740524 -2.056305 -66.204430 -2.055793 -66.087223 -18.458772 -147.768014 
1.0573500000000000 -18.014796 -140.549811 -2.069943 -66.649019 -2.052403 -66.532430 -18.472540 -148.479455 
1.0647937500000000 -18.036763 -141.255511 -2.075232 -66.984218 -2.054506 -66.929095 -18.493621 -149.295931 
1.0722375000000000 -18.117782 -141.918189 -2.055623 -67.437907 -2.040499 -67.417050 -18.503075 -149.724357 
1.0796812499999999 -18.184239 -142.358314 -2.062663 -67.859740 -2.037399 -67.908347 -18.520936 -150.285747 
1.0871249999999999 -18.185592 -142.702299 -2.057049 -68.338073 -2.046010 -68.352690 -18.521642 -151.008601 
1.0945687500000001 -18.218623 -142.998707 -2.052853 -68.801101 -2.057151 -68.763954 -18.551694 -151.554896 
1.1020125000000001 -18.221338 -143.540791 -2.053104 -69.319787 -2.070290 -69.224738 -18.552106 -152.243442 
1.1094562500000000 -18.183847 -144.157236 -2.059411 -69.831511 -2.058837 -69.667549 -18.599115 -152.803557 
1.1169000000000000 -18.184291 -144.941005 -2.075167 -70.320035 -2.062745 -70.118427 -18.595348 -153.350135 
1.1243437500000000 -18.200040 -145.882723 -2.072500 -70.797113 -2.049383 -70.589805 -18.606651 -154.008619 
1.1317874999999999 -18.220372 -146.676391 -2.090825 -71.133851 -2.062194 -71.055341 -18.635229 -154.650443 
1.1392312499999999 -18.247929 -147.164637 -2.084141 -71.573488 -2.071571 -71.493463 -18.658998 -154.983896 
1.1466750000000001 -18.227279 -147.527432 -2.080659 -72.030172 -2.071224 -71.996680 -18.668677 -155.666070 
1.1541187500000001 -18.238413 -147.900808 -2.087415 -72.475658 -2.071150 -72.416398 -18.687081 -155.959293 
1.1615625000000001 -18.205991 -148.417300 -2.094014 -72.967619 -2.074117 -72.805701 -18.727597 -156.681182 
1.1690062500000000 -18.170027 -148.883819 -2.115910 -73.438361 -2.083406 -73.265418 -18.758542 -157.346474 
1.1764500000000000 -18.148940 -149.663852 -2.117294 -73.865816 -2.079244 -73.743974 -18.780227 -157.597241 
1.1838937500000000 -18.178267 -150.071137 -2.126808 -74.272750 -2.085301 -74.229573 -18.754373 -158.119126 
1.1913374999999999 -18.252703 -150.733771 -2.128878 -74.579694 -2.092631 -74.744686 -18.808724 -158.684083 
1.1987812499999999 -18.274894 -150.996395 -2.120989 -75.001145 -2.110826 -75.182903 -18.811716 -159.078945 
1.2062250000000001 -18.371901 -150.908967 -2.107961 -75.418317 -2.115093 -75.546636 -18.833840 -159.584877 
1.2136687500000001 -18.394769 -151.016151 -2.093692 -75.904395 -2.129260 -75.849959 -18.842772 -160.117236 
1.2211125000000000 -18.403874 -151.151188 -2.094042 -76.378248 -2.114739 -76.326762 -18.866219 -160.515601 
1.2285562500000000 -18.392415 -151.532192 -2.093405 -76.880137 -2.103241 -76.766623 -18.844328 -161.168122 
1.2360000000000000 -18.418594 -152.151603 -2.100580 -77.346555 -2.103754 -77.186548 -18.897158 -161.528523 
1.2434437500000000 -18.501382 -152.646904 -2.102065 -77.805064 -2.101340 -77.751409 -18.899190 -161.937698 
1.2508874999999999 -18.549268 -153.195916 -2.091677 -78.265557 -2.106660 -78.226803 -18.906565 -162.365229 
1.2583312499999999 -18.581628 -153.401738 -2.096547 -78.713200 -2.112975 -78.675633 -18.912514 -162.799436 
1.2657750000000001 -18.609595 -153.764772 -2.089727 -79.286344 -2.109858 -79.138640 -18.937437 -163.332801 
1.2732187500000001 -18.585256 -154.370172 -2.092918 -79.805006 -2.122700 -79.540394 -18.973492 -163.824382 
1.2806625000000000 -18.567982 -154.992617 -2.100861 -80.376588 -2.126126 -79.992406 -19.002785 -164.173716 
1.2881062500000000 -18.544031 -155.641704 -2.127652 -80.801725 -2.113540 -80.416683 -19.023872 -164.562260 
1.2955500000000000 -18.590550 -156.349023 -2.135314 -81.280186 -2.114728 -80.946546 -19.050264 -164.701069 
1.3029937500000000 -18.553344 -157.221003 -2.160508 -81.617474 -2.125259 -81.423624 -19.100895 -165.170780 
1.3104374999999999 -18.604298 -157.637985 -2.151145 -82.022582 -2.134911 -81.872743 -19.121837 -165.503791 
1.3178812499999999 -18.609526 -157.909481 -2.157917 -82.398693 -2.139741 -82.346963 -19.142452 -165.820159 
1.3253250000000001 -18.610398 -158.047786 -2.155724 -82.809657 -2.142234 -82.748703 -19.167089 -166.118847 
1.3327687500000001 -18.624954 -158.131730 -2.153152 -83.281262 -2.142778 -83.160870 -19.206022 -166.330471 
1.3402125000000000 -18.611609 -158.333493 -2.152551 -83.701126 -2.135900 -83.544499 -19.237730 -166.775649 
1.3476562500000000 -18.629732 -158.693245 -2.157428 -84.107853 -2.132793 -84.016730 -19.263771 -167.036239 
1.3551000000000000 -18.648556 -159.003864 -2.160047 -84.507160 -2.141378 -84.536967 -19.273827 -167.181829 
1.3625437499999999 -18.712102 -159.260005 -2.153315 -84.927686 -2.139465 -84.987436 -19.324720 -167.554974 
1.3699874999999999 -18.773482 -159.390197 -2.148738 -85.366349 -2.150516 -85.428314 -19.341041 -167.916841 
1.3774312500000001 -18.792687 -159.006727 -2.126349 -85.837525 -2.161755 -85.809248 -19.383430 -168.379029 
1.3848750000000001 -18.816066 -158.898399 -2.112447 -86.362736 -2.159859 -86.243945 -19.370799 -168.883440 
1.3923187500000000 -18.830139 -159.124464 -2.108532 -86.911419 -2.145179 -86.674155 -19.395907 -169.170690 
1.3997625000000000 -18.834831 -159.319131 -2.119094 -87.466240 -2.135910 -87.161379 -19.429065 -169.493248 
