!
! C:\Users\Aljaz\OneDrive - Univerza v Ljubljani\DOKTORAT\NOVI SA\Slabilec PE43711B\meritve\0dB.S2P
!
! Touchstone 1.1 file saved by VNA.EXE V1.65 (www.ke5fx.com/gpib/readme.htm)
! 2. 04. 2022 19:06:53
!
!    Source: HP8510C.07.14: Aug 26  1998 
!  Min freq: 4.500000E+007 Hz
!  Max freq: 6.000000E+009 Hz
!    Points: 801
!    Params: S11 S21 S12 S22
!
!!!!!
# GHZ S DB R 50
0.0450000000000000 -18.944129 -23.892921 -1.041025 -0.938321 -1.013926 -0.915743 -18.973959 -24.401834 
0.0524437500000000 -19.021053 -22.911425 -1.034871 -1.745491 -1.012506 -1.742965 -19.072105 -23.625438 
0.0598875000000000 -19.078135 -22.682910 -1.042469 -2.473022 -1.009515 -2.443998 -19.137145 -23.440255 
0.0673312500000000 -19.161912 -22.846269 -1.047093 -3.175455 -1.022771 -3.115344 -19.179744 -23.664458 
0.0747750000000000 -19.190011 -23.177675 -1.042001 -3.762144 -1.023997 -3.707028 -19.211563 -24.130091 
0.0822187500000000 -19.233337 -23.522812 -1.040743 -4.326742 -1.015854 -4.278861 -19.238803 -24.591108 
0.0896625000000000 -19.234038 -24.209770 -1.036575 -4.911714 -1.018898 -4.866185 -19.254515 -25.351234 
0.0971062500000000 -19.229903 -24.824036 -1.044634 -5.480624 -1.020932 -5.439962 -19.248311 -26.115041 
0.1045500000000000 -19.212477 -25.649068 -1.043326 -6.056479 -1.019502 -6.025990 -19.255228 -27.027981 
0.1119937500000000 -19.214938 -26.523973 -1.046086 -6.641857 -1.019923 -6.574279 -19.236846 -27.938481 
0.1194375000000000 -19.197348 -27.528460 -1.049471 -7.163197 -1.024874 -7.126968 -19.242521 -28.954015 
0.1268812500000000 -19.191160 -28.608392 -1.045112 -7.718448 -1.031013 -7.656188 -19.244773 -30.046591 
0.1343250000000000 -19.192146 -29.656202 -1.052684 -8.229474 -1.026317 -8.234185 -19.251813 -31.067958 
0.1417687500000000 -19.213098 -30.719303 -1.055061 -8.778739 -1.045621 -8.703280 -19.229693 -32.104395 
0.1492125000000000 -19.216404 -31.727218 -1.064045 -9.262171 -1.043231 -9.257790 -19.224733 -33.288101 
0.1566562500000000 -19.226084 -32.764539 -1.063922 -9.827204 -1.044581 -9.777111 -19.203866 -34.407459 
0.1641000000000000 -19.198926 -33.740370 -1.066073 -10.323589 -1.054688 -10.283835 -19.213420 -35.439510 
0.1715437500000000 -19.191455 -34.876518 -1.075185 -10.841874 -1.052527 -10.771097 -19.201443 -36.690069 
0.1789875000000000 -19.189835 -35.848053 -1.076298 -11.339435 -1.049038 -11.311478 -19.190291 -37.833249 
0.1864312500000000 -19.186189 -37.112702 -1.071750 -11.840267 -1.058751 -11.757734 -19.162123 -39.020599 
0.1938750000000000 -19.184425 -38.212322 -1.076951 -12.341386 -1.056126 -12.303282 -19.172875 -40.156428 
0.2013187500000000 -19.182948 -39.414825 -1.087295 -12.835536 -1.064831 -12.755204 -19.151719 -41.325037 
0.2087625000000000 -19.191888 -40.463697 -1.081110 -13.369106 -1.059698 -13.313251 -19.148075 -42.555728 
0.2162062500000000 -19.176536 -41.607455 -1.075372 -13.812096 -1.063221 -13.798512 -19.146763 -43.772723 
0.2236500000000000 -19.168892 -42.649663 -1.095967 -14.385531 -1.066543 -14.305238 -19.130506 -44.977626 
0.2310937500000000 -19.143567 -43.705938 -1.087498 -14.827891 -1.078108 -14.752130 -19.118472 -46.118539 
0.2385375000000000 -19.115249 -44.913459 -1.096561 -15.345069 -1.079941 -15.302699 -19.105669 -47.376539 
0.2459812500000000 -19.098474 -46.157772 -1.089424 -15.838394 -1.073836 -15.838039 -19.079648 -48.672412 
0.2534250000000000 -19.079186 -47.355387 -1.089468 -16.352182 -1.074317 -16.327007 -19.066348 -49.849859 
0.2608687500000000 -19.058838 -48.855402 -1.098508 -16.887398 -1.076247 -16.770522 -19.048571 -51.141030 
0.2683125000000000 -19.063815 -49.979355 -1.111895 -17.442583 -1.079667 -17.311624 -19.013672 -52.432005 
0.2757562500000000 -19.032399 -51.264462 -1.108287 -17.929255 -1.084785 -17.795922 -18.996698 -53.694027 
0.2832000000000000 -19.014054 -52.326603 -1.115770 -18.466388 -1.089684 -18.348441 -18.979478 -54.946685 
0.2906437500000000 -18.989014 -53.569402 -1.122933 -18.891786 -1.088065 -18.827907 -18.958376 -56.108838 
0.2980875000000000 -18.965347 -54.482168 -1.117157 -19.419738 -1.095723 -19.306898 -18.924363 -57.261178 
0.3055312500000000 -18.950666 -55.640016 -1.128138 -19.914724 -1.104714 -19.751196 -18.900710 -58.529259 
0.3129750000000000 -18.941073 -56.749427 -1.133789 -20.356909 -1.112983 -20.200124 -18.871314 -59.615907 
0.3204187500000000 -18.923722 -57.746954 -1.142830 -20.832891 -1.118263 -20.726664 -18.854785 -60.732723 
0.3278625000000000 -18.911946 -58.795490 -1.140632 -21.286743 -1.127397 -21.175871 -18.829039 -61.904921 
0.3353062500000000 -18.882248 -59.678273 -1.149517 -21.758041 -1.112100 -21.672614 -18.793588 -63.086152 
0.3427500000000000 -18.852138 -60.799563 -1.151757 -22.222567 -1.127297 -22.158903 -18.768146 -64.184797 
0.3501937500000000 -18.830810 -61.773002 -1.138064 -22.722754 -1.131406 -22.667669 -18.737537 -65.359901 
0.3576375000000000 -18.806439 -63.034530 -1.153455 -23.199115 -1.136612 -23.134212 -18.747706 -66.564127 
0.3650812500000000 -18.781748 -64.139236 -1.154209 -23.719373 -1.140708 -23.654155 -18.732509 -67.569317 
0.3725250000000000 -18.784508 -65.298914 -1.153971 -24.238856 -1.144660 -24.053838 -18.700788 -68.667253 
0.3799687500000000 -18.771631 -66.437656 -1.170327 -24.639177 -1.142667 -24.557845 -18.686565 -69.896985 
0.3874125000000000 -18.770015 -67.444336 -1.170453 -25.160125 -1.144772 -25.003636 -18.653335 -70.851197 
0.3948562500000000 -18.752255 -68.540312 -1.164588 -25.688740 -1.143045 -25.523198 -18.649762 -71.960882 
0.4023000000000000 -18.753332 -69.494710 -1.173422 -26.190909 -1.139023 -26.072914 -18.627021 -73.173309 
0.4097437500000000 -18.713068 -70.454068 -1.178069 -26.677890 -1.151516 -26.585589 -18.609595 -74.242118 
0.4171875000000000 -18.703861 -71.485270 -1.182215 -27.172540 -1.153326 -27.083891 -18.566345 -75.265306 
0.4246312500000000 -18.677613 -72.710702 -1.187470 -27.671429 -1.174869 -27.562380 -18.547049 -76.355255 
0.4320750000000000 -18.666470 -73.780882 -1.195974 -28.148270 -1.167433 -28.084018 -18.505331 -77.342057 
0.4395187500000000 -18.684179 -74.827917 -1.213095 -28.560716 -1.186978 -28.528712 -18.486450 -78.444120 
0.4469625000000000 -18.662821 -75.822870 -1.216408 -29.038587 -1.188638 -28.992094 -18.460828 -79.433652 
0.4544062500000000 -18.654710 -76.757449 -1.219558 -29.495306 -1.190869 -29.466779 -18.432266 -80.410183 
0.4618500000000000 -18.626989 -77.613689 -1.220928 -29.982511 -1.202883 -29.939422 -18.397231 -81.373081 
0.4692937500000000 -18.610624 -78.490257 -1.226898 -30.427054 -1.207732 -30.376200 -18.366247 -82.353420 
0.4767375000000000 -18.571358 -79.323168 -1.229268 -30.937498 -1.210164 -30.873787 -18.343696 -83.347252 
0.4841812500000000 -18.558989 -80.271643 -1.239910 -31.359106 -1.217332 -31.313229 -18.315000 -84.314487 
0.4916250000000000 -18.524566 -81.222292 -1.240670 -31.885656 -1.223190 -31.761927 -18.291087 -85.170312 
0.4990687500000000 -18.519303 -82.185023 -1.237203 -32.407174 -1.222575 -32.250743 -18.262935 -86.079748 
0.5065125000000000 -18.493390 -83.103363 -1.256580 -32.836485 -1.231911 -32.738859 -18.225652 -86.946285 
0.5139562500000000 -18.457949 -83.783698 -1.252169 -33.306914 -1.228389 -33.273884 -18.183478 -87.830866 
0.5214000000000000 -18.427901 -84.855440 -1.252178 -33.796499 -1.239628 -33.760543 -18.151821 -88.639477 
0.5288437500000000 -18.357572 -85.777372 -1.267215 -34.324716 -1.248415 -34.284147 -18.104679 -89.641532 
0.5362875000000000 -18.288183 -86.667157 -1.271114 -34.836480 -1.256617 -34.701156 -18.053898 -90.604459 
0.5437312500000000 -18.235593 -87.837442 -1.294205 -35.265186 -1.265762 -35.197178 -17.996251 -91.558567 
0.5511750000000000 -18.187577 -88.903582 -1.301045 -35.743800 -1.285535 -35.625355 -17.973591 -92.538252 
0.5586187500000001 -18.150480 -90.174883 -1.321519 -36.180943 -1.286119 -36.128594 -17.928888 -93.697909 
0.5660625000000000 -18.122031 -91.234342 -1.324993 -36.572133 -1.297791 -36.558041 -17.891790 -94.810070 
0.5735062500000000 -18.099173 -92.387185 -1.340231 -36.995986 -1.302953 -36.984067 -17.841913 -95.967443 
0.5809500000000000 -18.070431 -93.511484 -1.344992 -37.416993 -1.313843 -37.423986 -17.807338 -97.146919 
0.5883937500000001 -18.048274 -94.585896 -1.338621 -37.845820 -1.321309 -37.873198 -17.805155 -98.313515 
0.5958375000000000 -18.027850 -95.570042 -1.343805 -38.159979 -1.320232 -38.219193 -17.787191 -99.362635 
0.6032812500000000 -18.026543 -96.693657 -1.339062 -38.682111 -1.330567 -38.673813 -17.773415 -100.601368 
0.6107250000000000 -18.026936 -97.727912 -1.341627 -39.083666 -1.318967 -39.067304 -17.774084 -101.581279 
0.6181687500000000 -18.029908 -98.608810 -1.340433 -39.528143 -1.321997 -39.528202 -17.760149 -102.591824 
0.6256125000000000 -18.047382 -99.503070 -1.334405 -39.961944 -1.319689 -39.976270 -17.765304 -103.637049 
0.6330562500000000 -18.031014 -100.245470 -1.339282 -40.467202 -1.313643 -40.430093 -17.763690 -104.700916 
0.6405000000000000 -18.033627 -101.167403 -1.327915 -40.910891 -1.314680 -40.961834 -17.748143 -105.684084 
0.6479437500000000 -18.036198 -102.021457 -1.314471 -41.534209 -1.314442 -41.368482 -17.761687 -106.731283 
0.6553875000000000 -18.019495 -102.992524 -1.337120 -41.954165 -1.309887 -41.806773 -17.769270 -107.549582 
0.6628312500000000 -18.022402 -103.950970 -1.345279 -42.465805 -1.306609 -42.249766 -17.781825 -108.449942 
0.6702750000000000 -18.021069 -104.913812 -1.344547 -42.919613 -1.305631 -42.762111 -17.776184 -109.378280 
0.6777187500000000 -18.013314 -105.930109 -1.346374 -43.488273 -1.298718 -43.319873 -17.784822 -110.170491 
0.6851625000000000 -18.009831 -106.744034 -1.358634 -43.935878 -1.308726 -43.910345 -17.778918 -111.100212 
0.6926062500000000 -17.978437 -107.733393 -1.369293 -44.392032 -1.327233 -44.374798 -17.766114 -112.045260 
0.7000500000000000 -17.961429 -108.774922 -1.376786 -44.869610 -1.341730 -44.922080 -17.769882 -113.021872 
0.7074937500000000 -17.974783 -109.780640 -1.390979 -45.297483 -1.355393 -45.322280 -17.776154 -113.995301 
0.7149375000000000 -17.987855 -110.845204 -1.397699 -45.705811 -1.367494 -45.754017 -17.776441 -114.882679 
0.7223812500000000 -18.028927 -111.705994 -1.401099 -46.121647 -1.369799 -46.146577 -17.790242 -115.708598 
0.7298250000000000 -18.025454 -112.570974 -1.405787 -46.487208 -1.369585 -46.572249 -17.795001 -116.511212 
0.7372687500000000 -18.045060 -113.183688 -1.396908 -46.895368 -1.367437 -47.023607 -17.788450 -117.451651 
0.7447125000000000 -18.063119 -113.799303 -1.383535 -47.355279 -1.371136 -47.472195 -17.783923 -118.344348 
0.7521562500000000 -18.031335 -114.290669 -1.369823 -47.903681 -1.369030 -47.977333 -17.779534 -119.160798 
0.7596000000000001 -17.996496 -114.975369 -1.386404 -48.443793 -1.382115 -48.455164 -17.755570 -120.068364 
0.7670437500000000 -17.975715 -115.817884 -1.390897 -48.931259 -1.388129 -48.879110 -17.751497 -120.951613 
0.7744875000000000 -17.944807 -116.642204 -1.399961 -49.446615 -1.391411 -49.308326 -17.761014 -121.840322 
0.7819312500000000 -17.959048 -117.524099 -1.405249 -49.894127 -1.390206 -49.757493 -17.757702 -122.725386 
0.7893750000000001 -17.970173 -118.436332 -1.416132 -50.300626 -1.386636 -50.195218 -17.751955 -123.549222 
0.7968187500000000 -18.003247 -119.026424 -1.409699 -50.783236 -1.381186 -50.650593 -17.753326 -124.258747 
0.8042625000000000 -18.006933 -119.705865 -1.409356 -51.208508 -1.383259 -51.125645 -17.758856 -125.022591 
0.8117062500000000 -18.015318 -120.326048 -1.412754 -51.708733 -1.386697 -51.640355 -17.719030 -126.016997 
0.8191500000000000 -17.966791 -120.975019 -1.417125 -52.240016 -1.384525 -52.133827 -17.726077 -126.620915 
0.8265937500000000 -17.961217 -121.847995 -1.434052 -52.764640 -1.389230 -52.671723 -17.713781 -127.384952 
0.8340375000000000 -17.933099 -122.608224 -1.442670 -53.189560 -1.403019 -53.135857 -17.723573 -128.138721 
0.8414812500000000 -17.953694 -123.546860 -1.456181 -53.586652 -1.412026 -53.639879 -17.709023 -128.994914 
0.8489250000000000 -17.974068 -124.436142 -1.467812 -53.915239 -1.418798 -54.025300 -17.718957 -129.796531 
0.8563687500000000 -17.994079 -125.358594 -1.479337 -54.391953 -1.430123 -54.631031 -17.716773 -130.620614 
0.8638125000000000 -18.000896 -125.856179 -1.468459 -54.798827 -1.448609 -54.979378 -17.702917 -131.261526 
0.8712562500000000 -18.015306 -126.409693 -1.464391 -55.269768 -1.450870 -55.424428 -17.720703 -131.979087 
0.8787000000000000 -18.013152 -127.163387 -1.471592 -55.814717 -1.456773 -55.796061 -17.722271 -132.746267 
0.8861437500000000 -18.010344 -127.971638 -1.466945 -56.232418 -1.469641 -56.218035 -17.689482 -133.290486 
0.8935875000000000 -18.011869 -128.737731 -1.492271 -56.721095 -1.460639 -56.630094 -17.689625 -134.044034 
0.9010312500000000 -18.023546 -129.148915 -1.476210 -57.109496 -1.461283 -56.995647 -17.699583 -134.796025 
0.9084750000000000 -18.009412 -130.058367 -1.469799 -57.650635 -1.469890 -57.547231 -17.659343 -135.473354 
0.9159187500000000 -18.036592 -130.637794 -1.484868 -58.077740 -1.476346 -57.956393 -17.666674 -136.085784 
0.9233625000000000 -18.031124 -131.187729 -1.480866 -58.552251 -1.474827 -58.404034 -17.659625 -136.878437 
0.9308062500000000 -18.037018 -131.869410 -1.484625 -58.993195 -1.477943 -58.835749 -17.649232 -137.578257 
0.9382500000000000 -18.031465 -132.650987 -1.498974 -59.497371 -1.467059 -59.243592 -17.657058 -138.130017 
0.9456937500000000 -18.050399 -133.325407 -1.515494 -59.956357 -1.466870 -59.751312 -17.665321 -138.828845 
0.9531375000000000 -18.033113 -133.920422 -1.525630 -60.340690 -1.457320 -60.313087 -17.671162 -139.427532 
0.9605812500000001 -18.027230 -134.673656 -1.530725 -60.807657 -1.473516 -60.797086 -17.662677 -139.991930 
0.9680250000000000 -18.059678 -135.423984 -1.534173 -61.188570 -1.477115 -61.401780 -17.678155 -140.678108 
0.9754687500000000 -18.050712 -136.137344 -1.530284 -61.594588 -1.501120 -61.825795 -17.805747 -141.796249 
0.9829125000000000 -18.064770 -136.601889 -1.524859 -62.084312 -1.513109 -62.290024 -17.697495 -141.829859 
0.9903562500000001 -18.050440 -137.147786 -1.532407 -62.529124 -1.528834 -62.637672 -17.745275 -142.404796 
0.9978000000000000 -18.062313 -137.640798 -1.550268 -62.917082 -1.533540 -63.013244 -17.729749 -142.872938 
1.0052437500000000 -18.053128 -138.328164 -1.544530 -63.397583 -1.537029 -63.424682 -17.733367 -143.557090 
1.0126875000000000 -18.080179 -139.023911 -1.554684 -63.814660 -1.529520 -63.907751 -17.771976 -144.056547 
1.0201312499999999 -18.079490 -139.626185 -1.550514 -64.221134 -1.525788 -64.387629 -17.771311 -144.578106 
1.0275749999999999 -18.118211 -140.081537 -1.541166 -64.648959 -1.539035 -64.854095 -17.780893 -145.244999 
1.0350187500000001 -18.115289 -140.518352 -1.545488 -65.143003 -1.556384 -65.268687 -17.806349 -145.906833 
1.0424625000000001 -18.130272 -141.085321 -1.557293 -65.654551 -1.575092 -65.695695 -17.811467 -146.574734 
1.0499062500000000 -18.128108 -141.586467 -1.561190 -66.064926 -1.568732 -66.042830 -17.844476 -147.085146 
1.0573500000000000 -18.148554 -142.441314 -1.574657 -66.538292 -1.563464 -66.463041 -17.854339 -147.699811 
1.0647937500000000 -18.166221 -143.058961 -1.575190 -66.917836 -1.563394 -66.900909 -17.878941 -148.527097 
1.0722375000000000 -18.227157 -143.716077 -1.567839 -67.293137 -1.555056 -67.319324 -17.886544 -149.039475 
1.0796812499999999 -18.269265 -144.311395 -1.563307 -67.713458 -1.556362 -67.822603 -17.930514 -149.660384 
1.0871249999999999 -18.268083 -144.747902 -1.562086 -68.206755 -1.558896 -68.278235 -17.902903 -150.363077 
1.0945687500000001 -18.308949 -145.106872 -1.553780 -68.671540 -1.569936 -68.708598 -17.938915 -150.940043 
1.1020125000000001 -18.317739 -145.822968 -1.546078 -69.208483 -1.581629 -69.159638 -17.960648 -151.581949 
1.1094562500000000 -18.295442 -146.368206 -1.561352 -69.697722 -1.572293 -69.597240 -17.997798 -152.191332 
1.1169000000000000 -18.307566 -147.089683 -1.571114 -70.222568 -1.573990 -70.053067 -18.007345 -152.747989 
1.1243437500000000 -18.322807 -147.809349 -1.585578 -70.615960 -1.568497 -70.542304 -18.021265 -153.564939 
1.1317874999999999 -18.333501 -148.493561 -1.591918 -71.023761 -1.580127 -70.946222 -18.042590 -154.084115 
1.1392312499999999 -18.355422 -148.887662 -1.593593 -71.434855 -1.582628 -71.450276 -18.061413 -154.543804 
1.1466750000000001 -18.351300 -149.253878 -1.587008 -71.918185 -1.589718 -71.925599 -18.088915 -155.106765 
1.1541187500000001 -18.378603 -149.698394 -1.596851 -72.387105 -1.588135 -72.317233 -18.112544 -155.441059 
1.1615625000000001 -18.389996 -150.197909 -1.596796 -72.871621 -1.588602 -72.760821 -18.146571 -156.238481 
1.1690062500000000 -18.358072 -150.638412 -1.608059 -73.347914 -1.603652 -73.207286 -18.177061 -156.839557 
1.1764500000000000 -18.355682 -151.243177 -1.626317 -73.808703 -1.589445 -73.673617 -18.210450 -157.135625 
1.1838937500000000 -18.397337 -151.630311 -1.635048 -74.108237 -1.602744 -74.175344 -18.182221 -157.630661 
1.1913374999999999 -18.443920 -152.214052 -1.638942 -74.440964 -1.610152 -74.640030 -18.262052 -158.314880 
1.1987812499999999 -18.468983 -152.521990 -1.626281 -74.862132 -1.619442 -75.092467 -18.260919 -158.671675 
1.2062250000000001 -18.569766 -152.546164 -1.613155 -75.273370 -1.628973 -75.422516 -18.265454 -159.298564 
1.2136687500000001 -18.573680 -152.806234 -1.598476 -75.730793 -1.631728 -75.798983 -18.281746 -159.770979 
1.2211125000000000 -18.601185 -153.157860 -1.598843 -76.226298 -1.625159 -76.227098 -18.305433 -160.253025 
1.2285562500000000 -18.592833 -153.483168 -1.599102 -76.682088 -1.619664 -76.652104 -18.303231 -160.893049 
1.2360000000000000 -18.638207 -154.048298 -1.592079 -77.236326 -1.607770 -77.141644 -18.333622 -161.210763 
1.2434437500000000 -18.695798 -154.587445 -1.599902 -77.681194 -1.607396 -77.631626 -18.338230 -161.773399 
1.2508874999999999 -18.730515 -155.083729 -1.598358 -78.104737 -1.609670 -78.142778 -18.367952 -162.124087 
1.2583312499999999 -18.745346 -155.363315 -1.584690 -78.603645 -1.623142 -78.595404 -18.384794 -162.623343 
1.2657750000000001 -18.805956 -155.696517 -1.588208 -79.112492 -1.625262 -79.024574 -18.408329 -163.102235 
1.2732187500000001 -18.791997 -156.167083 -1.600903 -79.650397 -1.630848 -79.421171 -18.450726 -163.559276 
1.2806625000000000 -18.800933 -156.730905 -1.602434 -80.212378 -1.634472 -79.892992 -18.472165 -163.992916 
1.2881062500000000 -18.798458 -157.228028 -1.629384 -80.633040 -1.624681 -80.370972 -18.501118 -164.391128 
1.2955500000000000 -18.869570 -157.821946 -1.638734 -81.151090 -1.624683 -80.862425 -18.534636 -164.609012 
1.3029937500000000 -18.821489 -158.403065 -1.660452 -81.501369 -1.643345 -81.306680 -18.579167 -165.070253 
1.3104374999999999 -18.874463 -158.732692 -1.672757 -81.851313 -1.640092 -81.809569 -18.610664 -165.376936 
1.3178812499999999 -18.856015 -158.997698 -1.665558 -82.215278 -1.653548 -82.198350 -18.629564 -165.733769 
1.3253250000000001 -18.885892 -159.201840 -1.652286 -82.632598 -1.656107 -82.580266 -18.678430 -165.963303 
1.3327687500000001 -18.894896 -159.238969 -1.661313 -83.055911 -1.648004 -83.017616 -18.700917 -166.257716 
1.3402125000000000 -18.918149 -159.553947 -1.654370 -83.536464 -1.645312 -83.460281 -18.738635 -166.678951 
1.3476562500000000 -18.951973 -159.788816 -1.658152 -83.978589 -1.641657 -83.934826 -18.759202 -166.967892 
1.3551000000000000 -18.974672 -160.091396 -1.654982 -84.378453 -1.648393 -84.433704 -18.803293 -167.199364 
1.3625437499999999 -19.029695 -160.474628 -1.656060 -84.743316 -1.663470 -84.860020 -18.824801 -167.624844 
1.3699874999999999 -19.058808 -160.547895 -1.649321 -85.178247 -1.658425 -85.313338 -18.859118 -167.910462 
1.3774312500000001 -19.081768 -160.293935 -1.623780 -85.666126 -1.673651 -85.670886 -18.887655 -168.473223 
1.3848750000000001 -19.112083 -160.379364 -1.617698 -86.169674 -1.663820 -86.098303 -18.889004 -168.949941 
1.3923187500000000 -19.135382 -160.689699 -1.611417 -86.689165 -1.654616 -86.539132 -18.920353 -169.208301 
1.3997625000000000 -19.153319 -161.042776 -1.620160 -87.306159 -1.647080 -87.009983 -18.956965 -169.540849 
