!
! C:\Users\Aljaz\OneDrive - Univerza v Ljubljani\DOKTORAT\NOVI SA\Slabilec PE43711B\meritve\10dB.S2P
!
! Touchstone 1.1 file saved by VNA.EXE V1.65 (www.ke5fx.com/gpib/readme.htm)
! 2. 04. 2022 19:18:26
!
!    Source: HP8510C.07.14: Aug 26  1998 
!  Min freq: 4.500000E+007 Hz
!  Max freq: 6.000000E+009 Hz
!    Points: 801
!    Params: S11 S21 S12 S22
!
!!!!!
# GHZ S DB R 50
0.0450000000000000 -22.870201 -22.283186 -11.111427 -0.207380 -11.015237 -0.251712 -18.369094 -170.388471 
0.0524437500000000 -22.964679 -21.528483 -11.099478 -1.076315 -11.021766 -1.088497 -18.440646 -172.710960 
0.0598875000000000 -23.025987 -21.266057 -11.112925 -1.797856 -11.026039 -1.817309 -18.457188 -174.411590 
0.0673312500000000 -23.104194 -21.518258 -11.113226 -2.499237 -11.037544 -2.455716 -18.496033 -175.969258 
0.0747750000000000 -23.153730 -22.009737 -11.111638 -3.099662 -11.044778 -3.082113 -18.497822 -177.182215 
0.0822187500000000 -23.161988 -22.548488 -11.104033 -3.631566 -11.054875 -3.698620 -18.521774 -178.288866 
0.0896625000000000 -23.148403 -23.261268 -11.117571 -4.254980 -11.048269 -4.236745 -18.530173 -179.378088 
0.0971062500000000 -23.142352 -24.117990 -11.109788 -4.859380 -11.052644 -4.783598 -18.535808 179.615903 
0.1045500000000000 -23.110739 -24.862938 -11.127678 -5.375113 -11.045424 -5.355626 -18.549048 178.744144 
0.1119937500000000 -23.084910 -25.756352 -11.112834 -5.978568 -11.049815 -5.919508 -18.567649 177.931176 
0.1194375000000000 -23.073312 -26.576188 -11.117830 -6.459639 -11.048505 -6.489686 -18.594277 177.061377 
0.1268812500000000 -23.050342 -27.579562 -11.126937 -6.919650 -11.056884 -7.005352 -18.599093 176.321909 
0.1343250000000000 -22.978433 -28.509440 -11.120394 -7.462870 -11.046771 -7.528487 -18.626678 175.520722 
0.1417687500000000 -22.954313 -29.303382 -11.123178 -7.982827 -11.068722 -8.014693 -18.642148 174.820462 
0.1492125000000000 -22.951594 -30.237651 -11.121237 -8.467312 -11.067316 -8.534627 -18.647235 174.046899 
0.1566562500000000 -22.935063 -31.008951 -11.130104 -8.998487 -11.075210 -9.017355 -18.665522 173.315788 
0.1641000000000000 -22.919325 -31.952369 -11.118232 -9.479892 -11.070701 -9.567203 -18.672555 172.518289 
0.1715437500000000 -22.878004 -32.803911 -11.132034 -10.009624 -11.079310 -10.046966 -18.693077 171.807672 
0.1789875000000000 -22.880104 -33.833218 -11.134115 -10.482636 -11.077610 -10.563513 -18.695963 171.135424 
0.1864312500000000 -22.889772 -34.756267 -11.125324 -10.974803 -11.091496 -11.068934 -18.697216 170.434691 
0.1938750000000000 -22.885884 -35.779601 -11.130317 -11.440243 -11.080034 -11.558601 -18.710423 169.677793 
0.2013187500000000 -22.874530 -36.858336 -11.135225 -11.951943 -11.090494 -12.040252 -18.712372 169.061869 
0.2087625000000000 -22.870895 -38.062664 -11.135656 -12.445763 -11.091943 -12.526758 -18.713730 168.402860 
0.2162062500000000 -22.858138 -39.144835 -11.133685 -12.933692 -11.090454 -13.009886 -18.708197 167.728818 
0.2236500000000000 -22.838515 -40.323378 -11.149287 -13.420852 -11.093852 -13.475727 -18.715223 167.131562 
0.2310937500000000 -22.815880 -41.420936 -11.146875 -13.939831 -11.106134 -13.925039 -18.713279 166.482125 
0.2385375000000000 -22.809239 -42.638371 -11.157378 -14.413163 -11.100509 -14.443435 -18.710372 165.937714 
0.2459812500000000 -22.775372 -43.780945 -11.157725 -14.854508 -11.096164 -14.948384 -18.718700 165.361348 
0.2534250000000000 -22.728592 -44.897374 -11.161755 -15.326351 -11.101534 -15.452215 -18.719627 164.783919 
0.2608687500000000 -22.666629 -45.581950 -11.157114 -15.836061 -11.082359 -15.765151 -18.735769 164.249013 
0.2683125000000000 -22.644599 -46.709176 -11.162707 -16.346548 -11.089848 -16.251940 -18.734118 163.745006 
0.2757562500000000 -22.560114 -47.754935 -11.164288 -16.755265 -11.097528 -16.754224 -18.761214 163.236140 
0.2832000000000000 -22.514628 -48.857195 -11.174566 -17.268865 -11.102086 -17.288485 -18.767146 162.627200 
0.2906437500000000 -22.471233 -49.946337 -11.177002 -17.692080 -11.105512 -17.697181 -18.782421 162.123175 
0.2980875000000000 -22.428326 -50.749237 -11.173244 -18.179768 -11.106459 -18.197615 -18.792034 161.644435 
0.3055312500000000 -22.373396 -51.789698 -11.179032 -18.656259 -11.115660 -18.651666 -18.803265 161.113392 
0.3129750000000000 -22.309013 -52.570392 -11.173791 -19.109472 -11.124790 -19.097720 -18.859047 160.583147 
0.3204187500000000 -22.264009 -53.588487 -11.185512 -19.596479 -11.132356 -19.592382 -18.853543 159.881557 
0.3278625000000000 -22.236318 -54.421239 -11.189640 -20.081438 -11.131329 -20.038536 -18.877209 159.430919 
0.3353062500000000 -22.171663 -55.293308 -11.191342 -20.589437 -11.130900 -20.527670 -18.895526 158.723982 
0.3427500000000000 -22.137931 -56.321565 -11.195647 -21.041385 -11.131483 -20.997257 -18.926811 158.332019 
0.3501937500000000 -22.102886 -57.329350 -11.193812 -21.526934 -11.135179 -21.439260 -18.939628 157.628486 
0.3576375000000000 -22.098713 -58.379008 -11.202732 -21.936437 -11.144903 -21.960150 -18.960516 157.018856 
0.3650812500000000 -22.056360 -59.339269 -11.202964 -22.420553 -11.148230 -22.432474 -18.990408 156.333081 
0.3725250000000000 -22.030556 -60.502058 -11.206154 -22.873261 -11.147322 -22.905276 -19.006504 155.889853 
0.3799687500000000 -22.025819 -61.372143 -11.223053 -23.300973 -11.151250 -23.310916 -19.008672 155.135652 
0.3874125000000000 -21.998775 -62.382920 -11.215667 -23.810728 -11.153324 -23.785214 -19.011103 154.641382 
0.3948562500000000 -21.953534 -63.365184 -11.218314 -24.271263 -11.154428 -24.303614 -19.017814 154.053002 
0.4023000000000000 -21.933288 -64.371600 -11.221679 -24.751693 -11.148740 -24.758386 -19.047606 153.351733 
0.4097437500000000 -21.873571 -65.370889 -11.229011 -25.183318 -11.156332 -25.248527 -19.057822 152.869286 
0.4171875000000000 -21.856219 -66.401616 -11.229429 -25.637739 -11.158985 -25.729288 -19.072053 152.372005 
0.4246312500000000 -21.809069 -67.315326 -11.226267 -26.085911 -11.174003 -26.215464 -19.106069 151.774167 
0.4320750000000000 -21.736254 -68.381987 -11.216971 -26.557939 -11.176939 -26.684690 -19.121115 151.352336 
0.4395187500000000 -21.723098 -69.145421 -11.228564 -27.020814 -11.181625 -27.169233 -19.160839 150.693483 
0.4469625000000000 -21.665056 -70.067107 -11.224738 -27.511094 -11.182310 -27.597874 -19.186202 150.214881 
0.4544062500000000 -21.611533 -70.783712 -11.230997 -27.993405 -11.182507 -28.107325 -19.235967 149.579314 
0.4618500000000000 -21.560270 -71.580768 -11.236415 -28.479197 -11.196917 -28.565639 -19.252845 149.173476 
0.4692937500000000 -21.521360 -72.377847 -11.243951 -28.942735 -11.199796 -28.976148 -19.297190 148.630732 
0.4767375000000000 -21.477380 -73.071946 -11.239274 -29.471778 -11.204670 -29.490791 -19.336002 148.014576 
0.4841812500000000 -21.428193 -73.858204 -11.256892 -29.909159 -11.220354 -29.902942 -19.374873 147.406041 
0.4916250000000000 -21.381300 -74.703304 -11.266547 -30.400914 -11.220603 -30.378516 -19.434416 146.799537 
0.4990687500000000 -21.368457 -75.449306 -11.264092 -30.889456 -11.216655 -30.847313 -19.477716 146.248857 
0.5065125000000000 -21.332028 -76.197346 -11.275138 -31.344558 -11.234957 -31.282417 -19.536196 145.654216 
0.5139562500000000 -21.280275 -76.877239 -11.282847 -31.766757 -11.223400 -31.781200 -19.571808 145.171947 
0.5214000000000000 -21.246995 -77.637033 -11.284950 -32.255452 -11.243542 -32.241934 -19.640970 144.654917 
0.5288437500000000 -21.192563 -78.530259 -11.308846 -32.671498 -11.244604 -32.747598 -19.697647 144.183074 
0.5362875000000000 -21.097998 -79.355970 -11.312331 -33.103669 -11.252840 -33.147971 -19.744267 143.731560 
0.5437312500000000 -21.026081 -80.219430 -11.333427 -33.460758 -11.262963 -33.612924 -19.819172 143.385266 
0.5511750000000000 -20.964016 -81.225059 -11.320179 -33.876638 -11.267233 -34.053383 -19.853344 142.924222 
0.5586187500000001 -20.901609 -82.251212 -11.333000 -34.303327 -11.276653 -34.521885 -19.886554 142.625287 
0.5660625000000000 -20.818364 -83.129373 -11.330500 -34.657551 -11.280563 -34.956849 -19.914742 142.299846 
0.5735062500000000 -20.752927 -84.207579 -11.331900 -35.131546 -11.286814 -35.360269 -19.931869 141.926452 
0.5809500000000000 -20.707586 -85.121362 -11.328056 -35.573813 -11.292590 -35.748214 -19.956342 141.675073 
0.5883937500000001 -20.641178 -86.079018 -11.327126 -36.020157 -11.307097 -36.198553 -19.973588 141.244905 
0.5958375000000000 -20.576495 -86.983287 -11.326191 -36.336859 -11.299051 -36.568406 -19.967365 140.751194 
0.6032812500000000 -20.555604 -87.865193 -11.323444 -36.860892 -11.308895 -36.977887 -19.986675 140.298928 
0.6107250000000000 -20.495265 -88.794364 -11.325524 -37.272778 -11.302581 -37.410158 -19.998095 139.797134 
0.6181687500000000 -20.468988 -89.633196 -11.326811 -37.729914 -11.296907 -37.819088 -20.001938 139.241022 
0.6256125000000000 -20.432392 -90.312424 -11.323357 -38.224851 -11.299333 -38.288239 -20.005472 138.631994 
0.6330562500000000 -20.398290 -91.084682 -11.331953 -38.730777 -11.293155 -38.764528 -20.024204 138.085610 
0.6405000000000000 -20.387301 -91.858295 -11.332522 -39.177273 -11.285030 -39.230765 -20.046439 137.463503 
0.6479437500000000 -20.376059 -92.689615 -11.328762 -39.661606 -11.295246 -39.593332 -20.051332 136.855027 
0.6553875000000000 -20.354189 -93.462583 -11.351664 -40.041942 -11.287763 -40.080641 -20.094561 136.146884 
0.6628312500000000 -20.328089 -94.318975 -11.350888 -40.477801 -11.288482 -40.511376 -20.103109 135.478576 
0.6702750000000000 -20.317423 -95.141681 -11.349488 -40.934230 -11.282551 -41.010914 -20.130703 134.885469 
0.6777187500000000 -20.284159 -95.993283 -11.350915 -41.399379 -11.282972 -41.542114 -20.161405 134.127704 
0.6851625000000000 -20.246417 -96.836078 -11.342955 -41.825556 -11.282656 -42.030208 -20.176965 133.521901 
0.6926062500000000 -20.222804 -97.685481 -11.353689 -42.243697 -11.290063 -42.533993 -20.196651 132.877969 
0.7000500000000000 -20.186424 -98.498964 -11.348273 -42.675071 -11.307816 -43.036108 -20.225311 132.221635 
0.7074937500000000 -20.156813 -99.436347 -11.352076 -43.108347 -11.315664 -43.464438 -20.237928 131.506501 
0.7149375000000000 -20.122709 -100.202139 -11.340099 -43.528556 -11.326710 -43.912412 -20.274995 130.933588 
0.7223812500000000 -20.092979 -100.892702 -11.332512 -44.011982 -11.330007 -44.278872 -20.318197 130.183236 
0.7298250000000000 -20.043696 -101.623127 -11.329328 -44.502196 -11.331616 -44.707180 -20.341680 129.590760 
0.7372687500000000 -19.997195 -102.247971 -11.331554 -45.022790 -11.326692 -45.145767 -20.363160 128.924614 
0.7447125000000000 -19.956237 -102.918008 -11.328762 -45.533081 -11.330718 -45.610677 -20.404437 128.279664 
0.7521562500000000 -19.904962 -103.495648 -11.340853 -46.035739 -11.328390 -46.103730 -20.442931 127.685966 
0.7596000000000001 -19.859276 -104.125433 -11.360316 -46.482862 -11.343882 -46.563391 -20.473895 127.015779 
0.7670437500000000 -19.822440 -104.767544 -11.364267 -46.949238 -11.345646 -46.964474 -20.504396 126.389946 
0.7744875000000000 -19.795909 -105.336008 -11.375776 -47.338031 -11.349439 -47.388073 -20.539849 125.773445 
0.7819312500000000 -19.757625 -105.999700 -11.363398 -47.757092 -11.355235 -47.851730 -20.567118 125.086635 
0.7893750000000001 -19.736724 -106.673858 -11.369799 -48.200340 -11.345655 -48.284025 -20.606685 124.547513 
0.7968187500000000 -19.714977 -107.274405 -11.371174 -48.679003 -11.342076 -48.707841 -20.646335 123.870299 
0.8042625000000000 -19.700792 -107.725764 -11.369233 -49.166816 -11.344034 -49.199351 -20.677932 123.317798 
0.8117062500000000 -19.675270 -108.504858 -11.368009 -49.629851 -11.345657 -49.638532 -20.718017 122.851194 
0.8191500000000000 -19.642627 -109.168586 -11.386900 -50.071506 -11.344967 -50.146683 -20.745530 122.230817 
0.8265937500000000 -19.616600 -109.792110 -11.385858 -50.530328 -11.350343 -50.645378 -20.808255 121.680418 
0.8340375000000000 -19.564237 -110.473814 -11.394263 -50.897874 -11.354389 -51.110832 -20.854886 121.065088 
0.8414812500000000 -19.539140 -111.194804 -11.393211 -51.276836 -11.352750 -51.619942 -20.890244 120.503603 
0.8489250000000000 -19.506706 -111.424467 -11.380847 -51.729181 -11.347415 -51.935443 -20.989873 119.823570 
0.8563687500000000 -19.453573 -112.270957 -11.377213 -52.272198 -11.356231 -52.476927 -21.031388 119.250628 
0.8638125000000000 -19.416145 -112.807088 -11.393751 -52.683141 -11.376544 -52.828512 -21.113908 118.551169 
0.8712562500000000 -19.374800 -113.353482 -11.392832 -53.175875 -11.384549 -53.257205 -21.176224 117.922772 
0.8787000000000000 -19.338175 -113.925678 -11.402795 -53.664941 -11.396974 -53.673018 -21.229031 117.195640 
0.8861437500000000 -19.283703 -114.532235 -11.397666 -54.031602 -11.401355 -54.112232 -21.314876 116.859591 
0.8935875000000000 -19.266608 -115.078176 -11.423855 -54.584242 -11.399282 -54.508012 -21.391155 116.177279 
0.9010312500000000 -19.226558 -115.491970 -11.411130 -54.936434 -11.401747 -54.822995 -21.419773 115.546336 
0.9084750000000000 -19.191433 -116.022682 -11.396098 -55.505786 -11.405316 -55.385016 -21.479721 115.084845 
0.9159187500000000 -19.175499 -116.603275 -11.423102 -55.882218 -11.411344 -55.834537 -21.586699 114.235283 
0.9233625000000000 -19.156747 -117.050259 -11.429096 -56.320791 -11.402890 -56.252260 -21.620867 113.656527 
0.9308062500000000 -19.140829 -117.611649 -11.434269 -56.735927 -11.413023 -56.617601 -21.667341 113.086970 
0.9382500000000000 -19.125911 -118.219904 -11.439013 -57.172838 -11.401263 -57.093392 -21.762130 112.373142 
0.9456937500000000 -19.111788 -118.825576 -11.440591 -57.625163 -11.397167 -57.487090 -21.804077 111.631060 
0.9531375000000000 -19.101936 -119.464476 -11.444389 -57.983540 -11.397823 -57.998912 -21.885799 111.023275 
0.9605812500000001 -19.060601 -120.239777 -11.447540 -58.460429 -11.389899 -58.515995 -21.965327 110.524930 
0.9680250000000000 -19.059606 -120.898835 -11.436749 -58.889682 -11.397894 -59.076071 -22.024161 109.941148 
0.9754687500000000 -19.026723 -121.752280 -11.427836 -59.391960 -11.417638 -59.537497 -22.086646 109.211878 
0.9829125000000000 -18.973326 -122.366037 -11.434286 -59.890263 -11.430831 -59.971283 -22.169249 108.743709 
0.9903562500000001 -18.942063 -123.035304 -11.438842 -60.318857 -11.440144 -60.383433 -22.263178 107.941649 
0.9978000000000000 -18.902501 -123.545289 -11.452122 -60.702588 -11.454607 -60.755226 -22.357636 107.298776 
1.0052437500000000 -18.859207 -124.198266 -11.448048 -61.158584 -11.453877 -61.187770 -22.397167 106.651237 
1.0126875000000000 -18.804551 -124.910415 -11.447103 -61.617729 -11.442315 -61.658901 -22.518988 105.885613 
1.0201312499999999 -18.760814 -125.320685 -11.441934 -62.104349 -11.445573 -62.100862 -22.610358 105.343666 
1.0275749999999999 -18.731038 -125.761610 -11.453111 -62.465884 -11.452631 -62.541220 -22.673613 104.621126 
1.0350187500000001 -18.671351 -126.271183 -11.458937 -62.964731 -11.468974 -63.011784 -22.753427 103.845550 
1.0424625000000001 -18.639744 -126.647881 -11.467098 -63.372004 -11.487546 -63.436411 -22.799476 103.067429 
1.0499062500000000 -18.602453 -127.041465 -11.465493 -63.792083 -11.473796 -63.814402 -22.916167 102.460154 
1.0573500000000000 -18.588934 -127.682213 -11.466475 -64.287639 -11.483754 -64.207192 -22.993890 101.586440 
1.0647937500000000 -18.582839 -128.102793 -11.465649 -64.667436 -11.485157 -64.575568 -23.035273 100.663069 
1.0722375000000000 -18.578796 -128.552571 -11.458127 -65.194472 -11.478182 -65.028440 -23.125799 99.884593 
1.0796812499999999 -18.590532 -129.084394 -11.462767 -65.698335 -11.473011 -65.478918 -23.192704 98.851518 
1.0871249999999999 -18.558417 -129.635133 -11.467303 -66.170633 -11.480169 -65.933992 -23.273709 98.329267 
1.0945687500000001 -18.562173 -130.070710 -11.468672 -66.632878 -11.480536 -66.348744 -23.336789 97.421582 
1.1020125000000001 -18.560695 -130.733666 -11.480982 -67.056055 -11.496451 -66.830733 -23.398353 96.627885 
1.1094562500000000 -18.540133 -131.371023 -11.494353 -67.453141 -11.489796 -67.236239 -23.472358 95.835472 
1.1169000000000000 -18.521250 -132.123144 -11.495191 -67.885752 -11.489849 -67.690913 -23.560140 95.005114 
1.1243437500000000 -18.492511 -132.955843 -11.493089 -68.291260 -11.495313 -68.133342 -23.594425 94.388057 
1.1317874999999999 -18.467243 -133.635732 -11.495133 -68.728834 -11.492242 -68.598806 -23.684593 93.379212 
1.1392312499999999 -18.445495 -134.191032 -11.491017 -69.207102 -11.499944 -69.075724 -23.773237 92.758257 
1.1466750000000001 -18.390274 -134.829223 -11.491867 -69.618779 -11.503809 -69.552637 -23.821640 91.904182 
1.1541187500000001 -18.356106 -135.396497 -11.504490 -70.093845 -11.509935 -69.904057 -23.936857 91.231237 
1.1615625000000001 -18.308021 -135.915840 -11.501485 -70.516391 -11.500554 -70.361647 -24.010454 90.329485 
1.1690062500000000 -18.245914 -136.423415 -11.495871 -70.978243 -11.513810 -70.787612 -24.093821 89.565792 
1.1764500000000000 -18.203863 -136.978574 -11.507479 -71.406973 -11.509082 -71.212439 -24.213317 88.739587 
1.1838937500000000 -18.163937 -137.401414 -11.494680 -71.798696 -11.511410 -71.745048 -24.294154 88.087924 
1.1913374999999999 -18.155059 -137.756747 -11.496493 -72.250580 -11.520328 -72.234744 -24.384281 86.853815 
1.1987812499999999 -18.116100 -138.185420 -11.492090 -72.703937 -11.534177 -72.665660 -24.477707 86.137720 
1.2062250000000001 -18.125184 -138.337207 -11.489988 -73.264294 -11.535850 -73.093757 -24.559541 85.295271 
1.2136687500000001 -18.119230 -138.614220 -11.493568 -73.760547 -11.547875 -73.414685 -24.667453 84.205099 
1.2211125000000000 -18.114402 -138.981216 -11.500357 -74.202195 -11.547973 -73.779570 -24.793082 83.341489 
1.2285562500000000 -18.090974 -139.423256 -11.508737 -74.657753 -11.529483 -74.216278 -24.898542 82.572647 
1.2360000000000000 -18.114486 -139.991937 -11.511031 -75.181763 -11.525676 -74.654412 -24.941250 81.461785 
1.2434437500000000 -18.120970 -140.334407 -11.516597 -75.570111 -11.531333 -75.159929 -25.070433 80.527370 
1.2508874999999999 -18.132888 -140.969334 -11.514984 -76.010853 -11.524423 -75.652085 -25.174954 79.586081 
1.2583312499999999 -18.135311 -141.544260 -11.526743 -76.480172 -11.536164 -76.108600 -25.278978 78.705027 
1.2657750000000001 -18.144644 -142.070515 -11.531304 -76.981161 -11.541287 -76.569112 -25.360877 77.816392 
1.2732187500000001 -18.118714 -142.784786 -11.542414 -77.407801 -11.560042 -76.906689 -25.476938 76.601134 
1.2806625000000000 -18.110070 -143.414944 -11.541719 -77.817842 -11.548761 -77.367978 -25.575045 75.497926 
1.2881062500000000 -18.063139 -144.104935 -11.560331 -78.156680 -11.536864 -77.841633 -25.665629 74.699616 
1.2955500000000000 -18.046785 -144.855978 -11.539386 -78.650584 -11.538017 -78.308853 -25.821024 73.551999 
1.3029937500000000 -17.996955 -145.529639 -11.554866 -79.014316 -11.549369 -78.846251 -25.929042 72.435031 
1.3104374999999999 -17.975283 -146.031444 -11.540066 -79.510322 -11.553886 -79.261332 -26.082548 71.478730 
1.3178812499999999 -17.934507 -146.530729 -11.537761 -79.925691 -11.566650 -79.696625 -26.209097 70.338057 
1.3253250000000001 -17.863715 -146.970263 -11.533704 -80.389088 -11.564640 -80.055497 -26.340587 69.152001 
1.3327687500000001 -17.838592 -147.185321 -11.540948 -80.819355 -11.565686 -80.487611 -26.503366 67.910683 
1.3402125000000000 -17.802136 -147.623698 -11.548837 -81.342781 -11.568355 -80.860530 -26.596257 66.667089 
1.3476562500000000 -17.784850 -147.926035 -11.539356 -81.799405 -11.567869 -81.310231 -26.732443 65.493607 
1.3551000000000000 -17.753621 -148.273313 -11.545333 -82.247324 -11.568991 -81.811338 -26.881718 63.887187 
1.3625437499999999 -17.741738 -148.606457 -11.550195 -82.796282 -11.568678 -82.299863 -26.981966 62.684820 
1.3699874999999999 -17.740098 -148.861425 -11.552651 -83.227196 -11.564931 -82.773969 -27.081981 61.192234 
1.3774312500000001 -17.740137 -149.097212 -11.561759 -83.663106 -11.582182 -83.127195 -27.182439 59.543578 
1.3848750000000001 -17.724375 -149.409783 -11.559107 -84.154114 -11.576095 -83.525829 -27.288015 58.501012 
