!
! C:\Users\Aljaz\OneDrive - Univerza v Ljubljani\DOKTORAT\NOVI SA\Slabilec PE43711B\meritve\16dB.S2P
!
! Touchstone 1.1 file saved by VNA.EXE V1.65 (www.ke5fx.com/gpib/readme.htm)
! 2. 04. 2022 19:15:14
!
!    Source: HP8510C.07.14: Aug 26  1998 
!  Min freq: 4.500000E+007 Hz
!  Max freq: 6.000000E+009 Hz
!    Points: 801
!    Params: S11 S21 S12 S22
!
!!!!!
# GHZ S DB R 50
0.0450000000000000 -25.813476 -29.078852 -17.116809 -0.191333 -17.043923 -0.087080 -16.264243 -173.511928 
0.0524437500000000 -26.008241 -27.426952 -17.114685 -0.959599 -17.038006 -0.957398 -16.321349 -175.453143 
0.0598875000000000 -26.080541 -26.910517 -17.103524 -1.700813 -17.046548 -1.630534 -16.322561 -177.067552 
0.0673312500000000 -26.237851 -26.728408 -17.118283 -2.322101 -17.056872 -2.358731 -16.347722 -178.449583 
0.0747750000000000 -26.230122 -26.923526 -17.100560 -3.013126 -17.059091 -2.858377 -16.357699 -179.637866 
0.0822187500000000 -26.319898 -27.015274 -17.106366 -3.548595 -17.066284 -3.519746 -16.367578 179.243248 
0.0896625000000000 -26.282709 -27.869758 -17.114426 -4.158428 -17.068124 -4.045620 -16.391323 178.239751 
0.0971062500000000 -26.288226 -28.351597 -17.113558 -4.680047 -17.061572 -4.577018 -16.389771 177.307590 
0.1045500000000000 -26.264315 -28.996529 -17.130451 -5.212629 -17.065845 -5.164497 -16.400712 176.456651 
0.1119937500000000 -26.216794 -29.916249 -17.119030 -5.766769 -17.072117 -5.685454 -16.405710 175.559410 
0.1194375000000000 -26.189234 -30.375944 -17.121029 -6.241408 -17.065839 -6.289583 -16.430969 174.749405 
0.1268812500000000 -26.164500 -31.492348 -17.129297 -6.734252 -17.083821 -6.736658 -16.436229 173.924341 
0.1343250000000000 -26.090153 -32.276529 -17.118918 -7.241384 -17.069797 -7.234911 -16.452404 173.114643 
0.1417687500000000 -26.033391 -32.931186 -17.129820 -7.706737 -17.082148 -7.717892 -16.461017 172.342494 
0.1492125000000000 -26.052751 -33.974210 -17.131456 -8.241169 -17.086516 -8.211013 -16.483728 171.650899 
0.1566562500000000 -26.019071 -34.564686 -17.126648 -8.709626 -17.092770 -8.719755 -16.479163 170.897528 
0.1641000000000000 -25.967829 -35.554599 -17.118917 -9.175034 -17.089927 -9.239233 -16.493576 170.121549 
0.1715437500000000 -25.939552 -36.383981 -17.128981 -9.676088 -17.091115 -9.649477 -16.506107 169.364371 
0.1789875000000000 -25.919663 -37.369820 -17.133569 -10.159795 -17.090475 -10.182058 -16.518621 168.638973 
0.1864312500000000 -25.933391 -38.390814 -17.124713 -10.685620 -17.102355 -10.638701 -16.525291 167.899916 
0.1938750000000000 -25.899071 -39.342790 -17.130099 -11.066576 -17.104302 -11.119517 -16.535106 167.174002 
0.2013187500000000 -25.901485 -40.369790 -17.134657 -11.588529 -17.099385 -11.614420 -16.536717 166.460444 
0.2087625000000000 -25.862055 -41.493808 -17.130802 -12.122634 -17.102839 -12.070278 -16.536886 165.768075 
0.2162062500000000 -25.838310 -42.535430 -17.140467 -12.609654 -17.105844 -12.494484 -16.541659 165.095797 
0.2236500000000000 -25.829621 -43.689082 -17.151928 -13.001219 -17.108132 -13.037618 -16.548335 164.441596 
0.2310937500000000 -25.802566 -44.841747 -17.140358 -13.503789 -17.112415 -13.424153 -16.547903 163.724506 
0.2385375000000000 -25.735819 -45.961749 -17.153454 -13.959092 -17.115779 -13.955608 -16.565053 163.135541 
0.2459812500000000 -25.695954 -47.209918 -17.157890 -14.434463 -17.110001 -14.476352 -16.564716 162.461443 
0.2534250000000000 -25.652631 -48.297912 -17.160243 -14.897930 -17.110302 -14.901340 -16.566915 161.881600 
0.2608687500000000 -25.582039 -49.035370 -17.155541 -15.326958 -17.100556 -15.260337 -16.588240 161.231858 
0.2683125000000000 -25.525314 -50.210024 -17.177503 -15.806106 -17.105702 -15.666142 -16.594150 160.568492 
0.2757562500000000 -25.422277 -51.135633 -17.165968 -16.253877 -17.112599 -16.158127 -16.601058 160.046961 
0.2832000000000000 -25.341284 -52.228193 -17.174248 -16.681391 -17.116349 -16.760544 -16.620425 159.343395 
0.2906437500000000 -25.332007 -53.151098 -17.177791 -17.147316 -17.114128 -17.152755 -16.629551 158.729997 
0.2980875000000000 -25.220625 -53.962948 -17.167409 -17.671740 -17.112082 -17.605180 -16.646633 158.174877 
0.3055312500000000 -25.133852 -54.997793 -17.182656 -18.039170 -17.122831 -18.010129 -16.659078 157.618420 
0.3129750000000000 -25.059321 -55.724360 -17.169530 -18.532733 -17.137376 -18.431978 -16.692020 156.994355 
0.3204187500000000 -24.987317 -56.601098 -17.186253 -18.983871 -17.132787 -18.962619 -16.690974 156.307692 
0.3278625000000000 -24.936460 -57.485014 -17.171236 -19.544895 -17.138718 -19.395570 -16.706911 155.727636 
0.3353062500000000 -24.871566 -58.165320 -17.184337 -19.995531 -17.137677 -19.827045 -16.733717 155.112917 
0.3427500000000000 -24.812980 -59.226737 -17.194339 -20.447888 -17.151335 -20.268572 -16.765065 154.513985 
0.3501937500000000 -24.770442 -60.149010 -17.195130 -20.855702 -17.156331 -20.711284 -16.761711 153.818714 
0.3576375000000000 -24.737203 -61.330703 -17.204476 -21.320729 -17.158569 -21.192750 -16.783622 153.096112 
0.3650812500000000 -24.683092 -62.103312 -17.206117 -21.767865 -17.158430 -21.737611 -16.819852 152.462958 
0.3725250000000000 -24.645431 -63.198001 -17.206968 -22.211027 -17.149901 -22.088457 -16.823276 151.837279 
0.3799687500000000 -24.642025 -64.282331 -17.220504 -22.618412 -17.156626 -22.552730 -16.844543 151.198138 
0.3874125000000000 -24.575750 -65.113695 -17.213435 -23.153208 -17.161470 -23.037985 -16.850602 150.514339 
0.3948562500000000 -24.522308 -66.264983 -17.208970 -23.485784 -17.161789 -23.464374 -16.869660 150.025226 
0.4023000000000000 -24.477344 -67.229098 -17.213611 -24.022402 -17.150479 -23.947785 -16.889640 149.286737 
0.4097437500000000 -24.408042 -68.014535 -17.221126 -24.399561 -17.170895 -24.440305 -16.895871 148.720020 
0.4171875000000000 -24.362068 -69.003714 -17.225669 -24.890162 -17.174777 -24.868868 -16.925826 148.039016 
0.4246312500000000 -24.303803 -69.901189 -17.220202 -25.281704 -17.176442 -25.358795 -16.943568 147.427524 
0.4320750000000000 -24.224252 -70.848434 -17.213906 -25.769963 -17.171743 -25.818290 -16.972858 146.860958 
0.4395187500000000 -24.173782 -71.514205 -17.220141 -26.181776 -17.190999 -26.260179 -16.991050 146.302633 
0.4469625000000000 -24.085623 -72.402537 -17.218613 -26.623247 -17.183597 -26.695103 -17.016383 145.582415 
0.4544062500000000 -24.030602 -73.097647 -17.210095 -27.151343 -17.197697 -27.112992 -17.051451 144.978002 
0.4618500000000000 -23.960731 -73.659793 -17.222626 -27.660578 -17.191715 -27.646770 -17.069183 144.444724 
0.4692937500000000 -23.929386 -74.529414 -17.227521 -28.108838 -17.215628 -28.040009 -17.111695 143.800018 
0.4767375000000000 -23.846251 -75.106942 -17.234888 -28.561114 -17.215886 -28.485759 -17.147717 143.060525 
0.4841812500000000 -23.787435 -75.771913 -17.241906 -29.018451 -17.218687 -28.957209 -17.185611 142.508227 
0.4916250000000000 -23.742835 -76.507800 -17.254378 -29.497059 -17.224940 -29.378344 -17.230677 141.823850 
0.4990687500000000 -23.694738 -77.229234 -17.240870 -29.948508 -17.229775 -29.897209 -17.269398 141.267164 
0.5065125000000000 -23.632569 -77.923563 -17.267469 -30.498799 -17.228087 -30.318643 -17.324534 140.604913 
0.5139562500000000 -23.571347 -78.565267 -17.280972 -30.824513 -17.238498 -30.755922 -17.366567 140.033865 
0.5214000000000000 -23.534943 -79.256097 -17.276720 -31.316876 -17.238447 -31.186043 -17.414313 139.419130 
0.5288437500000000 -23.464629 -79.916550 -17.297526 -31.665408 -17.255623 -31.684438 -17.468010 138.828369 
0.5362875000000000 -23.362142 -80.689017 -17.306530 -32.079640 -17.260322 -32.141266 -17.505170 138.319610 
0.5437312500000000 -23.277465 -81.489885 -17.321350 -32.429685 -17.264004 -32.511442 -17.568806 137.816439 
0.5511750000000000 -23.164324 -82.433221 -17.321626 -32.814038 -17.277834 -32.930571 -17.606876 137.222798 
0.5586187500000001 -23.065623 -83.356132 -17.324008 -33.193827 -17.276587 -33.375517 -17.644266 136.799666 
0.5660625000000000 -22.988893 -84.292475 -17.322295 -33.596095 -17.280402 -33.785374 -17.669820 136.334417 
0.5735062500000000 -22.883951 -85.162739 -17.311679 -34.043699 -17.293086 -34.113538 -17.691674 135.926570 
0.5809500000000000 -22.809251 -86.258247 -17.324487 -34.464359 -17.291902 -34.567539 -17.713553 135.476318 
0.5883937500000001 -22.732888 -87.073756 -17.314811 -34.886742 -17.289236 -34.960438 -17.736388 134.945216 
0.5958375000000000 -22.646520 -88.049175 -17.311388 -35.217735 -17.294824 -35.358298 -17.733117 134.459510 
0.6032812500000000 -22.621227 -88.900451 -17.298802 -35.764795 -17.299105 -35.783999 -17.764069 133.893608 
0.6107250000000000 -22.553132 -89.780063 -17.309800 -36.104356 -17.289211 -36.181679 -17.771079 133.293487 
0.6181687500000000 -22.496001 -90.600149 -17.303491 -36.553262 -17.297143 -36.633893 -17.781375 132.702115 
0.6256125000000000 -22.461900 -91.215975 -17.303138 -37.069874 -17.301070 -37.021440 -17.796895 132.079744 
0.6330562500000000 -22.404913 -92.104985 -17.320465 -37.525907 -17.282127 -37.445008 -17.807402 131.474897 
0.6405000000000000 -22.372699 -92.767021 -17.316873 -37.996877 -17.284492 -37.939901 -17.821575 130.890561 
0.6479437500000000 -22.358990 -93.428933 -17.315884 -38.461586 -17.297309 -38.290949 -17.834491 130.130534 
0.6553875000000000 -22.318940 -94.322958 -17.340364 -38.812846 -17.292983 -38.825026 -17.853209 129.427890 
0.6628312500000000 -22.285231 -95.047951 -17.330559 -39.232410 -17.274139 -39.189293 -17.884071 128.696730 
0.6702750000000000 -22.255189 -95.784746 -17.338539 -39.631719 -17.275430 -39.684316 -17.908130 128.115440 
0.6777187500000000 -22.231028 -96.646937 -17.331010 -40.042656 -17.283197 -40.185672 -17.927240 127.354033 
0.6851625000000000 -22.175137 -97.469778 -17.328985 -40.530690 -17.281737 -40.645662 -17.961086 126.697047 
0.6926062500000000 -22.149720 -98.273019 -17.337615 -40.974522 -17.283718 -41.143353 -17.970180 126.017570 
0.7000500000000000 -22.082367 -98.953132 -17.332068 -41.258509 -17.309959 -41.620218 -18.001905 125.303704 
0.7074937500000000 -22.059894 -99.783445 -17.324515 -41.727170 -17.308838 -41.996516 -18.023877 124.620052 
0.7149375000000000 -22.014025 -100.456446 -17.311337 -42.141000 -17.315027 -42.490736 -18.052312 123.908068 
0.7223812500000000 -21.957977 -101.062900 -17.299630 -42.582474 -17.313987 -42.822559 -18.085356 123.177044 
0.7298250000000000 -21.907227 -101.675123 -17.297136 -43.143994 -17.323560 -43.314448 -18.114135 122.582490 
0.7372687500000000 -21.839133 -102.289447 -17.306919 -43.623821 -17.312302 -43.737552 -18.139459 121.794620 
0.7447125000000000 -21.779808 -102.976923 -17.304251 -44.185253 -17.322651 -44.184660 -18.168159 121.050874 
0.7521562500000000 -21.723181 -103.490656 -17.312154 -44.617782 -17.324904 -44.635396 -18.195759 120.453662 
0.7596000000000001 -21.672567 -104.060018 -17.341089 -45.122899 -17.331272 -45.082975 -18.231858 119.791558 
0.7670437500000000 -21.626561 -104.669777 -17.339273 -45.463052 -17.340091 -45.498371 -18.257819 119.070074 
0.7744875000000000 -21.583279 -105.219465 -17.355465 -45.874287 -17.341223 -45.909271 -18.292801 118.373000 
0.7819312500000000 -21.533061 -105.662432 -17.341282 -46.250731 -17.343313 -46.409283 -18.310358 117.677163 
0.7893750000000001 -21.508675 -106.382935 -17.345126 -46.721638 -17.346513 -46.794818 -18.345914 117.051455 
0.7968187500000000 -21.463917 -106.711884 -17.340391 -47.230762 -17.338144 -47.172123 -18.366776 116.359341 
0.8042625000000000 -21.425569 -107.395660 -17.340741 -47.656823 -17.333301 -47.610145 -18.412937 115.732060 
0.8117062500000000 -21.403627 -108.059625 -17.349472 -48.140770 -17.339893 -48.043890 -18.458916 115.197129 
0.8191500000000000 -21.356148 -108.525441 -17.357478 -48.527396 -17.338672 -48.540296 -18.485313 114.427397 
0.8265937500000000 -21.324688 -109.071745 -17.357040 -48.988791 -17.342046 -49.015004 -18.530285 113.846308 
0.8340375000000000 -21.272584 -109.741827 -17.367542 -49.310648 -17.344672 -49.459128 -18.577512 113.190788 
0.8414812500000000 -21.232888 -110.406860 -17.366571 -49.683360 -17.348307 -49.945521 -18.608198 112.475336 
0.8489250000000000 -21.195675 -110.596853 -17.350978 -50.134614 -17.334135 -50.275346 -18.690644 111.743115 
0.8563687500000000 -21.111615 -111.264008 -17.354788 -50.690964 -17.346068 -50.796230 -18.726732 111.063531 
0.8638125000000000 -21.077309 -111.777055 -17.340562 -51.122057 -17.360570 -51.162613 -18.783490 110.498677 
0.8712562500000000 -21.012088 -112.307604 -17.353551 -51.577296 -17.376796 -51.612253 -18.837318 109.688936 
0.8787000000000000 -20.968859 -112.865542 -17.366787 -52.048290 -17.380637 -51.960530 -18.882956 108.815413 
0.8861437500000000 -20.920378 -113.433749 -17.373758 -52.402836 -17.387140 -52.308210 -18.944995 108.360883 
0.8935875000000000 -20.871590 -113.800807 -17.384587 -52.909488 -17.377555 -52.810763 -19.013467 107.631032 
0.9010312500000000 -20.833666 -114.114427 -17.378586 -53.284952 -17.383425 -53.119747 -19.036157 106.885858 
0.9084750000000000 -20.771714 -114.684547 -17.375799 -53.784820 -17.386977 -53.582138 -19.099026 106.333504 
0.9159187500000000 -20.742549 -115.199981 -17.387761 -54.229101 -17.383821 -54.052284 -19.164506 105.362379 
0.9233625000000000 -20.713195 -115.613196 -17.387283 -54.686690 -17.383494 -54.539766 -19.208213 104.836179 
0.9308062500000000 -20.689118 -116.162944 -17.398697 -55.035590 -17.395584 -54.800614 -19.262586 104.226149 
0.9382500000000000 -20.673776 -116.643218 -17.406562 -55.457244 -17.384561 -55.289811 -19.332969 103.497704 
0.9456937500000000 -20.664701 -117.142256 -17.409518 -55.928881 -17.379649 -55.776855 -19.372716 102.729727 
0.9531375000000000 -20.616493 -117.764552 -17.408125 -56.214587 -17.387972 -56.254745 -19.409099 101.937451 
0.9605812500000001 -20.583644 -118.424087 -17.398493 -56.672960 -17.370591 -56.693295 -19.488589 101.396418 
0.9680250000000000 -20.558590 -119.132255 -17.407024 -57.106459 -17.387691 -57.165710 -19.543893 100.726279 
0.9754687500000000 -20.513666 -119.747183 -17.389482 -57.649823 -17.403766 -57.674516 -19.604388 99.929586 
0.9829125000000000 -20.484189 -120.351422 -17.386215 -58.108479 -17.416118 -58.069643 -19.664325 99.263202 
0.9903562500000001 -20.406481 -121.101235 -17.409255 -58.530527 -17.429484 -58.422006 -19.742586 98.417874 
0.9978000000000000 -20.372803 -121.527983 -17.419753 -58.837942 -17.428549 -58.861727 -19.812562 97.663337 
1.0052437500000000 -20.321212 -122.272718 -17.414145 -59.348248 -17.441443 -59.228047 -19.873978 97.109785 
1.0126875000000000 -20.240600 -122.758315 -17.417823 -59.793341 -17.433970 -59.672851 -19.919545 96.131422 
1.0201312499999999 -20.194182 -123.246220 -17.401178 -60.242450 -17.414044 -60.214450 -20.002205 95.456294 
1.0275749999999999 -20.147111 -123.647526 -17.419839 -60.713378 -17.439594 -60.593479 -20.058480 94.617090 
1.0350187500000001 -20.061259 -123.968452 -17.414792 -61.185012 -17.435339 -61.101047 -20.110390 93.814665 
1.0424625000000001 -20.017465 -124.459683 -17.427240 -61.613820 -17.450630 -61.478377 -20.147899 93.062800 
1.0499062500000000 -19.984051 -124.809537 -17.423330 -61.926452 -17.458441 -61.769278 -20.239678 92.265373 
1.0573500000000000 -19.959744 -125.277189 -17.427567 -62.361985 -17.455661 -62.231580 -20.302751 91.478026 
1.0647937500000000 -19.940677 -125.726685 -17.420975 -62.882192 -17.469162 -62.603007 -20.324123 90.560393 
1.0722375000000000 -19.917755 -125.925020 -17.407797 -63.244939 -17.447729 -63.016733 -20.388651 89.725720 
1.0796812499999999 -19.903109 -126.532714 -17.420380 -63.734918 -17.452487 -63.466297 -20.437599 88.804645 
1.0871249999999999 -19.886512 -127.068371 -17.424875 -64.266286 -17.452076 -63.913149 -20.483221 88.155741 
1.0945687500000001 -19.878975 -127.461358 -17.433134 -64.670849 -17.460043 -64.335336 -20.556320 87.263273 
1.1020125000000001 -19.863354 -128.051610 -17.451843 -65.091329 -17.478731 -64.757808 -20.609313 86.316617 
1.1094562500000000 -19.845259 -128.752356 -17.456421 -65.488421 -17.461274 -65.159552 -20.637076 85.458246 
1.1169000000000000 -19.836997 -129.388112 -17.452233 -65.926627 -17.460405 -65.644893 -20.707809 84.633179 
1.1243437500000000 -19.798637 -130.107442 -17.453289 -66.365579 -17.463702 -66.032201 -20.768358 83.940374 
1.1317874999999999 -19.747540 -130.726565 -17.455640 -66.724971 -17.464424 -66.497271 -20.813291 83.152745 
1.1392312499999999 -19.708267 -131.413972 -17.461258 -67.224990 -17.484296 -66.955005 -20.869968 82.333197 
1.1466750000000001 -19.640744 -131.879969 -17.451467 -67.656220 -17.475834 -67.404280 -20.915715 81.495173 
1.1541187500000001 -19.597318 -132.467250 -17.459379 -68.122552 -17.479828 -67.854858 -21.004725 80.534852 
1.1615625000000001 -19.545556 -132.908000 -17.466019 -68.502063 -17.475936 -68.219528 -21.033216 79.736328 
1.1690062500000000 -19.469662 -133.480443 -17.462100 -68.894064 -17.484103 -68.636075 -21.094712 78.862674 
1.1764500000000000 -19.431108 -133.909954 -17.458660 -69.250350 -17.472405 -69.107588 -21.195965 77.985126 
1.1838937500000000 -19.373106 -134.255154 -17.447256 -69.737972 -17.487510 -69.552395 -21.272887 77.241721 
1.1913374999999999 -19.341810 -134.555854 -17.447419 -70.139941 -17.490705 -70.113120 -21.287819 76.213989 
1.1987812499999999 -19.299169 -134.968636 -17.436549 -70.666668 -17.499992 -70.439231 -21.372398 75.376436 
1.2062250000000001 -19.294839 -135.088349 -17.447126 -71.207544 -17.503772 -70.826639 -21.432064 74.448294 
1.2136687500000001 -19.264267 -135.364937 -17.447591 -71.677361 -17.515308 -71.178743 -21.514995 73.602088 
1.2211125000000000 -19.260605 -135.678476 -17.462922 -72.165808 -17.509688 -71.582707 -21.569187 72.535539 
1.2285562500000000 -19.240028 -136.108813 -17.467914 -72.549352 -17.513084 -71.976177 -21.639483 71.695274 
1.2360000000000000 -19.255429 -136.607407 -17.477296 -73.036445 -17.502225 -72.440188 -21.678365 70.604088 
1.2434437500000000 -19.250658 -136.978161 -17.478527 -73.494949 -17.502828 -72.837460 -21.771839 69.689898 
1.2508874999999999 -19.241836 -137.422618 -17.473404 -73.927109 -17.506153 -73.338154 -21.841938 68.716900 
1.2583312499999999 -19.236902 -138.044779 -17.494975 -74.356119 -17.505140 -73.743742 -21.907308 67.820956 
1.2657750000000001 -19.245016 -138.589771 -17.477681 -74.916961 -17.512385 -74.255718 -21.956783 66.796736 
1.2732187500000001 -19.214665 -139.349973 -17.514644 -75.272483 -17.523475 -74.641107 -22.020630 65.807592 
1.2806625000000000 -19.221482 -139.831113 -17.507524 -75.627176 -17.533611 -75.038701 -22.098120 64.810281 
1.2881062500000000 -19.168103 -140.488131 -17.513466 -75.928730 -17.518713 -75.479343 -22.170550 63.964543 
1.2955500000000000 -19.120430 -141.143079 -17.498527 -76.378706 -17.508885 -75.970130 -22.275423 62.892568 
1.3029937500000000 -19.074763 -141.808455 -17.500904 -76.711981 -17.515814 -76.445639 -22.334394 61.865613 
1.3104374999999999 -19.042580 -142.282455 -17.490866 -77.225065 -17.532830 -76.861612 -22.407010 60.749057 
1.3178812499999999 -18.973250 -142.775492 -17.484873 -77.649720 -17.541527 -77.348292 -22.508309 59.593622 
1.3253250000000001 -18.907301 -143.207582 -17.482521 -78.154973 -17.546327 -77.736048 -22.571813 58.436969 
1.3327687500000001 -18.871996 -143.464861 -17.491066 -78.607861 -17.530369 -78.061705 -22.660396 57.290282 
1.3402125000000000 -18.816465 -143.848390 -17.503011 -79.023192 -17.530398 -78.417823 -22.721802 56.314911 
1.3476562500000000 -18.781863 -144.094412 -17.501454 -79.479034 -17.531693 -78.929446 -22.793890 55.054291 
1.3551000000000000 -18.752294 -144.407741 -17.496071 -79.925217 -17.536101 -79.342741 -22.860614 53.773603 
1.3625437499999999 -18.729836 -144.691931 -17.493766 -80.393353 -17.536785 -79.803785 -22.912060 52.627346 
1.3699874999999999 -18.707480 -144.957368 -17.502025 -80.905833 -17.534912 -80.363974 -23.005556 51.414975 
1.3774312500000001 -18.710224 -145.190577 -17.500717 -81.404873 -17.549640 -80.624944 -23.048825 50.247696 
1.3848750000000001 -18.673818 -145.448188 -17.518385 -81.858748 -17.557237 -81.017759 -23.102351 49.271644 
