!
! C:\Users\Aljaz\OneDrive - Univerza v Ljubljani\DOKTORAT\NOVI SA\Slabilec PE43711B\meritve\1dB.S2P
!
! Touchstone 1.1 file saved by VNA.EXE V1.65 (www.ke5fx.com/gpib/readme.htm)
! 2. 04. 2022 19:10:52
!
!    Source: HP8510C.07.14: Aug 26  1998 
!  Min freq: 4.500000E+007 Hz
!  Max freq: 6.000000E+009 Hz
!    Points: 801
!    Params: S11 S21 S12 S22
!
!!!!!
# GHZ S DB R 50
0.0450000000000000 -19.430427 -23.124678 -2.068815 -0.738876 -2.016184 -0.727792 -21.823649 -30.155899 
0.0524437500000000 -19.539790 -22.231756 -2.064220 -1.579132 -2.014867 -1.592243 -21.990114 -28.947825 
0.0598875000000000 -19.619020 -22.202294 -2.060040 -2.268109 -2.016969 -2.289990 -22.074977 -28.337788 
0.0673312500000000 -19.655128 -22.306553 -2.070758 -2.999603 -2.019258 -2.970815 -22.154195 -28.496907 
0.0747750000000000 -19.648619 -22.766151 -2.063244 -3.625573 -2.020911 -3.590238 -22.202454 -28.798822 
0.0822187500000000 -19.692639 -23.218533 -2.064859 -4.155299 -2.015942 -4.140768 -22.202042 -29.048313 
0.0896625000000000 -19.710661 -24.021945 -2.069621 -4.778567 -2.031295 -4.746394 -22.247977 -29.946454 
0.0971062500000000 -19.716852 -24.746327 -2.067152 -5.387435 -2.031752 -5.316640 -22.250083 -30.630097 
0.1045500000000000 -19.726889 -25.600758 -2.065927 -5.919376 -2.032350 -5.887577 -22.253302 -31.505986 
0.1119937500000000 -19.729688 -26.475037 -2.071025 -6.512244 -2.031199 -6.451194 -22.252363 -32.319766 
0.1194375000000000 -19.727327 -27.265085 -2.070246 -6.989866 -2.028630 -7.027496 -22.223202 -33.255490 
0.1268812500000000 -19.708520 -28.295031 -2.072063 -7.561934 -2.045174 -7.533963 -22.211497 -34.344580 
0.1343250000000000 -19.695174 -29.253833 -2.073866 -8.078929 -2.037203 -8.111658 -22.195352 -35.462108 
0.1417687500000000 -19.691251 -30.201169 -2.087083 -8.617182 -2.047726 -8.598073 -22.188611 -36.488310 
0.1492125000000000 -19.685170 -31.246807 -2.082453 -9.129862 -2.054604 -9.154232 -22.168118 -37.726124 
0.1566562500000000 -19.682504 -32.291958 -2.087792 -9.692264 -2.060368 -9.656916 -22.141742 -38.830596 
0.1641000000000000 -19.664737 -33.247968 -2.086836 -10.242001 -2.058197 -10.176406 -22.124703 -39.927623 
0.1715437500000000 -19.649123 -34.357279 -2.096417 -10.719746 -2.062458 -10.672907 -22.101470 -41.172305 
0.1789875000000000 -19.635382 -35.411476 -2.094871 -11.182492 -2.053495 -11.212198 -22.081179 -42.316290 
0.1864312500000000 -19.638592 -36.577210 -2.091976 -11.703040 -2.063949 -11.664806 -22.063781 -43.539639 
0.1938750000000000 -19.634790 -37.707358 -2.101548 -12.189645 -2.066415 -12.178262 -22.040139 -44.804532 
0.2013187500000000 -19.622344 -38.872566 -2.102595 -12.736342 -2.070226 -12.692722 -22.029130 -45.985913 
0.2087625000000000 -19.624370 -40.019167 -2.100456 -13.233631 -2.072914 -13.200100 -22.019884 -47.222723 
0.2162062500000000 -19.616056 -41.176285 -2.102705 -13.688330 -2.077857 -13.703329 -22.008145 -48.434503 
0.2236500000000000 -19.604540 -42.312881 -2.115355 -14.230473 -2.077890 -14.190852 -21.975848 -49.750347 
0.2310937500000000 -19.584166 -43.420480 -2.104659 -14.744126 -2.077263 -14.696648 -21.960460 -50.985993 
0.2385375000000000 -19.581740 -44.671555 -2.111256 -15.219529 -2.087267 -15.165023 -21.921986 -52.281435 
0.2459812500000000 -19.571483 -45.779707 -2.119007 -15.671043 -2.080571 -15.750074 -21.880769 -53.641982 
0.2534250000000000 -19.561771 -46.932697 -2.119749 -16.222534 -2.083351 -16.210688 -21.845752 -54.935563 
0.2608687500000000 -19.531143 -48.063273 -2.122605 -16.756555 -2.087110 -16.614268 -21.806957 -56.222608 
0.2683125000000000 -19.515718 -49.263282 -2.134572 -17.224525 -2.084250 -17.166133 -21.765974 -57.552845 
0.2757562500000000 -19.487784 -50.433977 -2.133391 -17.791682 -2.087289 -17.659370 -21.725992 -58.913705 
0.2832000000000000 -19.465618 -51.432633 -2.143557 -18.279258 -2.091512 -18.173254 -21.698581 -60.187207 
0.2906437500000000 -19.450093 -52.619664 -2.147988 -18.721010 -2.096139 -18.631325 -21.654066 -61.483450 
0.2980875000000000 -19.423403 -53.627518 -2.141685 -19.227428 -2.102838 -19.114707 -21.595594 -62.583359 
0.3055312500000000 -19.395783 -54.633675 -2.154157 -19.726774 -2.111038 -19.606133 -21.573392 -63.841486 
0.3129750000000000 -19.367516 -55.705719 -2.155626 -20.211913 -2.113986 -20.077810 -21.506182 -64.945262 
0.3204187500000000 -19.341384 -56.813987 -2.162652 -20.652650 -2.121017 -20.594709 -21.470288 -66.141601 
0.3278625000000000 -19.316384 -57.868914 -2.165296 -21.153970 -2.124290 -21.028049 -21.437537 -67.320219 
0.3353062500000000 -19.285611 -58.936125 -2.166556 -21.600568 -2.118955 -21.536608 -21.397313 -68.472219 
0.3427500000000000 -19.267114 -60.088429 -2.166366 -22.098082 -2.133319 -22.021818 -21.335526 -69.603562 
0.3501937500000000 -19.239941 -61.201752 -2.164262 -22.562922 -2.133991 -22.535779 -21.304847 -70.752986 
0.3576375000000000 -19.232595 -62.338747 -2.160988 -23.094065 -2.139416 -22.999447 -21.284125 -71.942462 
0.3650812500000000 -19.213307 -63.351918 -2.175059 -23.581406 -2.146048 -23.476070 -21.260376 -73.026765 
0.3725250000000000 -19.201658 -64.349794 -2.180180 -24.077724 -2.142399 -23.937268 -21.220029 -74.111958 
0.3799687500000000 -19.176025 -65.481846 -2.193609 -24.537283 -2.143271 -24.410803 -21.193040 -75.249162 
0.3874125000000000 -19.172510 -66.414999 -2.186410 -25.053168 -2.145076 -24.921154 -21.165046 -76.282618 
0.3948562500000000 -19.135947 -67.478760 -2.188942 -25.533759 -2.148540 -25.404333 -21.119893 -77.498700 
0.4023000000000000 -19.129943 -68.499676 -2.198338 -26.011096 -2.148682 -25.904091 -21.085125 -78.496282 
0.4097437500000000 -19.118883 -69.427540 -2.198586 -26.501594 -2.154704 -26.432771 -21.043578 -79.548554 
0.4171875000000000 -19.118729 -70.355340 -2.210414 -26.997733 -2.158644 -26.940017 -20.990212 -80.692318 
0.4246312500000000 -19.094913 -71.395027 -2.211964 -27.495161 -2.177278 -27.447242 -20.964004 -81.701700 
0.4320750000000000 -19.069577 -72.325127 -2.207990 -27.985881 -2.178396 -27.897621 -20.919097 -82.679099 
0.4395187500000000 -19.065136 -73.279511 -2.231337 -28.396300 -2.195273 -28.385687 -20.866175 -83.764615 
0.4469625000000000 -19.036011 -74.152133 -2.232338 -28.884196 -2.188711 -28.836318 -20.838696 -84.679599 
0.4544062500000000 -19.035562 -75.207561 -2.227090 -29.364278 -2.197469 -29.311388 -20.794200 -85.622600 
0.4618500000000000 -18.990512 -76.141209 -2.239733 -29.817293 -2.208640 -29.829902 -20.744729 -86.719118 
0.4692937500000000 -18.978655 -77.089275 -2.240432 -30.243407 -2.212941 -30.244909 -20.681914 -87.554706 
0.4767375000000000 -18.958010 -78.049442 -2.238612 -30.798453 -2.221240 -30.730241 -20.658386 -88.457831 
0.4841812500000000 -18.925276 -78.948378 -2.255501 -31.246013 -2.221136 -31.174809 -20.600190 -89.440248 
0.4916250000000000 -18.907984 -79.937199 -2.251273 -31.768561 -2.223085 -31.656327 -20.561546 -90.258811 
0.4990687500000000 -18.886529 -80.878736 -2.253402 -32.271815 -2.226243 -32.118903 -20.520906 -91.093137 
0.5065125000000000 -18.843903 -81.837161 -2.262093 -32.730455 -2.230474 -32.623582 -20.470805 -91.876252 
0.5139562500000000 -18.799730 -82.564736 -2.270641 -33.210748 -2.239754 -33.137136 -20.419684 -92.707761 
0.5214000000000000 -18.773504 -83.634870 -2.269323 -33.673064 -2.244531 -33.624131 -20.374609 -93.425022 
0.5288437500000000 -18.736383 -84.623366 -2.286793 -34.169642 -2.247294 -34.157419 -20.306852 -94.396967 
0.5362875000000000 -18.677958 -85.430122 -2.294339 -34.672832 -2.264235 -34.552351 -20.237471 -95.308723 
0.5437312500000000 -18.647170 -86.370811 -2.314561 -35.099349 -2.272552 -35.038359 -20.173503 -96.192942 
0.5511750000000000 -18.592009 -87.365450 -2.318033 -35.560505 -2.275203 -35.521034 -20.116311 -97.106608 
0.5586187500000001 -18.543695 -88.436164 -2.334901 -35.973043 -2.293666 -35.978663 -20.058890 -98.231865 
0.5660625000000000 -18.506812 -89.446019 -2.339491 -36.400648 -2.295503 -36.436270 -19.999069 -99.253936 
0.5735062500000000 -18.464649 -90.639219 -2.351100 -36.842850 -2.300034 -36.850302 -19.929561 -100.479950 
0.5809500000000000 -18.438024 -91.769606 -2.361635 -37.234326 -2.307270 -37.286323 -19.881632 -101.603388 
0.5883937500000001 -18.423187 -92.766284 -2.350360 -37.685828 -2.319446 -37.736376 -19.854385 -102.742819 
0.5958375000000000 -18.390453 -93.825430 -2.355221 -38.033069 -2.309629 -38.105468 -19.830713 -103.797625 
0.6032812500000000 -18.386092 -94.873826 -2.344549 -38.558580 -2.328229 -38.513786 -19.812678 -105.042751 
0.6107250000000000 -18.366883 -95.925397 -2.354312 -38.968842 -2.325334 -38.946754 -19.784037 -106.040864 
0.6181687500000000 -18.353930 -96.926513 -2.348593 -39.381629 -2.321190 -39.378281 -19.766522 -106.999641 
0.6256125000000000 -18.348823 -97.820839 -2.343802 -39.858055 -2.318769 -39.845337 -19.759025 -108.018819 
0.6330562500000000 -18.327436 -98.810858 -2.350994 -40.335281 -2.312823 -40.331500 -19.733930 -109.105282 
0.6405000000000000 -18.329417 -99.801463 -2.337718 -40.842325 -2.314821 -40.793411 -19.725564 -109.982744 
0.6479437500000000 -18.328973 -100.660302 -2.332806 -41.366663 -2.318444 -41.204398 -19.738227 -111.159474 
0.6553875000000000 -18.329108 -101.509382 -2.347315 -41.831221 -2.322425 -41.623480 -19.747894 -111.916929 
0.6628312500000000 -18.314955 -102.377280 -2.355404 -42.302383 -2.308953 -42.160149 -19.740265 -112.798052 
0.6702750000000000 -18.316784 -103.186808 -2.362732 -42.785804 -2.300769 -42.641896 -19.729012 -113.584979 
0.6777187500000000 -18.311314 -104.046714 -2.364672 -43.303431 -2.299976 -43.209633 -19.727957 -114.351568 
0.6851625000000000 -18.288092 -104.857201 -2.366439 -43.757849 -2.307735 -43.738790 -19.728074 -115.194130 
0.6926062500000000 -18.279577 -105.715868 -2.378090 -44.253743 -2.321586 -44.255354 -19.712993 -116.172590 
0.7000500000000000 -18.290377 -106.472110 -2.384367 -44.684369 -2.335244 -44.779981 -19.689468 -117.108300 
0.7074937500000000 -18.277588 -107.269441 -2.395074 -45.164522 -2.356120 -45.212440 -19.695150 -117.998750 
0.7149375000000000 -18.289358 -108.071675 -2.405611 -45.530063 -2.365752 -45.623424 -19.683879 -118.954094 
0.7223812500000000 -18.300070 -108.757750 -2.405986 -45.965604 -2.367109 -46.018130 -19.694976 -119.723415 
0.7298250000000000 -18.284944 -109.639460 -2.401145 -46.405287 -2.365183 -46.456319 -19.694049 -120.507803 
0.7372687500000000 -18.264952 -110.424899 -2.392342 -46.843725 -2.367684 -46.892113 -19.688002 -121.430965 
0.7447125000000000 -18.273422 -111.377873 -2.392092 -47.295037 -2.368302 -47.352143 -19.670509 -122.212158 
0.7521562500000000 -18.256878 -112.195913 -2.389040 -47.818913 -2.366715 -47.899455 -19.658697 -123.043686 
0.7596000000000001 -18.242309 -113.044337 -2.385727 -48.345820 -2.374028 -48.328292 -19.640627 -123.946567 
0.7670437500000000 -18.261030 -113.908538 -2.399581 -48.839445 -2.386833 -48.753885 -19.621824 -124.704021 
0.7744875000000000 -18.257914 -114.611501 -2.412166 -49.347377 -2.390402 -49.212399 -19.617029 -125.512878 
0.7819312500000000 -18.231394 -115.329805 -2.418827 -49.722672 -2.393312 -49.659767 -19.622724 -126.398185 
0.7893750000000001 -18.228597 -116.156113 -2.422215 -50.183777 -2.387099 -50.064764 -19.614943 -127.203606 
0.7968187500000000 -18.200533 -116.767658 -2.422549 -50.628802 -2.382916 -50.521379 -19.599316 -127.896402 
0.8042625000000000 -18.181307 -117.482362 -2.411934 -51.102637 -2.381459 -51.051737 -19.586804 -128.670876 
0.8117062500000000 -18.181301 -118.304725 -2.420654 -51.618397 -2.389256 -51.535420 -19.556881 -129.553473 
0.8191500000000000 -18.151629 -118.984261 -2.432092 -52.126433 -2.387161 -52.023878 -19.557200 -130.063530 
0.8265937500000000 -18.174132 -119.651937 -2.435559 -52.637578 -2.396070 -52.540275 -19.534525 -130.827345 
0.8340375000000000 -18.160828 -120.250962 -2.448443 -53.052685 -2.394985 -53.049014 -19.539031 -131.561072 
0.8414812500000000 -18.148422 -120.814137 -2.473569 -53.464850 -2.402450 -53.546974 -19.502662 -132.304790 
0.8489250000000000 -18.136141 -121.348469 -2.470623 -53.779391 -2.411889 -53.904745 -19.518046 -132.914618 
0.8563687500000000 -18.124378 -122.183472 -2.464940 -54.297375 -2.416816 -54.490512 -19.507039 -133.729499 
0.8638125000000000 -18.135582 -122.763187 -2.469967 -54.715962 -2.438321 -54.826467 -19.478703 -134.308636 
0.8712562500000000 -18.134213 -123.291525 -2.466963 -55.217878 -2.442552 -55.278768 -19.492142 -135.004372 
0.8787000000000000 -18.140169 -124.131946 -2.471305 -55.660838 -2.456216 -55.630435 -19.481116 -135.698835 
0.8861437500000000 -18.162929 -124.830875 -2.476325 -56.149340 -2.464471 -56.087086 -19.451299 -136.305910 
0.8935875000000000 -18.180654 -125.604865 -2.488758 -56.617360 -2.452682 -56.501603 -19.426418 -136.889775 
0.9010312500000000 -18.177865 -126.033105 -2.479742 -56.998368 -2.455697 -56.890944 -19.439040 -137.610260 
0.9084750000000000 -18.143006 -126.991678 -2.475706 -57.546287 -2.454931 -57.443595 -19.392115 -138.283027 
0.9159187500000000 -18.151351 -127.662087 -2.494259 -57.945216 -2.463173 -57.845959 -19.403673 -138.713867 
0.9233625000000000 -18.155491 -128.281913 -2.492550 -58.462098 -2.468253 -58.268456 -19.383178 -139.397820 
0.9308062500000000 -18.160744 -129.059202 -2.489625 -58.882869 -2.470024 -58.691934 -19.368688 -140.112978 
0.9382500000000000 -18.133990 -129.824084 -2.505730 -59.392375 -2.457188 -59.136119 -19.382166 -140.612482 
0.9456937500000000 -18.167091 -130.305472 -2.521543 -59.875312 -2.456536 -59.602442 -19.381053 -141.187614 
0.9531375000000000 -18.141598 -130.906204 -2.527977 -60.239453 -2.449839 -60.126871 -19.413810 -141.677764 
0.9605812500000001 -18.094682 -131.608614 -2.535059 -60.740059 -2.460646 -60.689285 -19.382992 -142.202151 
0.9680250000000000 -18.106297 -132.222618 -2.536571 -61.085491 -2.463486 -61.244442 -19.376860 -142.932770 
0.9754687500000000 -18.088318 -132.811795 -2.527507 -61.566326 -2.488326 -61.682053 -19.472718 -143.859505 
0.9829125000000000 -18.063619 -133.436676 -2.535022 -61.975303 -2.506471 -62.143972 -19.374676 -143.885900 
0.9903562500000001 -18.056402 -133.952130 -2.533237 -62.455127 -2.513760 -62.527311 -19.388747 -144.449063 
0.9978000000000000 -18.073519 -134.408193 -2.538683 -62.866191 -2.521478 -62.926904 -19.411363 -144.785943 
1.0052437500000000 -18.067790 -135.001239 -2.544819 -63.344804 -2.521331 -63.333548 -19.410054 -145.426898 
1.0126875000000000 -18.061818 -135.635524 -2.550411 -63.761137 -2.522916 -63.795658 -19.434033 -145.937921 
1.0201312499999999 -18.071545 -136.128934 -2.547452 -64.169953 -2.518414 -64.316946 -19.429999 -146.313339 
1.0275749999999999 -18.092550 -136.693913 -2.547166 -64.599851 -2.522962 -64.766024 -19.428601 -146.946791 
1.0350187500000001 -18.095645 -137.157755 -2.543772 -65.120435 -2.544059 -65.197032 -19.452783 -147.524083 
1.0424625000000001 -18.121278 -137.742298 -2.566484 -65.599020 -2.556144 -65.596444 -19.466689 -148.109442 
1.0499062500000000 -18.133174 -138.245386 -2.563989 -66.021052 -2.552167 -65.955582 -19.476326 -148.584873 
1.0573500000000000 -18.133236 -138.917397 -2.583200 -66.484257 -2.559340 -66.352877 -19.489049 -149.162059 
1.0647937500000000 -18.156992 -139.618829 -2.572880 -66.885075 -2.551197 -66.831287 -19.508694 -149.940261 
1.0722375000000000 -18.183410 -140.166504 -2.572037 -67.270357 -2.540477 -67.253277 -19.525448 -150.365491 
1.0796812499999999 -18.197874 -140.862805 -2.562792 -67.700093 -2.546349 -67.757193 -19.533241 -150.947003 
1.0871249999999999 -18.153204 -141.533918 -2.564377 -68.195099 -2.557700 -68.192489 -19.533570 -151.593043 
1.0945687500000001 -18.177842 -142.032074 -2.557072 -68.673658 -2.554697 -68.614274 -19.552920 -152.077474 
1.1020125000000001 -18.200712 -142.807093 -2.559518 -69.185662 -2.571275 -69.085705 -19.575940 -152.636226 
1.1094562500000000 -18.195291 -143.353829 -2.565301 -69.715622 -2.560761 -69.533821 -19.612642 -153.215266 
1.1169000000000000 -18.199282 -143.965049 -2.586665 -70.142444 -2.561950 -69.968941 -19.619001 -153.687537 
1.1243437500000000 -18.215798 -144.371080 -2.585725 -70.594711 -2.554970 -70.437094 -19.628973 -154.435269 
1.1317874999999999 -18.196985 -144.921257 -2.591105 -71.026317 -2.565062 -70.961066 -19.651241 -155.031433 
1.1392312499999999 -18.187907 -145.397639 -2.588651 -71.462256 -2.570590 -71.425296 -19.659048 -155.287680 
1.1466750000000001 -18.160241 -145.767457 -2.594633 -71.881112 -2.569136 -71.874243 -19.664888 -155.845127 
1.1541187500000001 -18.195871 -146.354755 -2.597199 -72.363666 -2.576131 -72.284363 -19.692897 -156.161751 
1.1615625000000001 -18.214777 -146.792152 -2.600039 -72.817502 -2.578491 -72.701276 -19.731862 -156.859289 
1.1690062500000000 -18.213871 -147.142028 -2.613131 -73.336501 -2.588436 -73.139212 -19.768444 -157.465097 
1.1764500000000000 -18.225700 -147.574176 -2.622085 -73.787280 -2.577230 -73.615767 -19.785020 -157.578926 
1.1838937500000000 -18.242452 -147.869329 -2.629114 -74.145624 -2.589690 -74.094404 -19.764942 -158.072178 
1.1913374999999999 -18.253681 -148.336648 -2.634158 -74.482986 -2.597528 -74.611077 -19.829953 -158.667041 
1.1987812499999999 -18.232671 -148.797999 -2.616947 -74.901583 -2.611009 -75.056409 -19.822300 -159.017378 
1.2062250000000001 -18.298590 -149.110825 -2.613990 -75.324858 -2.619051 -75.452918 -19.835724 -159.536081 
1.2136687500000001 -18.302575 -149.531984 -2.605459 -75.788019 -2.630896 -75.738134 -19.834969 -159.956250 
1.2211125000000000 -18.308221 -150.067925 -2.590896 -76.271211 -2.614387 -76.170043 -19.855445 -160.368590 
1.2285562500000000 -18.308278 -150.562584 -2.600482 -76.767586 -2.608006 -76.598205 -19.836340 -160.943069 
1.2360000000000000 -18.346261 -151.044189 -2.597043 -77.256875 -2.604681 -77.063935 -19.888346 -161.200683 
1.2434437500000000 -18.369058 -151.487854 -2.602463 -77.700746 -2.603024 -77.574333 -19.885418 -161.596429 
1.2508874999999999 -18.377493 -152.031941 -2.604768 -78.098095 -2.610811 -78.058314 -19.911755 -161.930408 
1.2583312499999999 -18.377496 -152.370154 -2.600592 -78.607264 -2.614192 -78.550605 -19.920869 -162.399974 
1.2657750000000001 -18.408757 -152.875012 -2.596849 -79.179305 -2.616418 -78.988533 -19.934332 -162.828693 
1.2732187500000001 -18.401770 -153.469094 -2.607310 -79.704019 -2.622455 -79.373230 -19.974783 -163.256501 
1.2806625000000000 -18.430842 -153.922869 -2.600947 -80.253023 -2.622650 -79.865852 -20.012649 -163.683587 
1.2881062500000000 -18.450243 -154.236358 -2.630843 -80.627181 -2.616588 -80.323999 -20.008419 -163.885416 
1.2955500000000000 -18.489581 -154.510271 -2.639311 -81.124315 -2.611358 -80.823062 -20.045007 -163.939022 
1.3029937500000000 -18.442908 -154.904960 -2.667826 -81.474877 -2.637367 -81.258161 -20.079032 -164.383325 
1.3104374999999999 -18.457480 -155.180902 -2.658048 -81.904488 -2.633578 -81.748011 -20.108562 -164.622786 
1.3178812499999999 -18.437703 -155.466140 -2.666107 -82.252070 -2.643909 -82.145146 -20.127795 -164.877559 
1.3253250000000001 -18.443715 -155.757002 -2.645598 -82.696170 -2.648066 -82.526669 -20.149046 -165.143493 
1.3327687500000001 -18.469944 -155.946147 -2.663886 -83.147599 -2.647403 -83.000587 -20.185140 -165.338828 
1.3402125000000000 -18.475368 -156.335237 -2.666250 -83.569253 -2.642921 -83.393329 -20.213759 -165.685035 
1.3476562500000000 -18.501388 -156.619059 -2.662522 -84.047571 -2.639311 -83.863380 -20.241908 -165.915791 
1.3551000000000000 -18.510517 -156.955663 -2.657241 -84.411550 -2.649090 -84.373907 -20.242076 -165.966481 
1.3625437499999999 -18.526449 -157.395310 -2.667163 -84.775226 -2.650080 -84.873659 -20.284513 -166.445236 
1.3699874999999999 -18.538779 -157.635341 -2.651686 -85.215669 -2.654185 -85.328600 -20.303979 -166.553920 
1.3774312500000001 -18.520405 -157.933999 -2.629735 -85.728725 -2.667610 -85.698104 -20.336042 -167.058682 
1.3848750000000001 -18.537152 -158.333025 -2.624759 -86.240998 -2.655648 -86.091972 -20.345495 -167.648071 
1.3923187500000000 -18.589595 -158.850036 -2.620348 -86.773481 -2.655293 -86.496519 -20.364334 -167.630161 
1.3997625000000000 -18.597542 -159.084805 -2.631982 -87.345194 -2.637889 -86.982853 -20.389774 -168.007267 
