!
! C:\Users\Aljaz\OneDrive - Univerza v Ljubljani\DOKTORAT\NOVI SA\Slabilec PE43711B\meritve\20dB.S2P
!
! Touchstone 1.1 file saved by VNA.EXE V1.65 (www.ke5fx.com/gpib/readme.htm)
! 2. 04. 2022 19:17:16
!
!    Source: HP8510C.07.14: Aug 26  1998 
!  Min freq: 4.500000E+007 Hz
!  Max freq: 6.000000E+009 Hz
!    Points: 801
!    Params: S11 S21 S12 S22
!
!!!!!
# GHZ S DB R 50
0.0450000000000000 -27.757904 -35.512546 -21.135485 -0.022417 -21.059165 -0.041975 -16.582921 -173.188164 
0.0524437500000000 -28.002193 -33.607827 -21.117336 -0.942124 -21.055657 -0.977421 -16.638814 -175.313257 
0.0598875000000000 -28.165913 -32.647802 -21.116030 -1.563464 -21.049598 -1.645309 -16.649898 -176.916123 
0.0673312500000000 -28.385801 -32.192771 -21.138533 -2.263126 -21.078689 -2.123752 -16.670602 -178.244808 
0.0747750000000000 -28.451140 -32.297778 -21.126677 -2.892727 -21.071284 -2.849563 -16.672421 -179.415871 
0.0822187500000000 -28.523789 -32.294971 -21.112066 -3.462592 -21.071413 -3.421638 -16.699269 179.524678 
0.0896625000000000 -28.486240 -32.554690 -21.134986 -3.938502 -21.068087 -3.918147 -16.704049 178.438526 
0.0971062500000000 -28.487083 -33.007197 -21.135474 -4.598154 -21.070944 -4.472283 -16.716363 177.516160 
0.1045500000000000 -28.472014 -33.455346 -21.134661 -5.075143 -21.064324 -4.999381 -16.722564 176.565934 
0.1119937500000000 -28.371420 -34.283645 -21.134914 -5.593117 -21.082967 -5.524840 -16.732303 175.774117 
0.1194375000000000 -28.372380 -34.855172 -21.135319 -6.034040 -21.064309 -6.099007 -16.767822 174.910318 
0.1268812500000000 -28.340383 -35.776456 -21.143750 -6.508975 -21.087826 -6.649053 -16.763568 174.114124 
0.1343250000000000 -28.243695 -36.169450 -21.138411 -6.976666 -21.085330 -7.096138 -16.781965 173.394188 
0.1417687500000000 -28.180072 -36.784419 -21.134617 -7.528481 -21.087371 -7.592349 -16.803487 172.545515 
0.1492125000000000 -28.170120 -37.641986 -21.143463 -8.004226 -21.085255 -8.092978 -16.808433 171.783423 
0.1566562500000000 -28.143246 -38.145086 -21.124190 -8.499153 -21.100406 -8.473230 -16.825711 171.036840 
0.1641000000000000 -28.116373 -38.944399 -21.129408 -8.995405 -21.100871 -9.008357 -16.837527 170.276506 
0.1715437500000000 -28.037306 -39.759505 -21.149880 -9.499647 -21.106460 -9.416613 -16.855793 169.547870 
0.1789875000000000 -28.035591 -40.574239 -21.149077 -9.944246 -21.100581 -9.996626 -16.859926 168.783225 
0.1864312500000000 -28.045238 -41.475884 -21.136872 -10.365457 -21.112975 -10.425064 -16.865152 168.026744 
0.1938750000000000 -28.031565 -42.554358 -21.150361 -10.838687 -21.102449 -10.861722 -16.875517 167.353386 
0.2013187500000000 -28.011755 -43.588738 -21.152287 -11.319235 -21.103374 -11.371256 -16.878398 166.622481 
0.2087625000000000 -27.988131 -44.775147 -21.133590 -11.797852 -21.112194 -11.816628 -16.877618 165.894934 
0.2162062500000000 -27.952256 -45.888026 -21.147813 -12.266362 -21.107497 -12.317937 -16.886426 165.214773 
0.2236500000000000 -27.928790 -47.093167 -21.157117 -12.806700 -21.113551 -12.789950 -16.891376 164.550818 
0.2310937500000000 -27.871123 -48.346804 -21.159556 -13.235942 -21.120335 -13.236531 -16.901732 163.892789 
0.2385375000000000 -27.805615 -49.580247 -21.165457 -13.664023 -21.123387 -13.676075 -16.906059 163.274963 
0.2459812500000000 -27.772400 -50.845308 -21.173912 -14.084789 -21.116294 -14.215274 -16.904864 162.694717 
0.2534250000000000 -27.695223 -51.939974 -21.166147 -14.528541 -21.116544 -14.608327 -16.910055 162.054175 
0.2608687500000000 -27.609268 -53.007287 -21.173895 -15.098222 -21.094768 -14.919601 -16.923435 161.460272 
0.2683125000000000 -27.487236 -54.097439 -21.183907 -15.539393 -21.113125 -15.327679 -16.941349 160.790310 
0.2757562500000000 -27.354911 -55.170412 -21.185637 -15.933007 -21.106736 -15.839339 -16.953241 160.283027 
0.2832000000000000 -27.284507 -56.069436 -21.196829 -16.371985 -21.113891 -16.338920 -16.965876 159.639493 
0.2906437500000000 -27.215628 -56.823984 -21.189709 -16.810638 -21.118931 -16.750681 -16.984548 158.995990 
0.2980875000000000 -27.092051 -57.641829 -21.173164 -17.235530 -21.120653 -17.232531 -16.997252 158.419201 
0.3055312500000000 -26.972114 -58.470775 -21.191431 -17.654035 -21.155354 -17.609894 -17.008420 157.879357 
0.3129750000000000 -26.911922 -59.157114 -21.177249 -18.163467 -21.129674 -18.079146 -17.029171 157.276006 
0.3204187500000000 -26.783090 -59.836318 -21.184039 -18.584656 -21.143417 -18.605245 -17.038001 156.494500 
0.3278625000000000 -26.731078 -60.616398 -21.187528 -19.121997 -21.142124 -19.047464 -17.075722 156.000444 
0.3353062500000000 -26.650806 -61.272506 -21.211492 -19.603112 -21.143896 -19.489960 -17.097021 155.340062 
0.3427500000000000 -26.572020 -62.163147 -21.198220 -20.009256 -21.163551 -19.971362 -17.125453 154.754921 
0.3501937500000000 -26.531770 -63.342679 -21.205382 -20.519016 -21.152043 -20.244090 -17.131800 154.006855 
0.3576375000000000 -26.503497 -64.295757 -21.205006 -20.845518 -21.162645 -20.854345 -17.152597 153.389877 
0.3650812500000000 -26.432318 -65.199085 -21.203213 -21.371131 -21.161047 -21.257233 -17.174572 152.711237 
0.3725250000000000 -26.387893 -66.042134 -21.208053 -21.788815 -21.160237 -21.727653 -17.190374 152.163079 
0.3799687500000000 -26.394879 -67.289208 -21.233264 -22.263122 -21.155348 -22.175081 -17.206179 151.386643 
0.3874125000000000 -26.313235 -68.179701 -21.218078 -22.676542 -21.161716 -22.532611 -17.219954 150.751181 
0.3948562500000000 -26.237089 -69.120312 -21.223587 -23.120615 -21.175781 -22.983688 -17.234555 150.192801 
0.4023000000000000 -26.210048 -70.150681 -21.226834 -23.497062 -21.152351 -23.545635 -17.244929 149.562787 
0.4097437500000000 -26.124312 -70.979582 -21.241235 -23.932281 -21.169653 -24.005399 -17.269282 148.962893 
0.4171875000000000 -26.054376 -71.762804 -21.233423 -24.428526 -21.172322 -24.465900 -17.294396 148.377403 
0.4246312500000000 -25.993414 -72.854978 -21.231526 -24.824569 -21.188290 -24.872460 -17.312609 147.620225 
0.4320750000000000 -25.864864 -73.555939 -21.221454 -25.246382 -21.166909 -25.309431 -17.337832 147.132265 
0.4395187500000000 -25.806216 -74.355124 -21.233313 -25.685157 -21.198427 -25.711127 -17.365060 146.570422 
0.4469625000000000 -25.682129 -75.005212 -21.225085 -26.171121 -21.193701 -26.131042 -17.383956 145.908029 
0.4544062500000000 -25.640759 -75.694314 -21.233824 -26.593215 -21.186284 -26.686066 -17.421516 145.294469 
0.4618500000000000 -25.537568 -76.169346 -21.241111 -27.117578 -21.197893 -27.166454 -17.449421 144.700817 
0.4692937500000000 -25.483074 -76.853243 -21.237450 -27.630238 -21.209767 -27.517854 -17.478678 144.115075 
0.4767375000000000 -25.398590 -77.443825 -21.230429 -28.084484 -21.219341 -28.039789 -17.527476 143.483278 
0.4841812500000000 -25.324856 -77.981048 -21.243658 -28.549472 -21.208764 -28.461704 -17.563810 142.855016 
0.4916250000000000 -25.282528 -78.536516 -21.262277 -28.971137 -21.228076 -28.883924 -17.618929 142.270013 
0.4990687500000000 -25.218842 -79.135250 -21.261307 -29.361194 -21.227187 -29.390803 -17.650951 141.616280 
0.5065125000000000 -25.178029 -79.763814 -21.285669 -29.816236 -21.235828 -29.703935 -17.702382 140.956340 
0.5139562500000000 -25.105467 -80.351079 -21.278403 -30.303647 -21.243107 -30.226300 -17.758693 140.408464 
0.5214000000000000 -25.054595 -81.069770 -21.293608 -30.647917 -21.241604 -30.656290 -17.809837 139.808627 
0.5288437500000000 -24.968937 -81.665329 -21.311816 -31.065766 -21.248902 -31.140771 -17.866955 139.166153 
0.5362875000000000 -24.837356 -82.396156 -21.316722 -31.463204 -21.259570 -31.559169 -17.909497 138.744575 
0.5437312500000000 -24.717063 -83.155430 -21.327183 -31.855573 -21.284963 -31.990340 -17.969479 138.223937 
0.5511750000000000 -24.618262 -84.093982 -21.313516 -32.177324 -21.282513 -32.363356 -18.007590 137.682011 
0.5586187500000001 -24.484274 -84.949982 -21.323935 -32.591456 -21.283223 -32.877713 -18.049120 137.277188 
0.5660625000000000 -24.374913 -85.931262 -21.330908 -32.948148 -21.295728 -33.206608 -18.083730 136.811242 
0.5735062500000000 -24.262813 -86.852847 -21.318450 -33.381032 -21.299329 -33.580950 -18.104985 136.366945 
0.5809500000000000 -24.173909 -87.909122 -21.332377 -33.772047 -21.304391 -33.933091 -18.128558 135.936988 
0.5883937500000001 -24.079952 -88.639898 -21.315827 -34.306553 -21.303214 -34.428218 -18.145375 135.414456 
0.5958375000000000 -23.966717 -89.485825 -21.314016 -34.526463 -21.286447 -34.749492 -18.150132 134.902574 
0.6032812500000000 -23.914801 -90.284710 -21.317453 -35.068704 -21.311183 -35.198171 -18.166893 134.385527 
0.6107250000000000 -23.839899 -91.227777 -21.319429 -35.420559 -21.299473 -35.526465 -18.188850 133.797991 
0.6181687500000000 -23.783527 -91.821464 -21.325004 -35.910575 -21.298641 -35.972888 -18.209121 133.319677 
0.6256125000000000 -23.743168 -92.600576 -21.315658 -36.391788 -21.292460 -36.376828 -18.218784 132.629989 
0.6330562500000000 -23.686134 -93.202440 -21.325140 -36.840873 -21.294314 -36.802920 -18.229548 132.017555 
0.6405000000000000 -23.660241 -93.907145 -21.321520 -37.282162 -21.285294 -37.243953 -18.252321 131.398280 
0.6479437500000000 -23.630344 -94.669357 -21.318519 -37.767438 -21.290855 -37.671254 -18.268772 130.693356 
0.6553875000000000 -23.604636 -95.243573 -21.342188 -38.134731 -21.294684 -38.105503 -18.292982 129.998470 
0.6628312500000000 -23.598516 -96.117381 -21.344147 -38.492846 -21.294960 -38.569471 -18.317718 129.325517 
0.6702750000000000 -23.543588 -96.852694 -21.340728 -38.896407 -21.279579 -38.995213 -18.336445 128.671645 
0.6777187500000000 -23.508539 -97.729195 -21.334373 -39.351988 -21.284100 -39.487302 -18.366724 127.949318 
0.6851625000000000 -23.455299 -98.526257 -21.335575 -39.718757 -21.278943 -39.956344 -18.390032 127.232350 
0.6926062500000000 -23.418823 -99.385626 -21.346826 -40.190199 -21.295074 -40.407838 -18.403989 126.592349 
0.7000500000000000 -23.340040 -100.124224 -21.348770 -40.620126 -21.303999 -40.873186 -18.427670 125.889401 
0.7074937500000000 -23.315012 -100.925062 -21.331020 -40.970475 -21.302205 -41.361731 -18.470957 125.241727 
0.7149375000000000 -23.236356 -101.604849 -21.334338 -41.378926 -21.309018 -41.625308 -18.494855 124.479180 
0.7223812500000000 -23.171939 -102.180751 -21.310438 -41.885768 -21.327324 -42.085261 -18.536089 123.828867 
0.7298250000000000 -23.109640 -102.844872 -21.304278 -42.366290 -21.328147 -42.589768 -18.558023 123.137569 
0.7372687500000000 -23.024081 -103.361950 -21.316242 -42.881035 -21.302917 -42.986698 -18.580854 122.445141 
0.7447125000000000 -22.961822 -103.903545 -21.315625 -43.424541 -21.320887 -43.378584 -18.626371 121.763486 
0.7521562500000000 -22.893609 -104.349127 -21.319334 -43.940319 -21.327766 -43.838430 -18.653204 121.039507 
0.7596000000000001 -22.821059 -104.849012 -21.343275 -44.313571 -21.322040 -44.278349 -18.677059 120.400448 
0.7670437500000000 -22.776594 -105.220018 -21.343814 -44.746527 -21.336380 -44.678245 -18.710229 119.744872 
0.7744875000000000 -22.737273 -105.718279 -21.349472 -45.164281 -21.334995 -45.120749 -18.744107 119.095029 
0.7819312500000000 -22.669912 -106.187086 -21.353830 -45.500316 -21.339810 -45.548195 -18.769390 118.305261 
0.7893750000000001 -22.657146 -106.744445 -21.349596 -45.871990 -21.329013 -45.960888 -18.809788 117.764310 
0.7968187500000000 -22.601427 -107.108799 -21.349281 -46.389258 -21.344609 -46.430926 -18.840066 117.089339 
0.8042625000000000 -22.563553 -107.708877 -21.357220 -46.838811 -21.332527 -46.823680 -18.883172 116.431834 
0.8117062500000000 -22.539288 -108.184042 -21.360303 -47.256366 -21.321730 -47.300390 -18.924355 115.874140 
0.8191500000000000 -22.486344 -108.750592 -21.369906 -47.715296 -21.344240 -47.737979 -18.962105 115.223106 
0.8265937500000000 -22.457086 -109.353964 -21.371739 -48.118183 -21.347861 -48.248812 -19.009762 114.573555 
0.8340375000000000 -22.396552 -109.947919 -21.380749 -48.411783 -21.345601 -48.674599 -19.056456 113.923069 
0.8414812500000000 -22.344916 -110.596594 -21.364452 -48.901884 -21.347781 -49.176662 -19.093981 113.297875 
0.8489250000000000 -22.290590 -110.818121 -21.358069 -49.263159 -21.340330 -49.326783 -19.173766 112.592658 
0.8563687500000000 -22.191319 -111.629041 -21.366868 -49.768299 -21.337153 -49.900323 -19.219845 111.907506 
0.8638125000000000 -22.164988 -111.980030 -21.381420 -50.169170 -21.356081 -50.288316 -19.290392 111.332382 
0.8712562500000000 -22.072135 -112.570137 -21.370143 -50.738681 -21.361735 -50.638641 -19.330229 110.503471 
0.8787000000000000 -22.032423 -112.979547 -21.388845 -51.179577 -21.357005 -51.135074 -19.389687 109.751950 
0.8861437500000000 -21.963985 -113.480319 -21.379022 -51.484220 -21.371211 -51.456508 -19.447013 109.228781 
0.8935875000000000 -21.928500 -113.864399 -21.399022 -52.020301 -21.363646 -51.913296 -19.530338 108.480132 
0.9010312500000000 -21.855518 -114.143840 -21.397841 -52.286459 -21.380753 -52.295805 -19.558420 107.787881 
0.9084750000000000 -21.826763 -114.660037 -21.390320 -52.918744 -21.374514 -52.772670 -19.621249 107.236565 
0.9159187500000000 -21.780021 -114.967951 -21.392462 -53.245044 -21.378086 -53.229487 -19.676988 106.442065 
0.9233625000000000 -21.753233 -115.450236 -21.404417 -53.653207 -21.379251 -53.562026 -19.735500 105.713294 
0.9308062500000000 -21.720228 -115.786950 -21.398132 -54.049264 -21.388986 -53.931333 -19.791343 105.195046 
0.9382500000000000 -21.686582 -116.474846 -21.405673 -54.576429 -21.382892 -54.396780 -19.857855 104.467003 
0.9456937500000000 -21.670909 -116.746325 -21.396667 -54.964241 -21.373640 -54.917376 -19.902002 103.604336 
0.9531375000000000 -21.618847 -117.383592 -21.410403 -55.201755 -21.378750 -55.305980 -19.958065 102.914077 
0.9605812500000001 -21.571564 -118.184032 -21.421947 -55.789404 -21.386582 -55.761654 -20.036061 102.326224 
0.9680250000000000 -21.564415 -118.694423 -21.407478 -56.222966 -21.387735 -56.300689 -20.093592 101.706829 
0.9754687500000000 -21.512332 -119.398990 -21.415141 -56.624567 -21.390014 -56.699780 -20.162865 100.938686 
0.9829125000000000 -21.451579 -119.898676 -21.400480 -57.059243 -21.419017 -57.087259 -20.217435 100.353953 
0.9903562500000001 -21.381821 -120.631071 -21.416566 -57.418895 -21.429214 -57.530586 -20.295636 99.468272 
0.9978000000000000 -21.312502 -121.166488 -21.420643 -57.986431 -21.425748 -57.855928 -20.376796 98.889680 
1.0052437500000000 -21.249290 -121.621223 -21.443922 -58.243031 -21.423126 -58.300564 -20.413999 98.130748 
1.0126875000000000 -21.188709 -122.163451 -21.421912 -58.830499 -21.421334 -58.883933 -20.513419 97.272557 
1.0201312499999999 -21.137748 -122.553933 -21.412967 -59.202080 -21.417365 -59.235703 -20.582998 96.603735 
1.0275749999999999 -21.066237 -122.861434 -21.429255 -59.754321 -21.407749 -59.613685 -20.657133 95.797384 
1.0350187500000001 -20.987605 -123.207838 -21.427271 -60.086417 -21.443147 -59.963508 -20.717661 94.991537 
1.0424625000000001 -20.933910 -123.602993 -21.446391 -60.557726 -21.445778 -60.456200 -20.766032 94.329680 
1.0499062500000000 -20.881956 -123.849763 -21.431965 -60.968680 -21.455436 -60.838215 -20.839138 93.497647 
1.0573500000000000 -20.852761 -124.413646 -21.419255 -61.291362 -21.460161 -61.252304 -20.916253 92.636202 
1.0647937500000000 -20.838658 -124.650852 -21.426796 -61.744778 -21.451985 -61.667053 -20.930951 91.676533 
1.0722375000000000 -20.804558 -124.974343 -21.414253 -62.258110 -21.435453 -62.070691 -21.023569 90.963978 
1.0796812499999999 -20.812819 -125.409058 -21.414848 -62.699835 -21.441374 -62.527950 -21.083906 89.975236 
1.0871249999999999 -20.780463 -125.842608 -21.423626 -63.112514 -21.453832 -62.912630 -21.130050 89.367695 
1.0945687500000001 -20.771759 -126.327164 -21.451545 -63.559716 -21.434032 -63.265472 -21.195937 88.439645 
1.1020125000000001 -20.762928 -127.013073 -21.451881 -64.085394 -21.459574 -63.631523 -21.248406 87.541355 
1.1094562500000000 -20.729464 -127.671499 -21.450144 -64.334779 -21.451835 -64.203236 -21.303356 86.775656 
1.1169000000000000 -20.710789 -128.192664 -21.468495 -64.818302 -21.459359 -64.557775 -21.372526 85.918762 
1.1243437500000000 -20.675912 -128.790056 -21.443860 -65.290114 -21.447198 -65.018205 -21.393111 85.185859 
1.1317874999999999 -20.629193 -129.703573 -21.463481 -65.679784 -21.459058 -65.403267 -21.480538 84.278061 
1.1392312499999999 -20.567488 -130.175114 -21.455531 -66.017829 -21.458438 -65.870564 -21.545027 83.486797 
1.1466750000000001 -20.505201 -130.732203 -21.444582 -66.540440 -21.469817 -66.391818 -21.615194 82.707160 
1.1541187500000001 -20.457011 -131.193509 -21.491105 -66.966327 -21.467102 -66.780345 -21.708074 81.736696 
1.1615625000000001 -20.395871 -131.719404 -21.470823 -67.275979 -21.488104 -67.132494 -21.738211 81.038063 
1.1690062500000000 -20.311722 -132.129676 -21.472662 -67.848042 -21.495097 -67.498563 -21.794694 80.156411 
1.1764500000000000 -20.240814 -132.622257 -21.472964 -68.129348 -21.478512 -67.963773 -21.897248 79.369486 
1.1838937500000000 -20.180204 -132.768294 -21.464656 -68.538248 -21.480585 -68.494106 -21.963964 78.518638 
1.1913374999999999 -20.154125 -133.162228 -21.465964 -68.945768 -21.481439 -68.936990 -22.007921 77.414735 
1.1987812499999999 -20.098802 -133.391278 -21.435355 -69.483791 -21.501486 -69.408682 -22.097998 76.675824 
1.2062250000000001 -20.076388 -133.467174 -21.467549 -69.991910 -21.503154 -69.698525 -22.175502 75.779210 
1.2136687500000001 -20.055036 -133.691863 -21.456922 -70.500746 -21.512065 -70.108903 -22.241111 74.700469 
1.2211125000000000 -20.044865 -133.987067 -21.465398 -70.974310 -21.504980 -70.487443 -22.317124 73.880552 
1.2285562500000000 -20.015328 -134.348182 -21.472841 -71.302187 -21.482171 -70.905944 -22.398612 73.081113 
1.2360000000000000 -20.027837 -134.844954 -21.485784 -71.795503 -21.500144 -71.235640 -22.450531 71.918805 
1.2434437500000000 -20.032806 -135.032579 -21.484820 -72.271927 -21.496633 -71.747345 -22.535922 71.042137 
1.2508874999999999 -20.026415 -135.623190 -21.477220 -72.690022 -21.493466 -72.237331 -22.630688 70.107138 
1.2583312499999999 -20.019447 -136.180391 -21.497872 -73.017179 -21.497629 -72.686102 -22.688067 69.114530 
1.2657750000000001 -20.019562 -136.651442 -21.514054 -73.682555 -21.514238 -73.220756 -22.762861 68.166791 
1.2732187500000001 -20.005642 -137.407062 -21.519920 -74.126491 -21.505346 -73.441918 -22.827606 67.143589 
1.2806625000000000 -19.976368 -138.110324 -21.525526 -74.324437 -21.521639 -73.920102 -22.919659 66.132240 
1.2881062500000000 -19.935921 -138.733658 -21.529700 -74.657551 -21.508837 -74.317488 -22.992954 65.276999 
1.2955500000000000 -19.883708 -139.293676 -21.507407 -75.182468 -21.495713 -74.893812 -23.109536 64.099116 
1.3029937500000000 -19.829582 -139.902459 -21.511796 -75.457152 -21.517873 -75.250346 -23.158168 63.161467 
1.3104374999999999 -19.779736 -140.305472 -21.502463 -76.081608 -21.518762 -75.730144 -23.265381 62.061111 
1.3178812499999999 -19.705488 -140.902658 -21.499415 -76.436878 -21.523991 -76.059786 -23.353807 60.886519 
1.3253250000000001 -19.644962 -141.235994 -21.492131 -76.829918 -21.527333 -76.579980 -23.427712 59.943162 
1.3327687500000001 -19.582241 -141.478452 -21.511286 -77.358058 -21.530857 -76.952038 -23.562397 58.502980 
1.3402125000000000 -19.545938 -141.819008 -21.509636 -77.829140 -21.529801 -77.295900 -23.624343 57.556285 
1.3476562500000000 -19.490463 -142.042584 -21.507712 -78.233196 -21.520767 -77.823950 -23.687861 56.338199 
1.3551000000000000 -19.457261 -142.280428 -21.494702 -78.669701 -21.545362 -78.173343 -23.787302 55.048409 
1.3625437499999999 -19.417667 -142.525497 -21.485638 -79.202238 -21.548895 -78.637809 -23.859266 53.737826 
1.3699874999999999 -19.385328 -142.780667 -21.520949 -79.671631 -21.530641 -78.970231 -23.915883 52.525950 
1.3774312500000001 -19.375499 -142.924259 -21.514603 -80.088943 -21.543056 -79.342336 -23.967542 51.212996 
1.3848750000000001 -19.359208 -143.251511 -21.529732 -80.518394 -21.544061 -79.781789 -24.036610 50.215807 
