!
! C:\Users\Aljaz\OneDrive - Univerza v Ljubljani\DOKTORAT\NOVI SA\Slabilec PE43711B\meritve\2dB.S2P
!
! Touchstone 1.1 file saved by VNA.EXE V1.65 (www.ke5fx.com/gpib/readme.htm)
! 2. 04. 2022 19:12:01
!
!    Source: HP8510C.07.14: Aug 26  1998 
!  Min freq: 4.500000E+007 Hz
!  Max freq: 6.000000E+009 Hz
!    Points: 801
!    Params: S11 S21 S12 S22
!
!!!!!
# GHZ S DB R 50
0.0450000000000000 -19.689869 -22.191086 -3.050490 -0.655856 -2.997647 -0.595083 -28.507945 -69.793110 
0.0524437500000000 -19.776854 -21.459632 -3.034167 -1.497846 -2.986574 -1.489659 -29.254281 -68.459497 
0.0598875000000000 -19.846347 -21.409834 -3.048270 -2.225893 -2.998159 -2.185898 -29.678921 -68.079532 
0.0673312500000000 -19.875201 -21.607371 -3.049516 -2.927404 -3.004974 -2.850561 -30.061948 -67.810785 
0.0747750000000000 -19.878370 -22.145203 -3.041831 -3.558687 -3.008232 -3.490438 -30.249487 -68.172171 
0.0822187500000000 -19.910638 -22.704898 -3.046595 -4.093228 -3.007792 -4.060074 -30.399830 -68.447560 
0.0896625000000000 -19.912125 -23.600884 -3.056032 -4.678585 -3.016795 -4.617734 -30.506979 -69.141878 
0.0971062500000000 -19.938662 -24.337984 -3.050712 -5.281696 -3.006540 -5.230006 -30.564169 -69.590932 
0.1045500000000000 -19.932995 -25.185657 -3.061778 -5.815785 -3.003891 -5.796896 -30.580732 -70.217182 
0.1119937500000000 -19.933792 -26.131441 -3.050691 -6.405484 -3.015582 -6.334726 -30.517716 -71.032623 
0.1194375000000000 -19.937084 -26.947395 -3.065431 -6.902465 -3.009389 -6.942539 -30.459371 -71.832935 
0.1268812500000000 -19.916581 -27.932161 -3.063605 -7.417574 -3.022109 -7.424473 -30.373195 -72.862263 
0.1343250000000000 -19.882511 -28.972715 -3.054861 -7.974384 -3.012030 -8.007330 -30.330279 -73.850223 
0.1417687500000000 -19.890082 -29.902552 -3.068248 -8.509966 -3.034611 -8.481842 -30.209984 -74.789444 
0.1492125000000000 -19.873688 -30.959322 -3.073790 -8.976642 -3.031149 -9.052777 -30.067126 -76.027110 
0.1566562500000000 -19.869454 -31.941937 -3.068136 -9.545807 -3.041130 -9.541063 -29.967773 -77.137518 
0.1641000000000000 -19.852177 -32.919464 -3.070908 -10.054282 -3.037556 -10.070774 -29.890125 -78.289206 
0.1715437500000000 -19.836363 -34.049975 -3.085809 -10.558519 -3.040725 -10.578953 -29.790736 -79.438364 
0.1789875000000000 -19.837794 -35.072335 -3.080985 -11.057652 -3.038274 -11.098786 -29.654015 -80.528948 
0.1864312500000000 -19.821037 -36.259245 -3.077356 -11.558689 -3.048239 -11.516943 -29.522808 -81.992488 
0.1938750000000000 -19.821895 -37.384243 -3.086178 -12.024196 -3.046577 -12.067703 -29.426136 -82.978904 
0.2013187500000000 -19.807472 -38.446471 -3.089303 -12.562372 -3.046978 -12.579174 -29.293907 -84.345205 
0.2087625000000000 -19.811588 -39.655231 -3.087780 -13.089800 -3.055078 -13.049949 -29.187147 -85.842185 
0.2162062500000000 -19.808588 -40.882824 -3.089262 -13.525434 -3.056876 -13.550850 -29.108172 -86.998522 
0.2236500000000000 -19.789143 -42.008935 -3.092266 -14.072568 -3.057278 -14.071219 -28.963957 -88.242186 
0.2310937500000000 -19.785618 -43.087736 -3.095493 -14.554691 -3.066944 -14.516161 -28.841223 -89.537296 
0.2385375000000000 -19.773706 -44.244091 -3.096925 -15.066075 -3.068342 -15.056654 -28.685596 -90.620857 
0.2459812500000000 -19.773317 -45.418581 -3.102737 -15.550598 -3.069540 -15.546633 -28.524417 -91.951124 
0.2534250000000000 -19.744267 -46.578889 -3.105275 -16.033308 -3.065020 -16.045207 -28.361127 -93.304118 
0.2608687500000000 -19.707197 -47.707122 -3.106423 -16.577343 -3.060553 -16.448633 -28.195055 -94.386645 
0.2683125000000000 -19.708331 -48.878095 -3.115012 -17.072732 -3.066844 -16.993669 -28.066158 -95.629672 
0.2757562500000000 -19.665518 -50.144883 -3.115025 -17.618145 -3.066348 -17.524323 -27.878874 -96.696240 
0.2832000000000000 -19.637059 -51.207931 -3.123426 -18.083203 -3.071507 -18.013638 -27.758077 -97.940953 
0.2906437500000000 -19.640409 -52.248060 -3.127545 -18.519754 -3.074845 -18.471977 -27.598858 -99.012006 
0.2980875000000000 -19.592292 -53.191416 -3.122458 -18.992619 -3.082498 -18.952209 -27.456468 -99.828580 
0.3055312500000000 -19.568508 -54.280273 -3.134309 -19.513775 -3.096430 -19.409555 -27.308252 -100.910231 
0.3129750000000000 -19.552576 -55.229750 -3.127910 -20.002161 -3.093139 -19.908244 -27.179116 -101.556788 
0.3204187500000000 -19.500758 -56.402649 -3.140669 -20.434121 -3.103855 -20.397186 -27.052257 -102.599824 
0.3278625000000000 -19.472771 -57.459550 -3.144039 -20.957827 -3.097288 -20.866792 -26.932597 -103.710644 
0.3353062500000000 -19.445469 -58.511918 -3.148393 -21.418840 -3.097393 -21.343623 -26.833846 -104.423358 
0.3427500000000000 -19.421888 -59.752393 -3.152617 -21.846220 -3.099847 -21.852438 -26.712425 -105.313035 
0.3501937500000000 -19.387660 -60.835200 -3.148787 -22.375761 -3.112995 -22.330184 -26.569235 -106.280228 
0.3576375000000000 -19.395085 -61.989750 -3.155089 -22.864142 -3.109705 -22.806114 -26.503779 -107.324937 
0.3650812500000000 -19.355365 -62.974821 -3.160564 -23.349899 -3.123048 -23.308786 -26.428477 -108.086510 
0.3725250000000000 -19.358709 -63.968795 -3.165140 -23.821659 -3.121080 -23.740234 -26.308421 -108.953647 
0.3799687500000000 -19.335720 -65.045122 -3.172582 -24.243365 -3.126156 -24.207520 -26.227041 -110.025561 
0.3874125000000000 -19.306644 -65.950022 -3.172927 -24.814914 -3.130664 -24.711221 -26.142447 -110.896670 
0.3948562500000000 -19.266372 -67.138477 -3.169688 -25.235844 -3.124894 -25.191123 -26.042209 -111.866103 
0.4023000000000000 -19.265973 -68.086703 -3.179556 -25.766663 -3.117952 -25.718562 -25.975628 -112.825428 
0.4097437500000000 -19.255696 -68.978332 -3.177333 -26.216703 -3.140147 -26.208086 -25.855332 -113.671374 
0.4171875000000000 -19.254525 -70.011408 -3.191826 -26.726529 -3.135684 -26.734467 -25.741058 -114.322224 
0.4246312500000000 -19.228359 -70.981960 -3.184104 -27.221687 -3.157150 -27.203907 -25.661075 -115.160049 
0.4320750000000000 -19.209650 -71.837043 -3.187859 -27.666737 -3.154623 -27.699638 -25.546989 -115.828264 
0.4395187500000000 -19.194826 -72.709795 -3.206642 -28.080966 -3.166887 -28.175422 -25.446377 -116.748953 
0.4469625000000000 -19.157362 -73.714564 -3.206583 -28.572103 -3.170275 -28.605429 -25.383514 -117.429816 
0.4544062500000000 -19.148878 -74.741932 -3.208119 -29.062713 -3.170869 -29.125309 -25.278644 -118.012761 
0.4618500000000000 -19.102604 -75.731890 -3.212844 -29.591048 -3.182142 -29.569068 -25.161659 -118.773844 
0.4692937500000000 -19.102619 -76.614896 -3.215271 -29.991084 -3.184455 -30.019626 -25.087870 -119.369413 
0.4767375000000000 -19.073718 -77.516793 -3.218537 -30.551969 -3.194400 -30.493331 -25.020306 -119.950485 
0.4841812500000000 -19.043243 -78.407879 -3.232007 -30.967674 -3.199615 -30.910445 -24.935828 -120.684530 
0.4916250000000000 -19.021015 -79.450643 -3.241243 -31.464595 -3.205348 -31.400076 -24.867479 -121.064194 
0.4990687500000000 -18.990022 -80.324635 -3.235959 -32.013186 -3.203250 -31.875671 -24.800576 -121.710650 
0.5065125000000000 -18.960681 -81.331829 -3.242259 -32.456583 -3.215209 -32.373324 -24.734078 -121.979410 
0.5139562500000000 -18.918918 -82.056310 -3.245033 -32.945267 -3.213460 -32.888995 -24.642970 -122.458323 
0.5214000000000000 -18.889185 -83.068923 -3.252487 -33.390349 -3.224392 -33.362491 -24.580787 -122.802540 
0.5288437500000000 -18.842806 -84.089721 -3.266701 -33.837699 -3.227264 -33.865159 -24.478632 -123.334756 
0.5362875000000000 -18.793470 -84.824689 -3.273596 -34.320671 -3.242511 -34.291646 -24.368464 -123.928134 
0.5437312500000000 -18.753037 -85.696118 -3.300822 -34.766629 -3.250970 -34.802077 -24.241544 -124.350954 
0.5511750000000000 -18.701033 -86.779977 -3.297943 -35.199533 -3.254087 -35.251205 -24.147058 -125.119308 
0.5586187500000001 -18.655138 -87.810930 -3.310841 -35.627249 -3.264963 -35.711731 -24.029435 -125.756874 
0.5660625000000000 -18.605750 -88.791776 -3.311908 -36.011187 -3.272674 -36.179713 -23.907889 -126.524057 
0.5735062500000000 -18.566557 -89.896225 -3.324679 -36.438127 -3.280309 -36.584200 -23.789484 -127.406144 
0.5809500000000000 -18.537594 -90.954934 -3.329434 -36.889909 -3.285572 -37.014877 -23.675170 -128.364325 
0.5883937500000001 -18.518775 -92.035084 -3.321590 -37.349188 -3.295974 -37.464822 -23.591335 -129.420086 
0.5958375000000000 -18.483342 -93.031796 -3.319763 -37.688897 -3.291500 -37.800163 -23.521874 -130.489815 
0.6032812500000000 -18.471476 -94.109385 -3.326274 -38.167596 -3.305685 -38.191138 -23.432879 -131.557138 
0.6107250000000000 -18.450410 -95.145095 -3.327743 -38.597323 -3.300102 -38.661406 -23.385254 -132.502616 
0.6181687500000000 -18.446045 -96.159960 -3.316682 -39.051862 -3.301684 -39.080341 -23.325319 -133.413327 
0.6256125000000000 -18.426918 -97.146955 -3.318503 -39.498519 -3.298699 -39.520167 -23.297832 -134.313178 
0.6330562500000000 -18.403934 -98.036218 -3.323973 -39.948356 -3.292588 -40.031902 -23.225583 -135.198285 
0.6405000000000000 -18.404146 -99.020375 -3.314920 -40.518790 -3.291525 -40.471083 -23.195238 -136.147680 
0.6479437500000000 -18.386424 -99.877701 -3.306200 -41.016724 -3.293050 -40.867027 -23.169793 -137.168805 
0.6553875000000000 -18.380487 -100.761385 -3.332461 -41.441100 -3.295740 -41.340256 -23.168394 -137.991733 
0.6628312500000000 -18.374262 -101.586849 -3.334327 -41.936651 -3.281409 -41.816168 -23.154035 -138.782590 
0.6702750000000000 -18.359836 -102.392399 -3.339670 -42.391173 -3.282046 -42.321743 -23.128734 -139.546888 
0.6777187500000000 -18.352997 -103.211324 -3.336335 -42.919081 -3.277416 -42.837525 -23.120624 -140.236920 
0.6851625000000000 -18.326284 -104.023132 -3.342478 -43.354756 -3.279191 -43.416317 -23.099365 -141.059518 
0.6926062500000000 -18.329110 -104.791106 -3.342681 -43.813586 -3.295259 -43.941129 -23.066257 -141.870994 
0.7000500000000000 -18.317942 -105.551584 -3.357477 -44.265674 -3.315411 -44.453966 -23.029755 -142.665720 
0.7074937500000000 -18.318089 -106.411700 -3.366080 -44.703983 -3.329522 -44.872113 -22.992910 -143.601462 
0.7149375000000000 -18.319519 -107.153849 -3.370885 -45.070170 -3.339469 -45.297837 -22.982379 -144.341976 
0.7223812500000000 -18.326064 -107.843832 -3.360979 -45.538896 -3.345194 -45.667858 -22.984727 -145.022114 
0.7298250000000000 -18.299000 -108.694638 -3.359388 -45.985707 -3.347487 -46.100710 -22.963697 -145.876332 
0.7372687500000000 -18.288782 -109.509435 -3.360007 -46.438233 -3.342698 -46.560772 -22.951679 -146.614776 
0.7447125000000000 -18.273965 -110.491041 -3.350937 -46.926114 -3.341240 -47.040284 -22.923413 -147.402773 
0.7521562500000000 -18.273190 -111.204214 -3.346770 -47.454503 -3.345262 -47.515916 -22.904028 -147.946719 
0.7596000000000001 -18.263985 -112.075929 -3.360341 -47.985046 -3.357121 -47.972999 -22.861726 -148.695173 
0.7670437500000000 -18.269454 -112.947452 -3.363798 -48.455013 -3.359723 -48.385916 -22.842255 -149.398642 
0.7744875000000000 -18.246206 -113.642776 -3.379367 -48.876210 -3.364923 -48.825949 -22.822178 -150.185335 
0.7819312500000000 -18.233818 -114.391854 -3.381371 -49.305210 -3.366480 -49.274075 -22.811233 -150.992929 
0.7893750000000001 -18.209439 -115.131636 -3.381901 -49.790619 -3.365809 -49.725070 -22.776539 -151.667860 
0.7968187500000000 -18.179869 -115.813579 -3.380764 -50.191122 -3.355654 -50.161483 -22.759400 -152.235583 
0.8042625000000000 -18.156846 -116.638573 -3.386215 -50.680435 -3.344506 -50.686002 -22.754818 -152.900719 
0.8117062500000000 -18.152820 -117.398748 -3.384493 -51.178509 -3.356896 -51.149688 -22.694958 -153.518932 
0.8191500000000000 -18.128558 -118.112087 -3.391999 -51.700549 -3.357191 -51.638821 -22.697934 -154.031040 
0.8265937500000000 -18.145120 -118.670343 -3.405405 -52.140449 -3.358767 -52.173553 -22.673661 -154.577306 
0.8340375000000000 -18.118167 -119.192383 -3.414279 -52.559658 -3.367391 -52.640033 -22.656692 -155.171178 
0.8414812500000000 -18.101933 -119.806535 -3.428589 -52.966626 -3.374743 -53.127003 -22.636107 -155.780490 
0.8489250000000000 -18.086512 -120.325613 -3.426047 -53.342296 -3.387133 -53.526253 -22.636665 -156.439457 
0.8563687500000000 -18.064716 -121.193841 -3.424911 -53.869839 -3.387718 -54.108958 -22.636772 -156.874499 
0.8638125000000000 -18.068860 -121.735665 -3.432094 -54.271307 -3.408707 -54.452087 -22.601769 -157.177789 
0.8712562500000000 -18.068281 -122.365029 -3.426691 -54.739771 -3.415603 -54.829475 -22.585058 -157.835670 
0.8787000000000000 -18.089746 -123.151973 -3.429922 -55.263322 -3.427033 -55.244960 -22.606480 -158.433096 
0.8861437500000000 -18.091869 -123.842875 -3.427160 -55.694709 -3.434104 -55.669726 -22.558065 -158.722759 
0.8935875000000000 -18.091641 -124.556770 -3.451986 -56.145411 -3.416697 -56.092175 -22.560653 -159.200398 
0.9010312500000000 -18.094241 -124.923151 -3.444972 -56.507493 -3.421080 -56.481068 -22.563425 -159.666975 
0.9084750000000000 -18.076231 -126.020415 -3.426180 -57.100650 -3.422273 -57.037008 -22.509208 -160.137543 
0.9159187500000000 -18.070632 -126.623462 -3.460508 -57.477276 -3.434130 -57.412511 -22.550809 -160.611025 
0.9233625000000000 -18.066459 -127.323362 -3.451240 -58.039015 -3.437675 -57.837399 -22.511064 -161.104535 
0.9308062500000000 -18.058565 -128.054342 -3.454734 -58.447060 -3.436742 -58.254510 -22.486607 -161.647874 
0.9382500000000000 -18.034065 -128.797273 -3.471220 -58.896274 -3.424796 -58.716874 -22.507214 -162.081628 
0.9456937500000000 -18.062198 -129.366301 -3.477766 -59.344591 -3.418973 -59.175821 -22.531913 -162.603043 
0.9531375000000000 -18.018762 -129.917179 -3.489431 -59.717414 -3.428621 -59.686411 -22.540782 -163.019990 
0.9605812500000001 -17.999145 -130.650441 -3.482151 -60.239898 -3.427487 -60.233239 -22.539809 -163.404246 
0.9680250000000000 -17.985568 -131.243318 -3.488337 -60.592147 -3.430683 -60.781792 -22.504631 -163.932032 
0.9754687500000000 -17.964722 -131.940687 -3.490648 -61.026620 -3.457747 -61.232662 -22.608790 -165.001661 
0.9829125000000000 -17.943863 -132.424301 -3.479386 -61.537850 -3.477515 -61.740251 -22.541912 -164.567132 
0.9903562500000001 -17.922191 -133.031020 -3.490789 -61.948115 -3.481680 -62.119016 -22.584057 -165.179296 
0.9978000000000000 -17.919024 -133.554955 -3.494852 -62.362624 -3.481757 -62.502037 -22.600454 -165.254338 
1.0052437500000000 -17.915283 -133.993336 -3.496631 -62.851335 -3.488176 -62.885785 -22.563669 -165.845544 
1.0126875000000000 -17.904069 -134.598112 -3.499526 -63.264136 -3.480426 -63.374246 -22.646552 -166.024864 
1.0201312499999999 -17.912378 -135.074135 -3.497157 -63.713324 -3.484464 -63.839051 -22.657047 -166.444584 
1.0275749999999999 -17.935463 -135.738459 -3.496039 -64.156530 -3.482235 -64.316530 -22.659634 -166.876773 
1.0350187500000001 -17.928202 -136.251716 -3.499214 -64.648228 -3.512148 -64.761367 -22.678520 -167.409234 
1.0424625000000001 -17.936697 -136.877157 -3.511060 -65.123321 -3.524524 -65.134157 -22.669276 -168.052410 
1.0499062500000000 -17.939728 -137.329201 -3.523179 -65.542365 -3.522055 -65.488104 -22.714607 -168.288131 
1.0573500000000000 -17.958113 -138.096133 -3.527904 -65.988746 -3.518113 -65.908410 -22.747630 -168.836510 
1.0647937500000000 -17.967092 -138.649419 -3.524497 -66.360110 -3.522084 -66.349898 -22.764617 -169.551640 
1.0722375000000000 -17.982539 -139.301921 -3.515150 -66.818271 -3.512854 -66.776295 -22.794151 -169.696498 
1.0796812499999999 -17.988338 -140.037926 -3.510633 -67.271928 -3.510692 -67.266087 -22.814566 -170.466630 
1.0871249999999999 -17.961912 -140.627769 -3.502654 -67.747127 -3.524076 -67.711905 -22.814178 -170.803971 
1.0945687500000001 -17.973181 -141.146926 -3.518999 -68.181060 -3.524752 -68.134765 -22.857486 -171.354052 
1.1020125000000001 -17.977427 -141.914064 -3.529778 -68.674872 -3.534744 -68.600025 -22.877459 -171.850958 
1.1094562500000000 -17.968056 -142.444053 -3.530193 -69.185848 -3.521816 -69.077735 -22.918520 -172.429612 
1.1169000000000000 -17.970350 -143.049809 -3.533677 -69.642838 -3.534661 -69.449795 -22.958555 -172.846779 
1.1243437500000000 -17.969525 -143.569534 -3.540832 -70.084489 -3.519915 -69.927956 -22.965632 -173.522276 
1.1317874999999999 -17.953073 -144.215617 -3.544062 -70.479012 -3.529263 -70.416102 -22.983601 -173.837439 
1.1392312499999999 -17.944414 -144.634186 -3.543333 -70.934795 -3.531780 -70.883318 -23.018124 -174.052371 
1.1466750000000001 -17.921738 -145.089182 -3.546586 -71.380396 -3.539888 -71.348124 -23.045297 -174.570110 
1.1541187500000001 -17.930422 -145.595790 -3.552093 -71.823062 -3.537117 -71.783570 -23.105939 -174.801894 
1.1615625000000001 -17.954896 -146.101080 -3.554343 -72.313502 -3.539925 -72.197552 -23.135530 -175.511101 
1.1690062500000000 -17.947811 -146.466434 -3.559942 -72.782223 -3.547469 -72.650679 -23.185618 -176.057524 
1.1764500000000000 -17.946486 -146.959349 -3.569933 -73.214108 -3.546061 -73.093926 -23.214477 -175.882590 
1.1838937500000000 -17.958846 -147.260303 -3.571382 -73.615818 -3.552940 -73.566495 -23.197716 -176.305259 
1.1913374999999999 -17.968321 -147.757520 -3.575079 -73.935711 -3.559057 -74.141439 -23.279531 -176.880304 
1.1987812499999999 -17.956130 -148.225686 -3.555955 -74.448118 -3.571517 -74.561882 -23.296479 -177.187689 
1.2062250000000001 -17.996313 -148.560644 -3.563344 -74.844503 -3.589831 -74.873787 -23.317467 -177.479008 
1.2136687500000001 -17.994808 -149.023150 -3.549378 -75.337726 -3.595165 -75.231124 -23.357748 -177.850444 
1.2211125000000000 -18.018388 -149.591520 -3.554205 -75.777952 -3.584544 -75.623523 -23.399318 -178.027736 
1.2285562500000000 -17.994903 -150.061434 -3.549441 -76.317295 -3.571956 -76.104512 -23.391602 -178.478632 
1.2360000000000000 -18.042205 -150.662589 -3.556850 -76.781943 -3.568777 -76.508678 -23.486167 -178.752653 
1.2434437500000000 -18.050365 -151.118069 -3.556880 -77.227829 -3.569460 -77.046697 -23.489292 -178.967818 
1.2508874999999999 -18.038713 -151.629210 -3.555666 -77.639689 -3.565704 -77.536094 -23.522894 -179.108103 
1.2583312499999999 -18.045237 -152.086947 -3.553034 -78.187261 -3.573178 -78.038102 -23.540992 -179.470986 
1.2657750000000001 -18.065136 -152.570512 -3.565663 -78.713330 -3.578241 -78.497473 -23.575683 -179.699798 
1.2732187500000001 -18.047116 -153.231977 -3.569118 -79.173640 -3.584215 -78.869324 -23.647552 179.783786 
1.2806625000000000 -18.075257 -153.745081 -3.579959 -79.656893 -3.590361 -79.302885 -23.670647 179.616455 
1.2881062500000000 -18.078437 -154.054676 -3.589043 -80.113136 -3.571652 -79.768768 -23.712105 179.527491 
1.2955500000000000 -18.119663 -154.383565 -3.589677 -80.530723 -3.575940 -80.248716 -23.782707 179.743234 
1.3029937500000000 -18.061411 -154.862899 -3.610389 -80.924057 -3.592198 -80.728939 -23.851555 179.295079 
1.3104374999999999 -18.075473 -155.161387 -3.604135 -81.364759 -3.598595 -81.196297 -23.881966 179.241343 
1.3178812499999999 -18.067737 -155.452658 -3.597418 -81.751289 -3.607162 -81.605444 -23.922985 179.237752 
1.3253250000000001 -18.064413 -155.819782 -3.593444 -82.190404 -3.613025 -82.004085 -24.008027 179.133161 
1.3327687500000001 -18.077214 -156.090691 -3.600124 -82.662269 -3.610554 -82.452985 -24.073863 179.081134 
1.3402125000000000 -18.093545 -156.510603 -3.603633 -83.126210 -3.604610 -82.831956 -24.142937 178.862473 
1.3476562500000000 -18.100950 -156.894819 -3.610191 -83.518483 -3.605311 -83.308883 -24.176435 178.882835 
1.3551000000000000 -18.112812 -157.296796 -3.604806 -83.922107 -3.609435 -83.809606 -24.228526 179.059291 
1.3625437499999999 -18.113113 -157.627323 -3.597314 -84.347586 -3.614455 -84.253800 -24.294497 178.675779 
1.3699874999999999 -18.124262 -158.045870 -3.606965 -84.822837 -3.619718 -84.695344 -24.358838 178.750787 
1.3774312500000001 -18.115995 -158.331244 -3.584175 -85.295150 -3.626119 -85.077856 -24.402754 178.597467 
1.3848750000000001 -18.120175 -158.815749 -3.592738 -85.781187 -3.621559 -85.487748 -24.431774 178.055552 
1.3923187500000000 -18.145650 -159.274305 -3.588174 -86.262931 -3.609198 -85.887388 -24.480714 178.152630 
1.3997625000000000 -18.166114 -159.695614 -3.595990 -86.808137 -3.599199 -86.321819 -24.521972 178.224798 
