!
! C:\Users\Aljaz\OneDrive - Univerza v Ljubljani\DOKTORAT\NOVI SA\Slabilec PE43711B\meritve\30dB.S2P
!
! Touchstone 1.1 file saved by VNA.EXE V1.65 (www.ke5fx.com/gpib/readme.htm)
! 2. 04. 2022 19:16:17
!
!    Source: HP8510C.07.14: Aug 26  1998 
!  Min freq: 4.500000E+007 Hz
!  Max freq: 6.000000E+009 Hz
!    Points: 801
!    Params: S11 S21 S12 S22
!
!!!!!
# GHZ S DB R 50
0.0450000000000000 -33.225834 -94.616759 -31.127835 0.169213 -31.060665 0.210860 -15.979332 -173.871615 
0.0524437500000000 -34.381522 -95.778651 -31.107867 -0.694911 -31.051215 -0.507073 -16.037290 -175.916357 
0.0598875000000000 -35.017330 -97.043660 -31.132024 -1.070900 -31.051286 -1.242396 -16.033656 -177.407500 
0.0673312500000000 -35.649039 -98.655038 -31.125686 -1.859148 -31.083267 -2.114507 -16.061158 -178.769434 
0.0747750000000000 -36.073057 -99.385732 -31.123924 -2.567279 -31.081051 -2.695688 -16.057687 -179.983332 
0.0822187500000000 -36.542149 -101.225725 -31.135360 -3.183877 -31.076769 -3.062543 -16.080753 178.978258 
0.0896625000000000 -36.710964 -101.056038 -31.143138 -3.390080 -31.085762 -3.561923 -16.088939 177.971001 
0.0971062500000000 -36.985302 -100.785832 -31.126014 -4.146306 -31.068318 -3.913117 -16.092079 177.038350 
0.1045500000000000 -37.136969 -101.182384 -31.153953 -4.628767 -31.096140 -4.586199 -16.104895 176.074693 
0.1119937500000000 -37.138920 -100.498561 -31.121821 -4.986524 -31.107238 -5.202790 -16.122459 175.306502 
0.1194375000000000 -37.342596 -100.549951 -31.156116 -5.434436 -31.097213 -5.630015 -16.137535 174.412099 
0.1268812500000000 -37.276490 -101.091031 -31.163944 -6.064853 -31.094104 -6.116625 -16.139834 173.615859 
0.1343250000000000 -37.313317 -99.022562 -31.139865 -6.374995 -31.098270 -6.405590 -16.152580 172.826250 
0.1417687500000000 -37.413180 -99.555357 -31.143503 -6.967091 -31.090505 -7.040936 -16.181234 172.049530 
0.1492125000000000 -37.394835 -99.319571 -31.172925 -7.385529 -31.086699 -7.395112 -16.186000 171.273328 
0.1566562500000000 -37.565257 -99.399202 -31.137844 -7.806689 -31.076030 -7.861524 -16.191424 170.499662 
0.1641000000000000 -37.569535 -99.481338 -31.123000 -8.490517 -31.089783 -8.509353 -16.202492 169.750972 
0.1715437500000000 -37.565215 -99.183717 -31.174137 -8.687071 -31.128816 -8.826656 -16.214292 168.971698 
0.1789875000000000 -37.489071 -99.044854 -31.144707 -8.946703 -31.124365 -9.212398 -16.225018 168.276509 
0.1864312500000000 -37.589014 -100.694927 -31.175617 -9.668521 -31.149766 -9.551497 -16.228482 167.466575 
0.1938750000000000 -37.500934 -100.796377 -31.160110 -10.128221 -31.107031 -10.027998 -16.249842 166.797514 
0.2013187500000000 -37.437984 -101.600764 -31.155856 -10.393996 -31.092259 -10.564409 -16.248669 166.028449 
0.2087625000000000 -37.321446 -102.229469 -31.125510 -11.017903 -31.064379 -10.842214 -16.251016 165.365386 
0.2162062500000000 -37.207144 -102.970119 -31.163773 -11.367271 -31.139866 -11.138755 -16.248505 164.688123 
0.2236500000000000 -37.075488 -103.460825 -31.168943 -11.945362 -31.126319 -11.681072 -16.255534 163.991011 
0.2310937500000000 -36.900434 -104.114152 -31.155296 -12.214967 -31.126812 -12.142162 -16.264044 163.284404 
0.2385375000000000 -36.715453 -104.660481 -31.159801 -12.603556 -31.124432 -12.662338 -16.276858 162.666365 
0.2459812500000000 -36.446720 -104.969413 -31.176128 -13.135050 -31.130355 -13.272978 -16.278289 162.047767 
0.2534250000000000 -36.296925 -104.827544 -31.156240 -13.441143 -31.141751 -13.552067 -16.277888 161.421873 
0.2608687500000000 -36.016572 -104.912170 -31.185361 -13.815273 -31.112911 -13.809481 -16.291546 160.700919 
0.2683125000000000 -35.896722 -105.255115 -31.181223 -14.545670 -31.130732 -14.191375 -16.302731 160.108162 
0.2757562500000000 -35.668926 -104.494247 -31.210479 -14.677957 -31.123798 -14.520846 -16.305431 159.535573 
0.2832000000000000 -35.447641 -104.118620 -31.211330 -15.158418 -31.162146 -14.976708 -16.328826 158.846482 
0.2906437500000000 -35.380530 -104.395178 -31.195065 -15.674407 -31.111254 -15.548610 -16.341321 158.241224 
0.2980875000000000 -35.187083 -103.270180 -31.170829 -16.020077 -31.127874 -15.977818 -16.356821 157.750853 
0.3055312500000000 -35.067451 -102.891570 -31.174812 -16.320116 -31.125666 -16.248019 -16.372755 157.134087 
0.3129750000000000 -34.936644 -102.955282 -31.149416 -16.909128 -31.142223 -16.629209 -16.393721 156.497879 
0.3204187500000000 -34.739996 -102.455721 -31.183830 -17.226928 -31.146840 -17.372375 -16.392245 155.741595 
0.3278625000000000 -34.697466 -101.965846 -31.206865 -17.629994 -31.161016 -17.548667 -16.417131 155.155137 
0.3353062500000000 -34.481320 -101.378059 -31.173611 -18.052777 -31.127269 -17.965859 -16.451595 154.500414 
0.3427500000000000 -34.328579 -101.510733 -31.200126 -18.886043 -31.134123 -18.613027 -16.479761 153.961597 
0.3501937500000000 -34.142923 -102.273659 -31.221899 -19.248831 -31.110524 -18.882039 -16.480277 153.240727 
0.3576375000000000 -34.090139 -103.233559 -31.230966 -19.330914 -31.112798 -19.384026 -16.503392 152.533033 
0.3650812500000000 -33.956760 -102.919243 -31.238213 -19.785450 -31.173967 -19.883740 -16.522261 151.822237 
0.3725250000000000 -33.863058 -103.137872 -31.218646 -20.117635 -31.160313 -20.256949 -16.544760 151.234611 
0.3799687500000000 -33.796963 -104.148512 -31.215792 -20.732150 -31.155982 -20.577077 -16.549742 150.527006 
0.3874125000000000 -33.625918 -104.180658 -31.229200 -21.234725 -31.176389 -21.303579 -16.563241 149.995219 
0.3948562500000000 -33.522451 -104.605826 -31.199047 -21.361949 -31.168087 -21.513639 -16.587736 149.302981 
0.4023000000000000 -33.372166 -104.839507 -31.256089 -21.946013 -31.190966 -21.921018 -16.612123 148.630214 
0.4097437500000000 -33.249651 -104.925764 -31.249957 -22.289410 -31.170500 -22.404649 -16.617599 148.051453 
0.4171875000000000 -33.187090 -105.330149 -31.238859 -22.461966 -31.194503 -22.596684 -16.641609 147.358452 
0.4246312500000000 -33.002837 -105.577835 -31.235500 -23.040340 -31.192405 -23.109322 -16.661271 146.730512 
0.4320750000000000 -32.853276 -105.019368 -31.223826 -23.601133 -31.155262 -23.572316 -16.694889 146.161185 
0.4395187500000000 -32.726564 -104.667246 -31.205260 -23.840338 -31.164368 -23.950442 -16.705664 145.618349 
0.4469625000000000 -32.628628 -105.011866 -31.242488 -24.261471 -31.184390 -24.197936 -16.735020 144.843705 
0.4544062500000000 -32.492650 -105.209484 -31.202708 -25.038363 -31.145180 -24.916137 -16.756105 144.266978 
0.4618500000000000 -32.410100 -104.672869 -31.208822 -25.120786 -31.170739 -25.254484 -16.792612 143.685483 
0.4692937500000000 -32.319859 -104.608825 -31.211100 -25.882761 -31.223237 -25.689646 -16.823104 143.007594 
0.4767375000000000 -32.208033 -104.344265 -31.230737 -26.120742 -31.234849 -26.178445 -16.861051 142.365944 
0.4841812500000000 -32.116554 -103.954438 -31.203990 -26.761218 -31.217373 -26.594387 -16.899823 141.795262 
0.4916250000000000 -32.010521 -104.300367 -31.240218 -27.181875 -31.259328 -26.952757 -16.936896 141.108451 
0.4990687500000000 -31.928814 -104.177014 -31.291153 -27.519964 -31.218863 -27.407118 -16.978126 140.477231 
0.5065125000000000 -31.828024 -104.155208 -31.256743 -27.904744 -31.224709 -27.698670 -17.035557 139.862826 
0.5139562500000000 -31.684481 -103.613954 -31.255890 -28.191350 -31.267999 -28.147994 -17.077605 139.326065 
0.5214000000000000 -31.568275 -103.565862 -31.286544 -28.587113 -31.256151 -28.428147 -17.134605 138.558176 
0.5288437500000000 -31.427686 -103.926590 -31.335959 -28.928743 -31.250952 -28.944111 -17.184043 137.967337 
0.5362875000000000 -31.211654 -103.673912 -31.269712 -29.443499 -31.295985 -29.311210 -17.218716 137.418702 
0.5437312500000000 -30.972291 -103.633151 -31.326087 -29.584850 -31.269711 -29.827736 -17.275523 136.890944 
0.5511750000000000 -30.757952 -104.033966 -31.304826 -29.842759 -31.271954 -30.106400 -17.315438 136.397957 
0.5586187500000001 -30.540276 -104.401955 -31.351057 -30.256443 -31.277269 -30.593012 -17.360556 135.983160 
0.5660625000000000 -30.303362 -104.956305 -31.309887 -30.690162 -31.279635 -31.000845 -17.381852 135.424167 
0.5735062500000000 -30.121095 -105.219002 -31.306694 -31.007506 -31.268135 -31.177043 -17.406041 134.973630 
0.5809500000000000 -29.913965 -106.028828 -31.315694 -31.398202 -31.309752 -31.207362 -17.433952 134.529572 
0.5883937500000001 -29.729663 -106.396346 -31.306803 -31.895526 -31.287876 -32.117973 -17.449171 134.006757 
0.5958375000000000 -29.555292 -107.144246 -31.314388 -32.118740 -31.281828 -32.249087 -17.448237 133.466410 
0.6032812500000000 -29.455107 -107.733908 -31.264130 -32.682269 -31.290036 -32.556356 -17.476783 132.888913 
0.6107250000000000 -29.315856 -108.237994 -31.278266 -33.075980 -31.295252 -32.962409 -17.490820 132.358271 
0.6181687500000000 -29.217105 -108.763509 -31.286950 -33.463316 -31.290574 -33.354237 -17.502490 131.756891 
0.6256125000000000 -29.172154 -109.161209 -31.287235 -33.987420 -31.283514 -33.883949 -17.524883 131.053262 
0.6330562500000000 -29.041237 -109.568266 -31.312232 -34.205671 -31.255864 -34.274879 -17.519234 130.398895 
0.6405000000000000 -29.001409 -110.123377 -31.301621 -34.439971 -31.284860 -34.748635 -17.545276 129.801555 
0.6479437500000000 -28.938481 -110.571798 -31.291775 -35.277328 -31.274007 -34.886619 -17.566572 129.145778 
0.6553875000000000 -28.907765 -111.010820 -31.342430 -35.591587 -31.269770 -35.591855 -17.581651 128.377647 
0.6628312500000000 -28.832282 -111.413186 -31.306964 -35.971264 -31.288727 -35.812375 -17.614430 127.692337 
0.6702750000000000 -28.779221 -111.902895 -31.331229 -36.202417 -31.291469 -36.254389 -17.633827 127.061982 
0.6777187500000000 -28.722484 -112.658411 -31.322604 -36.568073 -31.266474 -36.652787 -17.673521 126.308412 
0.6851625000000000 -28.581868 -113.015893 -31.327214 -37.007989 -31.274755 -37.013562 -17.678195 125.570551 
0.6926062500000000 -28.518513 -113.565146 -31.316617 -37.356506 -31.314829 -37.494307 -17.701582 124.943094 
0.7000500000000000 -28.458068 -113.780323 -31.331602 -37.795659 -31.298011 -38.076661 -17.722075 124.220320 
0.7074937500000000 -28.371723 -114.377328 -31.331384 -37.968073 -31.267916 -38.386883 -17.753106 123.449029 
0.7149375000000000 -28.281052 -114.665233 -31.324091 -38.555782 -31.330821 -38.854516 -17.781562 122.830757 
0.7223812500000000 -28.202846 -114.686039 -31.294378 -38.985877 -31.305108 -39.089762 -17.815060 122.046630 
0.7298250000000000 -28.099838 -115.082152 -31.294220 -39.323841 -31.325437 -39.487812 -17.841370 121.357571 
0.7372687500000000 -27.976184 -115.268434 -31.323359 -40.173492 -31.327706 -39.895275 -17.862532 120.611195 
0.7447125000000000 -27.920084 -115.633257 -31.344636 -40.546595 -31.294403 -40.451400 -17.894578 119.929752 
0.7521562500000000 -27.822759 -115.583489 -31.314222 -40.801658 -31.298789 -40.870300 -17.930324 119.239460 
0.7596000000000001 -27.728352 -115.620279 -31.312878 -41.313743 -31.307309 -41.340300 -17.955941 118.536838 
0.7670437500000000 -27.639880 -115.873684 -31.361148 -41.762775 -31.318098 -41.617847 -17.987963 117.931346 
0.7744875000000000 -27.580688 -116.022268 -31.332184 -41.978976 -31.315718 -41.973313 -18.017494 117.243464 
0.7819312500000000 -27.499689 -116.183763 -31.340983 -42.344223 -31.342447 -42.336634 -18.041362 116.485474 
0.7893750000000001 -27.430043 -116.448937 -31.344251 -42.675878 -31.325381 -42.964351 -18.076055 115.873428 
0.7968187500000000 -27.346970 -116.493320 -31.326663 -43.217559 -31.323930 -43.233780 -18.109142 115.151242 
0.8042625000000000 -27.306035 -116.872199 -31.364869 -43.869027 -31.309844 -43.825003 -18.137195 114.499562 
0.8117062500000000 -27.242607 -116.965599 -31.382411 -44.011457 -31.278472 -44.062840 -18.185107 113.908640 
0.8191500000000000 -27.165047 -117.364622 -31.365987 -44.479504 -31.333453 -44.427313 -18.217960 113.270363 
0.8265937500000000 -27.093409 -117.402294 -31.334482 -44.796272 -31.308389 -44.798298 -18.258385 112.631415 
0.8340375000000000 -27.017639 -117.763443 -31.381531 -45.045843 -31.320365 -45.330013 -18.312499 111.959478 
0.8414812500000000 -26.945699 -117.935190 -31.385168 -45.455707 -31.361805 -45.694623 -18.341546 111.310147 
0.8489250000000000 -26.788246 -118.314335 -31.346095 -46.179911 -31.345888 -45.856000 -18.412680 110.456743 
0.8563687500000000 -26.717465 -118.537507 -31.317469 -46.568606 -31.381814 -46.500016 -18.452470 109.847468 
0.8638125000000000 -26.611362 -118.582635 -31.351787 -46.906163 -31.310735 -46.864482 -18.511455 109.194883 
0.8712562500000000 -26.541133 -118.677508 -31.334286 -47.327167 -31.292507 -46.935753 -18.556029 108.411535 
0.8787000000000000 -26.491153 -118.950392 -31.375392 -48.145053 -31.330152 -47.807859 -18.614126 107.635918 
0.8861437500000000 -26.429983 -118.976716 -31.394497 -48.097389 -31.359305 -48.014742 -18.659580 106.962264 
0.8935875000000000 -26.346066 -119.193235 -31.364322 -48.418843 -31.323123 -48.540923 -18.733009 106.266634 
0.9010312500000000 -26.282461 -119.160935 -31.348134 -48.596903 -31.411556 -48.467738 -18.751339 105.559786 
0.9084750000000000 -26.214636 -119.653120 -31.327948 -49.266367 -31.422156 -49.069107 -18.824725 104.962782 
0.9159187500000000 -26.128833 -119.711945 -31.393705 -49.552077 -31.355273 -49.650848 -18.874754 104.188059 
0.9233625000000000 -26.081209 -120.081207 -31.385032 -50.268124 -31.370015 -50.108166 -18.924574 103.432040 
0.9308062500000000 -26.010986 -120.336587 -31.370798 -50.692095 -31.403423 -50.122143 -18.968828 102.871979 
0.9382500000000000 -25.970022 -120.632457 -31.374287 -50.633972 -31.319706 -50.792961 -19.057957 102.131055 
0.9456937500000000 -25.915705 -120.920796 -31.398938 -51.139211 -31.353532 -51.219090 -19.087865 101.395604 
0.9531375000000000 -25.818457 -121.248677 -31.404340 -51.708155 -31.362915 -51.552334 -19.152793 100.480570 
0.9605812500000001 -25.732955 -121.770265 -31.397729 -51.951631 -31.343432 -51.992873 -19.214843 99.994448 
0.9680250000000000 -25.700775 -122.003593 -31.359931 -52.732420 -31.353161 -52.451228 -19.253900 99.352182 
0.9754687500000000 -25.571953 -122.550149 -31.396143 -52.782295 -31.367393 -52.460643 -19.332691 98.538573 
0.9829125000000000 -25.462233 -122.886816 -31.367465 -53.282205 -31.393159 -53.211241 -19.383367 97.899769 
0.9903562500000001 -25.390649 -123.249188 -31.384296 -53.577950 -31.407239 -53.526722 -19.459061 96.948234 
0.9978000000000000 -25.296481 -123.267326 -31.384547 -54.098818 -31.360308 -54.074705 -19.520410 96.304333 
1.0052437500000000 -25.179710 -123.560759 -31.413907 -54.532042 -31.392820 -54.361877 -19.573345 95.596092 
1.0126875000000000 -25.102474 -123.826412 -31.365638 -54.896486 -31.384943 -54.824195 -19.643878 94.691860 
1.0201312499999999 -25.007124 -123.924722 -31.345161 -55.200343 -31.381762 -55.446303 -19.721404 94.027102 
1.0275749999999999 -24.947375 -124.044728 -31.397926 -55.741934 -31.405056 -55.663154 -19.762498 93.164018 
1.0350187500000001 -24.847292 -124.149763 -31.396372 -56.030768 -31.458057 -55.967570 -19.822910 92.444250 
1.0424625000000001 -24.768698 -124.229593 -31.412606 -56.579473 -31.406619 -56.420381 -19.857714 91.597767 
1.0499062500000000 -24.699673 -124.375289 -31.440667 -56.471722 -31.373453 -56.829183 -19.956085 90.752449 
1.0573500000000000 -24.669419 -124.829565 -31.420453 -56.951650 -31.418347 -57.113444 -19.993832 89.951952 
1.0647937500000000 -24.628665 -124.885697 -31.413279 -57.200386 -31.410571 -57.629210 -20.020115 89.167497 
1.0722375000000000 -24.607259 -125.084235 -31.378200 -57.902960 -31.445667 -58.039405 -20.093628 88.232240 
1.0796812499999999 -24.581504 -125.302587 -31.431312 -58.385960 -31.426959 -58.444261 -20.152587 87.380973 
1.0871249999999999 -24.504352 -125.745722 -31.383797 -59.051876 -31.384151 -58.929887 -20.196108 86.635774 
1.0945687500000001 -24.480195 -125.872609 -31.460237 -59.405425 -31.399918 -59.396948 -20.237558 85.779948 
1.1020125000000001 -24.434312 -126.481333 -31.419972 -59.722335 -31.405916 -59.467908 -20.309805 84.830996 
1.1094562500000000 -24.369484 -126.981594 -31.459351 -60.019577 -31.439676 -60.051992 -20.344793 84.040035 
1.1169000000000000 -24.318267 -127.435494 -31.442476 -60.649363 -31.465680 -60.351530 -20.418632 83.215798 
1.1243437500000000 -24.260021 -127.831155 -31.454527 -60.925345 -31.479042 -60.602744 -20.431612 82.478670 
1.1317874999999999 -24.190293 -128.285990 -31.424755 -61.354933 -31.428604 -61.159843 -20.484781 81.624767 
1.1392312499999999 -24.105178 -128.694855 -31.402093 -61.731976 -31.462088 -61.615866 -20.566765 80.791588 
1.1466750000000001 -23.973656 -129.266323 -31.425021 -61.867764 -31.450043 -61.969198 -20.628308 80.032034 
1.1541187500000001 -23.918252 -129.391897 -31.445581 -62.593438 -31.435304 -62.265292 -20.702035 79.027924 
1.1615625000000001 -23.851200 -129.654060 -31.427601 -62.995936 -31.483801 -62.510868 -20.736204 78.222105 
1.1690062500000000 -23.737612 -129.932516 -31.475807 -62.904667 -31.459896 -63.054645 -20.791418 77.420814 
1.1764500000000000 -23.661044 -130.133168 -31.466893 -63.745112 -31.446092 -63.340936 -20.874774 76.448606 
1.1838937500000000 -23.571355 -130.145842 -31.432862 -64.061956 -31.465795 -63.874055 -20.936202 75.733490 
1.1913374999999999 -23.509641 -130.410247 -31.445001 -64.505519 -31.452553 -64.373059 -20.974843 74.608485 
1.1987812499999999 -23.442701 -130.515842 -31.424724 -64.904627 -31.479244 -64.728754 -21.038380 73.729452 
1.2062250000000001 -23.422218 -130.394230 -31.439894 -65.451050 -31.461077 -65.080922 -21.099139 72.897087 
1.2136687500000001 -23.363639 -130.404707 -31.450617 -66.090597 -31.511102 -65.212803 -21.175593 71.948059 
1.2211125000000000 -23.341560 -130.656678 -31.450915 -66.404287 -31.457250 -65.972764 -21.247084 71.029663 
1.2285562500000000 -23.288734 -130.808661 -31.435648 -66.408209 -31.444271 -66.385573 -21.322701 70.217598 
1.2360000000000000 -23.289779 -131.267451 -31.493345 -67.097253 -31.430569 -66.607192 -21.350742 69.145998 
1.2434437500000000 -23.265699 -131.361257 -31.429577 -67.516931 -31.487317 -67.013858 -21.438037 68.291026 
1.2508874999999999 -23.210289 -131.614100 -31.487532 -68.058452 -31.458688 -67.479347 -21.496127 67.265089 
1.2583312499999999 -23.211718 -132.157923 -31.490617 -68.191744 -31.481426 -67.822615 -21.562493 66.263052 
1.2657750000000001 -23.183132 -132.500955 -31.460417 -68.916854 -31.459833 -68.169355 -21.613696 65.337357 
1.2732187500000001 -23.116654 -133.193123 -31.512701 -69.111769 -31.477008 -68.819693 -21.686601 64.334684 
1.2806625000000000 -23.083329 -133.541816 -31.512184 -69.521948 -31.494102 -69.193664 -21.728589 63.282285 
1.2881062500000000 -23.021930 -133.900164 -31.477188 -69.784843 -31.527233 -69.388007 -21.847320 62.525662 
1.2955500000000000 -22.939249 -134.347464 -31.492970 -70.342458 -31.511327 -69.933961 -21.928812 61.271707 
1.3029937500000000 -22.873512 -134.994619 -31.511163 -70.644258 -31.510406 -70.506469 -21.961314 60.387970 
1.3104374999999999 -22.804080 -135.234784 -31.472840 -70.704642 -31.525226 -70.709853 -22.051196 59.314409 
1.3178812499999999 -22.689831 -135.631960 -31.442656 -71.634093 -31.484105 -71.259728 -22.130574 58.088182 
1.3253250000000001 -22.632551 -135.712567 -31.505715 -71.783389 -31.487670 -71.587090 -22.212407 56.986420 
1.3327687500000001 -22.534812 -135.904294 -31.486472 -72.344460 -31.471666 -71.829158 -22.282122 55.841652 
1.3402125000000000 -22.459575 -136.120123 -31.485398 -72.787232 -31.517006 -72.239182 -22.355481 54.765396 
1.3476562500000000 -22.403521 -136.098648 -31.470249 -73.338012 -31.534488 -72.986549 -22.408131 53.746703 
1.3551000000000000 -22.354158 -136.309323 -31.475860 -73.781741 -31.472533 -73.224482 -22.488426 52.413753 
1.3625437499999999 -22.313210 -136.440367 -31.507558 -74.167828 -31.516277 -73.386492 -22.542336 51.222180 
1.3699874999999999 -22.258927 -136.556718 -31.514061 -74.580713 -31.464147 -73.978755 -22.590509 50.042086 
1.3774312500000001 -22.211656 -136.691864 -31.508712 -75.031373 -31.493847 -74.082519 -22.639945 48.914386 
