!
! C:\Users\Aljaz\OneDrive - Univerza v Ljubljani\DOKTORAT\NOVI SA\Slabilec PE43711B\meritve\4dB.S2P
!
! Touchstone 1.1 file saved by VNA.EXE V1.65 (www.ke5fx.com/gpib/readme.htm)
! 2. 04. 2022 19:13:06
!
!    Source: HP8510C.07.14: Aug 26  1998 
!  Min freq: 4.500000E+007 Hz
!  Max freq: 6.000000E+009 Hz
!    Points: 801
!    Params: S11 S21 S12 S22
!
!!!!!
# GHZ S DB R 50
0.0450000000000000 -21.011200 -22.437964 -5.094408 -0.465221 -5.022189 -0.529954 -24.493074 -151.909071 
0.0524437500000000 -21.121278 -21.665639 -5.082282 -1.349885 -5.021456 -1.380994 -24.751034 -155.294102 
0.0598875000000000 -21.200162 -21.614073 -5.080479 -2.150247 -5.021685 -2.057758 -24.906096 -157.999027 
0.0673312500000000 -21.232837 -21.800008 -5.093007 -2.785661 -5.035392 -2.732847 -24.979516 -160.157859 
0.0747750000000000 -21.238889 -22.245630 -5.081194 -3.463958 -5.042568 -3.370309 -25.036083 -161.763756 
0.0822187500000000 -21.258734 -22.766984 -5.082793 -3.933306 -5.035903 -3.959045 -25.079209 -163.089616 
0.0896625000000000 -21.274438 -23.711407 -5.088252 -4.590958 -5.045353 -4.552612 -25.120554 -164.367769 
0.0971062500000000 -21.271020 -24.413596 -5.088605 -5.190163 -5.039921 -5.088942 -25.133214 -165.395149 
0.1045500000000000 -21.254743 -25.140774 -5.093372 -5.720284 -5.039393 -5.659622 -25.151702 -166.323965 
0.1119937500000000 -21.250535 -26.160931 -5.091347 -6.268709 -5.045434 -6.241814 -25.164119 -166.951352 
0.1194375000000000 -21.253362 -26.875576 -5.092764 -6.794843 -5.045909 -6.792743 -25.216735 -167.632630 
0.1268812500000000 -21.243703 -27.871307 -5.101730 -7.315445 -5.060669 -7.280757 -25.195576 -168.236331 
0.1343250000000000 -21.198867 -28.863779 -5.092845 -7.827865 -5.043835 -7.878190 -25.203298 -168.899577 
0.1417687500000000 -21.185544 -29.858611 -5.108743 -8.363867 -5.057795 -8.362062 -25.204674 -169.444761 
0.1492125000000000 -21.163789 -30.856186 -5.106194 -8.873958 -5.062942 -8.889750 -25.197792 -169.770550 
0.1566562500000000 -21.168397 -31.772945 -5.098495 -9.426654 -5.066803 -9.382478 -25.203329 -170.264913 
0.1641000000000000 -21.145284 -32.739722 -5.113548 -9.893738 -5.066680 -9.929021 -25.190738 -170.931532 
0.1715437500000000 -21.125629 -33.759764 -5.113566 -10.463487 -5.074554 -10.368242 -25.180504 -171.309807 
0.1789875000000000 -21.102550 -34.847073 -5.115985 -10.905764 -5.071891 -10.920109 -25.172427 -171.718796 
0.1864312500000000 -21.112349 -35.922352 -5.106914 -11.420443 -5.080103 -11.391173 -25.141056 -172.191690 
0.1938750000000000 -21.108411 -36.928005 -5.113227 -11.888823 -5.075262 -11.903516 -25.124913 -172.602080 
0.2013187500000000 -21.097266 -38.135778 -5.121003 -12.399536 -5.076118 -12.398836 -25.107160 -172.914758 
0.2087625000000000 -21.084936 -39.302997 -5.119743 -12.911443 -5.077741 -12.867399 -25.070727 -173.400388 
0.2162062500000000 -21.082519 -40.415468 -5.121444 -13.390018 -5.086263 -13.386538 -25.022009 -173.831502 
0.2236500000000000 -21.064999 -41.510631 -5.137868 -13.893735 -5.091303 -13.902113 -24.988670 -174.138191 
0.2310937500000000 -21.045875 -42.673859 -5.124583 -14.421819 -5.096064 -14.331340 -24.950268 -174.608768 
0.2385375000000000 -21.039699 -43.864131 -5.137255 -14.900490 -5.096722 -14.888074 -24.927857 -174.769806 
0.2459812500000000 -21.026361 -44.970431 -5.134761 -15.360649 -5.093533 -15.387157 -24.890769 -175.013717 
0.2534250000000000 -20.998576 -46.140909 -5.135539 -15.893335 -5.095645 -15.897036 -24.851613 -175.275864 
0.2608687500000000 -20.947877 -47.222408 -5.142514 -16.393461 -5.085492 -16.276659 -24.837738 -175.518784 
0.2683125000000000 -20.919638 -48.415895 -5.155078 -16.900260 -5.087220 -16.800925 -24.766884 -175.837959 
0.2757562500000000 -20.910667 -49.539293 -5.148708 -17.390633 -5.098363 -17.290241 -24.755081 -175.836043 
0.2832000000000000 -20.849716 -50.535747 -5.154071 -17.936513 -5.102461 -17.820068 -24.706508 -176.141809 
0.2906437500000000 -20.838610 -51.684179 -5.153931 -18.335863 -5.108503 -18.256729 -24.673468 -176.462195 
0.2980875000000000 -20.799784 -52.658473 -5.150852 -18.833153 -5.105415 -18.724572 -24.653080 -176.560292 
0.3055312500000000 -20.755835 -53.767696 -5.160097 -19.296327 -5.122534 -19.219796 -24.611368 -176.904383 
0.3129750000000000 -20.719035 -54.704935 -5.159942 -19.810202 -5.124874 -19.650008 -24.619715 -176.959152 
0.3204187500000000 -20.680585 -55.752002 -5.173531 -20.230814 -5.122283 -20.160387 -24.588444 -177.333811 
0.3278625000000000 -20.643498 -56.791713 -5.171266 -20.733092 -5.133899 -20.660264 -24.580081 -177.508762 
0.3353062500000000 -20.599693 -57.775421 -5.182356 -21.233575 -5.122732 -21.162495 -24.573696 -177.840207 
0.3427500000000000 -20.580383 -58.996568 -5.174732 -21.725411 -5.130074 -21.635546 -24.545865 -178.083347 
0.3501937500000000 -20.544627 -60.057980 -5.178652 -22.187464 -5.140058 -22.073678 -24.550417 -178.335278 
0.3576375000000000 -20.529241 -61.089572 -5.190339 -22.683184 -5.147564 -22.569016 -24.503478 -178.674731 
0.3650812500000000 -20.495678 -62.113315 -5.190307 -23.148930 -5.143912 -23.066587 -24.503251 -179.063936 
0.3725250000000000 -20.475149 -63.138641 -5.192599 -23.626466 -5.154062 -23.519010 -24.484302 -179.468906 
0.3799687500000000 -20.455734 -64.115867 -5.202965 -24.077539 -5.151740 -23.985943 -24.442281 -179.881535 
0.3874125000000000 -20.426249 -65.045930 -5.202849 -24.546948 -5.158173 -24.470156 -24.416597 179.812834 
0.3948562500000000 -20.369353 -66.123418 -5.197211 -25.022174 -5.149018 -24.919628 -24.384026 179.418878 
0.4023000000000000 -20.366195 -67.121116 -5.200166 -25.543300 -5.150265 -25.470624 -24.374382 179.003573 
0.4097437500000000 -20.332268 -68.028228 -5.212996 -25.997862 -5.161238 -25.958728 -24.327485 178.771483 
0.4171875000000000 -20.325344 -68.958739 -5.214603 -26.495212 -5.170958 -26.499108 -24.331922 178.490051 
0.4246312500000000 -20.293972 -69.883227 -5.219519 -26.923735 -5.177872 -26.944720 -24.316386 178.181865 
0.4320750000000000 -20.260868 -70.780853 -5.207374 -27.421714 -5.174737 -27.415656 -24.326332 177.992654 
0.4395187500000000 -20.238164 -71.646747 -5.232471 -27.807030 -5.183136 -27.867471 -24.301435 177.687963 
0.4469625000000000 -20.213228 -72.590787 -5.229875 -28.300868 -5.190529 -28.305820 -24.308837 177.324908 
0.4544062500000000 -20.196625 -73.489844 -5.229105 -28.834289 -5.196809 -28.847927 -24.293078 177.071481 
0.4618500000000000 -20.149398 -74.440061 -5.231892 -29.326785 -5.200407 -29.312513 -24.279110 176.988432 
0.4692937500000000 -20.131862 -75.341037 -5.236356 -29.789664 -5.211012 -29.751002 -24.275175 176.774949 
0.4767375000000000 -20.093609 -76.229534 -5.239694 -30.287848 -5.224114 -30.194658 -24.293208 176.394944 
0.4841812500000000 -20.059911 -77.118380 -5.251053 -30.759019 -5.227040 -30.640801 -24.311112 176.139236 
0.4916250000000000 -20.024925 -78.073187 -5.256740 -31.255956 -5.227713 -31.149332 -24.334532 175.975425 
0.4990687500000000 -19.987953 -78.937481 -5.255727 -31.796630 -5.220668 -31.648039 -24.353741 175.610154 
0.5065125000000000 -19.946106 -79.742754 -5.264750 -32.236275 -5.232886 -32.062601 -24.382117 175.523141 
0.5139562500000000 -19.904544 -80.518486 -5.275872 -32.691638 -5.231515 -32.572707 -24.412352 175.469242 
0.5214000000000000 -19.872722 -81.497675 -5.280509 -33.143622 -5.240196 -33.079216 -24.447287 175.315557 
0.5288437500000000 -19.822988 -82.398710 -5.296707 -33.606629 -5.249345 -33.572473 -24.458667 175.226954 
0.5362875000000000 -19.753943 -83.219413 -5.294065 -34.094629 -5.262632 -34.002945 -24.460656 175.143382 
0.5437312500000000 -19.702020 -84.107840 -5.316961 -34.476305 -5.266424 -34.493087 -24.474574 175.343000 
0.5511750000000000 -19.644518 -85.034080 -5.318683 -34.901909 -5.276923 -34.905898 -24.441191 175.249369 
0.5586187500000001 -19.593832 -86.077702 -5.328095 -35.290682 -5.280476 -35.385742 -24.411139 175.171056 
0.5660625000000000 -19.550627 -86.980886 -5.328144 -35.693453 -5.286997 -35.819565 -24.369514 175.301200 
0.5735062500000000 -19.496004 -88.087759 -5.332140 -36.155279 -5.297270 -36.226674 -24.292996 175.096217 
0.5809500000000000 -19.462130 -89.153546 -5.336279 -36.578682 -5.302348 -36.663522 -24.246249 174.993831 
0.5883937500000001 -19.422038 -90.112474 -5.332776 -37.043713 -5.314849 -37.079789 -24.157143 174.655476 
0.5958375000000000 -19.388209 -91.122465 -5.336952 -37.362840 -5.301337 -37.473501 -24.101181 174.272667 
0.6032812500000000 -19.366775 -92.152381 -5.329460 -37.879521 -5.314978 -37.897180 -24.032007 173.834126 
0.6107250000000000 -19.334750 -93.232837 -5.333930 -38.313117 -5.307109 -38.302865 -24.004268 173.295828 
0.6181687500000000 -19.307891 -94.128897 -5.333490 -38.796308 -5.309600 -38.719445 -23.951548 172.923696 
0.6256125000000000 -19.284132 -94.979768 -5.329730 -39.296108 -5.314880 -39.189024 -23.938685 172.219654 
0.6330562500000000 -19.251191 -96.020444 -5.335273 -39.749295 -5.304031 -39.651577 -23.892375 171.653129 
0.6405000000000000 -19.236414 -96.882439 -5.328297 -40.231425 -5.298686 -40.152929 -23.853039 171.191691 
0.6479437500000000 -19.225167 -97.758319 -5.320160 -40.771361 -5.303740 -40.563572 -23.844680 170.424678 
0.6553875000000000 -19.204105 -98.504931 -5.352071 -41.123020 -5.301017 -41.000902 -23.848253 169.864441 
0.6628312500000000 -19.180663 -99.299166 -5.350723 -41.615662 -5.291161 -41.467981 -23.851827 169.223028 
0.6702750000000000 -19.163642 -100.142748 -5.348360 -42.081875 -5.292041 -41.944787 -23.821578 168.714692 
0.6777187500000000 -19.152222 -101.000460 -5.352896 -42.549139 -5.296205 -42.460348 -23.870538 168.005353 
0.6851625000000000 -19.114449 -101.698965 -5.349032 -42.981995 -5.297625 -43.047412 -23.851572 167.415049 
0.6926062500000000 -19.108730 -102.423331 -5.357286 -43.441943 -5.305551 -43.541182 -23.826066 166.846578 
0.7000500000000000 -19.090563 -103.155873 -5.365744 -43.864784 -5.322205 -44.048469 -23.846430 166.318284 
0.7074937500000000 -19.083376 -103.866905 -5.355758 -44.342592 -5.338301 -44.494790 -23.822035 165.734931 
0.7149375000000000 -19.076183 -104.698752 -5.361638 -44.758180 -5.338288 -44.952000 -23.811009 165.124804 
0.7223812500000000 -19.066907 -105.388033 -5.351946 -45.184314 -5.348921 -45.299831 -23.842612 164.385204 
0.7298250000000000 -19.050985 -106.191939 -5.348563 -45.701504 -5.347389 -45.770064 -23.842636 163.955538 
0.7372687500000000 -19.019361 -106.880826 -5.349448 -46.182307 -5.341393 -46.206372 -23.835003 163.360822 
0.7447125000000000 -19.016598 -107.803559 -5.347122 -46.661545 -5.347012 -46.686706 -23.846430 162.859863 
0.7521562500000000 -18.989742 -108.537094 -5.352492 -47.206691 -5.346798 -47.139980 -23.844397 162.271986 
0.7596000000000001 -18.965310 -109.441215 -5.367769 -47.692709 -5.357428 -47.629876 -23.839035 161.798933 
0.7670437500000000 -18.968036 -110.175779 -5.374689 -48.128129 -5.365676 -48.015804 -23.878408 161.327952 
0.7744875000000000 -18.930138 -110.936237 -5.382360 -48.561291 -5.374564 -48.481041 -23.839739 160.732662 
0.7819312500000000 -18.897494 -111.663783 -5.376643 -48.976586 -5.370659 -48.948543 -23.859942 160.101641 
0.7893750000000001 -18.876213 -112.395180 -5.378022 -49.461935 -5.358606 -49.347392 -23.858182 159.497608 
0.7968187500000000 -18.838979 -113.104677 -5.385929 -49.894971 -5.361475 -49.786866 -23.896721 159.131455 
0.8042625000000000 -18.813605 -113.783414 -5.376126 -50.395437 -5.358226 -50.278443 -23.891594 158.715398 
0.8117062500000000 -18.794993 -114.508989 -5.384783 -50.903148 -5.372199 -50.778076 -23.876337 158.328908 
0.8191500000000000 -18.764103 -115.161781 -5.395275 -51.377798 -5.368005 -51.301186 -23.921411 157.806866 
0.8265937500000000 -18.752528 -115.719183 -5.404292 -51.825029 -5.366597 -51.813808 -23.917093 157.493893 
0.8340375000000000 -18.717536 -116.333996 -5.411742 -52.226956 -5.374206 -52.313640 -23.953694 157.029210 
0.8414812500000000 -18.699560 -116.919345 -5.411872 -52.647890 -5.379894 -52.773752 -23.975039 156.552184 
0.8489250000000000 -18.684371 -117.411025 -5.407915 -53.023533 -5.376024 -53.146985 -24.034488 156.134446 
0.8563687500000000 -18.661305 -118.138710 -5.413803 -53.525351 -5.387869 -53.693898 -24.064449 155.752441 
0.8638125000000000 -18.637195 -118.684418 -5.416648 -53.986778 -5.402831 -54.060988 -24.098957 155.615053 
0.8712562500000000 -18.625511 -119.282026 -5.417061 -54.487355 -5.413465 -54.510274 -24.132037 155.022202 
0.8787000000000000 -18.641327 -119.960037 -5.422869 -54.973884 -5.421338 -54.911183 -24.176148 154.428597 
0.8861437500000000 -18.628781 -120.707997 -5.418448 -55.403591 -5.428132 -55.323749 -24.210866 154.218272 
0.8935875000000000 -18.626985 -121.382681 -5.442712 -55.877967 -5.425292 -55.746600 -24.245743 153.906666 
0.9010312500000000 -18.617865 -121.772613 -5.429485 -56.275500 -5.421818 -56.114835 -24.276520 153.339789 
0.9084750000000000 -18.589314 -122.661432 -5.418264 -56.794081 -5.431995 -56.589998 -24.321479 153.307150 
0.9159187500000000 -18.582495 -123.418706 -5.440769 -57.217696 -5.430409 -57.051672 -24.393500 152.947031 
0.9233625000000000 -18.553766 -124.023145 -5.437931 -57.735854 -5.429056 -57.500118 -24.418548 152.377404 
0.9308062500000000 -18.555405 -124.624335 -5.445751 -58.126289 -5.435304 -57.910933 -24.422038 151.980884 
0.9382500000000000 -18.522778 -125.516031 -5.448294 -58.562055 -5.425127 -58.341268 -24.475096 151.741988 
0.9456937500000000 -18.516645 -125.947855 -5.467977 -59.067757 -5.420744 -58.829422 -24.561666 151.110687 
0.9531375000000000 -18.483777 -126.539125 -5.466653 -59.441383 -5.421768 -59.301023 -24.649401 150.665121 
0.9605812500000001 -18.439635 -127.316609 -5.462995 -59.913423 -5.423802 -59.881746 -24.681775 150.385482 
0.9680250000000000 -18.432983 -127.849536 -5.462914 -60.376956 -5.430309 -60.412557 -24.670110 150.265558 
0.9754687500000000 -18.384313 -128.502237 -5.464071 -60.764280 -5.448091 -60.898171 -24.739659 149.030420 
0.9829125000000000 -18.362447 -129.034943 -5.463813 -61.262061 -5.464310 -61.370558 -24.836786 149.589672 
0.9903562500000001 -18.335406 -129.563903 -5.469101 -61.680015 -5.472215 -61.752837 -24.891522 148.613283 
0.9978000000000000 -18.314721 -130.003795 -5.477993 -62.114002 -5.468442 -62.152887 -24.971527 148.530307 
1.0052437500000000 -18.301525 -130.557234 -5.479685 -62.538518 -5.475328 -62.533086 -25.007404 148.337070 
1.0126875000000000 -18.267916 -131.224332 -5.474189 -63.035496 -5.475944 -63.011175 -25.119565 147.806860 
1.0201312499999999 -18.273143 -131.613007 -5.472727 -63.490747 -5.472058 -63.492946 -25.211457 147.601815 
1.0275749999999999 -18.286868 -132.156604 -5.481431 -63.925875 -5.474612 -63.946045 -25.271081 147.134070 
1.0350187500000001 -18.270141 -132.662825 -5.478548 -64.429725 -5.500454 -64.411610 -25.322920 146.499568 
1.0424625000000001 -18.262830 -133.266210 -5.495652 -64.867565 -5.515003 -64.802128 -25.371643 146.110226 
1.0499062500000000 -18.268054 -133.765450 -5.493411 -65.280943 -5.511527 -65.135026 -25.438990 145.589914 
1.0573500000000000 -18.269665 -134.446598 -5.493856 -65.747948 -5.513021 -65.607644 -25.549968 145.136717 
1.0647937500000000 -18.253956 -135.046769 -5.497648 -66.151353 -5.506532 -65.966730 -25.555571 144.466903 
1.0722375000000000 -18.276712 -135.593140 -5.487367 -66.583324 -5.499724 -66.424086 -25.658166 143.948121 
1.0796812499999999 -18.275795 -136.274946 -5.482592 -67.111737 -5.501729 -66.920584 -25.753521 143.433610 
1.0871249999999999 -18.243863 -136.966231 -5.495125 -67.604738 -5.508773 -67.387357 -25.768227 143.024803 
1.0945687500000001 -18.221020 -137.554646 -5.495285 -68.052191 -5.514995 -67.837723 -25.854292 142.337152 
1.1020125000000001 -18.223101 -138.231255 -5.501424 -68.532285 -5.527065 -68.202581 -25.928893 141.886017 
1.1094562500000000 -18.190359 -138.813739 -5.506420 -68.980829 -5.516775 -68.673205 -26.005739 141.099616 
1.1169000000000000 -18.203364 -139.341067 -5.517851 -69.430240 -5.524796 -69.112833 -26.099840 140.659842 
1.1243437500000000 -18.184867 -139.929436 -5.523669 -69.875534 -5.505669 -69.620432 -26.104151 140.212791 
1.1317874999999999 -18.145698 -140.592957 -5.525791 -70.272730 -5.523010 -70.037064 -26.221151 139.597885 
1.1392312499999999 -18.132828 -140.912896 -5.514193 -70.774258 -5.520540 -70.549708 -26.320015 139.273557 
1.1466750000000001 -18.105150 -141.342662 -5.515945 -71.192538 -5.523981 -71.031352 -26.365609 138.744758 
1.1541187500000001 -18.106343 -141.910291 -5.524349 -71.647564 -5.525428 -71.397914 -26.552257 138.406408 
1.1615625000000001 -18.107807 -142.450165 -5.528396 -72.111568 -5.535640 -71.873572 -26.583285 137.507172 
1.1690062500000000 -18.091173 -142.856405 -5.539187 -72.508802 -5.538868 -72.294273 -26.661300 136.932043 
1.1764500000000000 -18.070773 -143.310390 -5.542582 -72.993878 -5.535882 -72.727066 -26.770243 136.882268 
1.1838937500000000 -18.081109 -143.667399 -5.535961 -73.421766 -5.542458 -73.218960 -26.900775 136.602770 
1.1913374999999999 -18.071647 -144.176628 -5.534327 -73.783440 -5.551708 -73.798376 -27.010591 135.916310 
1.1987812499999999 -18.067061 -144.690936 -5.518744 -74.276764 -5.559290 -74.201277 -27.082184 135.371993 
1.2062250000000001 -18.077278 -144.868361 -5.528870 -74.727779 -5.565696 -74.599350 -27.156578 135.284476 
1.2136687500000001 -18.067540 -145.505815 -5.528397 -75.252065 -5.578051 -74.911022 -27.281584 134.846313 
1.2211125000000000 -18.080609 -145.968279 -5.527292 -75.724954 -5.568801 -75.301887 -27.412677 134.304257 
1.2285562500000000 -18.060486 -146.490788 -5.530203 -76.210653 -5.554087 -75.775663 -27.486046 133.861957 
1.2360000000000000 -18.075086 -147.165751 -5.536393 -76.690544 -5.554540 -76.212149 -27.642071 133.389493 
1.2434437500000000 -18.084319 -147.576145 -5.532996 -77.164224 -5.548952 -76.738993 -27.776743 133.232784 
1.2508874999999999 -18.073523 -148.187634 -5.537567 -77.570939 -5.556332 -77.214105 -27.919574 132.956202 
1.2583312499999999 -18.058361 -148.649550 -5.541614 -78.039070 -5.569078 -77.667805 -28.022663 132.664981 
1.2657750000000001 -18.074176 -149.174986 -5.539009 -78.576520 -5.569648 -78.128785 -28.140482 132.155182 
1.2732187500000001 -18.034684 -149.706162 -5.553831 -79.036492 -5.575562 -78.531081 -28.284268 131.461829 
1.2806625000000000 -18.046060 -150.180649 -5.550229 -79.516488 -5.573610 -78.977345 -28.398850 131.017630 
1.2881062500000000 -18.039738 -150.601689 -5.576057 -79.859789 -5.566000 -79.422953 -28.545611 131.024244 
1.2955500000000000 -18.055769 -151.052481 -5.566330 -80.302517 -5.566919 -79.937995 -28.803380 130.803949 
1.3029937500000000 -18.010283 -151.469439 -5.582187 -80.685813 -5.574333 -80.435005 -28.926934 130.173936 
1.3104374999999999 -18.007043 -151.777260 -5.573941 -81.145491 -5.579166 -80.874273 -29.115809 130.138488 
1.3178812499999999 -17.987089 -152.191327 -5.572246 -81.580575 -5.593573 -81.330787 -29.276618 129.742671 
1.3253250000000001 -17.974380 -152.610457 -5.566609 -82.068910 -5.591342 -81.683021 -29.502655 129.433263 
1.3327687500000001 -17.979402 -152.848577 -5.568435 -82.529525 -5.588524 -82.119294 -29.748958 129.273823 
1.3402125000000000 -17.971157 -153.322731 -5.571452 -82.975485 -5.587179 -82.526708 -29.899061 129.128741 
1.3476562500000000 -17.990090 -153.717247 -5.572171 -83.436451 -5.588326 -82.981870 -30.155011 128.487010 
1.3551000000000000 -17.978636 -154.126610 -5.574278 -83.892750 -5.588511 -83.501067 -30.360335 128.322827 
1.3625437499999999 -17.975615 -154.472491 -5.576540 -84.328746 -5.599815 -83.935020 -30.601855 127.774771 
1.3699874999999999 -17.974943 -154.978088 -5.572874 -84.811588 -5.598701 -84.421332 -30.817028 127.829374 
1.3774312500000001 -17.960127 -155.297888 -5.568930 -85.280466 -5.612899 -84.811009 -31.017897 127.188123 
1.3848750000000001 -17.964691 -155.764688 -5.570947 -85.792300 -5.603900 -85.204521 -31.164037 126.860016 
1.3923187500000000 -17.982223 -156.306145 -5.570843 -86.261685 -5.598565 -85.641915 -31.383879 126.937976 
1.3997625000000000 -17.984584 -156.750883 -5.588439 -86.744127 -5.588165 -86.077478 -31.647979 126.635109 
1.4072062500000000 -17.999382 -157.242721 -5.584152 -87.218640 -5.575876 -86.635684 -31.851456 127.067921 
