!
! C:\Users\Aljaz\OneDrive - Univerza v Ljubljani\DOKTORAT\NOVI SA\Slabilec PE43711B\meritve\8dB.S2P
!
! Touchstone 1.1 file saved by VNA.EXE V1.65 (www.ke5fx.com/gpib/readme.htm)
! 2. 04. 2022 19:14:08
!
!    Source: HP8510C.07.14: Aug 26  1998 
!  Min freq: 4.500000E+007 Hz
!  Max freq: 6.000000E+009 Hz
!    Points: 801
!    Params: S11 S21 S12 S22
!
!!!!!
# GHZ S DB R 50
0.0450000000000000 -22.698192 -23.023570 -9.122938 -0.267410 -9.054571 -0.344663 -19.311033 -168.594241 
0.0524437500000000 -22.803575 -22.133213 -9.106458 -1.169958 -9.043873 -1.178894 -19.398362 -171.070103 
0.0598875000000000 -22.870077 -22.059517 -9.115222 -1.900495 -9.038037 -1.878726 -19.418098 -172.952822 
0.0673312500000000 -22.909845 -22.215601 -9.116597 -2.620597 -9.052978 -2.536927 -19.459690 -174.511961 
0.0747750000000000 -22.931250 -22.651202 -9.106576 -3.229508 -9.062621 -3.156011 -19.469962 -175.855051 
0.0822187500000000 -22.960318 -23.041616 -9.112966 -3.804604 -9.062891 -3.782701 -19.490916 -177.053191 
0.0896625000000000 -22.951639 -23.860553 -9.114102 -4.398328 -9.070457 -4.308974 -19.505335 -178.137343 
0.0971062500000000 -22.959874 -24.467352 -9.126474 -4.933900 -9.068825 -4.906164 -19.515449 -179.106989 
0.1045500000000000 -22.925416 -25.400041 -9.120004 -5.484631 -9.069186 -5.457525 -19.532185 179.983430 
0.1119937500000000 -22.914629 -26.242395 -9.114277 -6.080746 -9.069685 -5.997048 -19.530288 179.148951 
0.1194375000000000 -22.903203 -27.100296 -9.122596 -6.604570 -9.074730 -6.558112 -19.566194 178.246976 
0.1268812500000000 -22.890106 -28.153544 -9.121119 -7.084115 -9.083005 -7.065458 -19.570091 177.582188 
0.1343250000000000 -22.831317 -29.011374 -9.128850 -7.569519 -9.073634 -7.641602 -19.585754 176.762031 
0.1417687500000000 -22.830716 -29.801592 -9.132484 -8.128340 -9.092563 -8.136087 -19.603686 176.079525 
0.1492125000000000 -22.801439 -30.752876 -9.127435 -8.629055 -9.084925 -8.664620 -19.605536 175.452476 
0.1566562500000000 -22.796381 -31.640793 -9.126991 -9.165137 -9.095806 -9.139582 -19.617017 174.655040 
0.1641000000000000 -22.771452 -32.632874 -9.130121 -9.637498 -9.094526 -9.663397 -19.633243 173.956451 
0.1715437500000000 -22.732618 -33.642744 -9.134063 -10.129592 -9.095577 -10.145088 -19.640365 173.246675 
0.1789875000000000 -22.728020 -34.618318 -9.141956 -10.609958 -9.093685 -10.694937 -19.647470 172.553755 
0.1864312500000000 -22.728687 -35.585162 -9.141719 -11.083996 -9.105723 -11.177374 -19.657948 171.910613 
0.1938750000000000 -22.732262 -36.654655 -9.136473 -11.587772 -9.096308 -11.673461 -19.672946 171.270961 
0.2013187500000000 -22.698839 -37.779775 -9.150764 -12.114376 -9.104723 -12.123330 -19.662384 170.568434 
0.2087625000000000 -22.697093 -38.859563 -9.135857 -12.644184 -9.108585 -12.601330 -19.664929 169.993842 
0.2162062500000000 -22.679439 -40.046344 -9.137651 -13.109078 -9.107301 -13.098392 -19.659964 169.277450 
0.2236500000000000 -22.660974 -41.131877 -9.158260 -13.599868 -9.112858 -13.571265 -19.659169 168.721805 
0.2310937500000000 -22.634686 -42.255868 -9.148916 -14.090963 -9.122603 -14.042297 -19.660368 168.121628 
0.2385375000000000 -22.624464 -43.295830 -9.158051 -14.564509 -9.126699 -14.523794 -19.671574 167.565689 
0.2459812500000000 -22.590743 -44.585563 -9.162329 -15.047040 -9.114403 -15.065709 -19.662807 167.022401 
0.2534250000000000 -22.554927 -45.576586 -9.162263 -15.515376 -9.120884 -15.543512 -19.671375 166.527268 
0.2608687500000000 -22.489116 -46.682957 -9.171598 -16.036540 -9.106333 -15.939221 -19.688208 165.918760 
0.2683125000000000 -22.470717 -47.830559 -9.173511 -16.495796 -9.113023 -16.440537 -19.692670 165.445419 
0.2757562500000000 -22.435769 -48.963769 -9.164787 -16.966469 -9.125827 -16.898716 -19.666847 165.030651 
0.2832000000000000 -22.368719 -50.083788 -9.181504 -17.434770 -9.117212 -17.438207 -19.699984 164.407284 
0.2906437500000000 -22.347501 -51.039855 -9.184282 -17.916019 -9.126352 -17.858590 -19.698887 163.902355 
0.2980875000000000 -22.301217 -52.060931 -9.176788 -18.349861 -9.123306 -18.346426 -19.721615 163.466400 
0.3055312500000000 -22.247917 -53.167758 -9.180072 -18.845434 -9.139200 -18.811838 -19.729144 162.949294 
0.3129750000000000 -22.208644 -53.975115 -9.187500 -19.304429 -9.140720 -19.281545 -19.760996 162.439214 
0.3204187500000000 -22.153487 -55.052260 -9.184231 -19.831076 -9.147449 -19.778411 -19.752334 161.832405 
0.3278625000000000 -22.111953 -55.965924 -9.194548 -20.319809 -9.149719 -20.242685 -19.787763 161.328305 
0.3353062500000000 -22.048450 -56.916977 -9.190814 -20.829906 -9.141415 -20.711702 -19.805973 160.738398 
0.3427500000000000 -22.009555 -58.091850 -9.202621 -21.224391 -9.152849 -21.180650 -19.836187 160.186030 
0.3501937500000000 -21.972053 -59.153841 -9.202699 -21.726012 -9.163706 -21.637291 -19.836438 159.653322 
0.3576375000000000 -21.941008 -60.180882 -9.206076 -22.170158 -9.160520 -22.094124 -19.848838 159.030652 
0.3650812500000000 -21.897933 -61.144292 -9.218300 -22.623945 -9.168351 -22.595904 -19.868781 158.478837 
0.3725250000000000 -21.881140 -62.099624 -9.214197 -23.097776 -9.169149 -23.036936 -19.903133 157.981854 
0.3799687500000000 -21.846579 -63.060158 -9.226385 -23.536995 -9.171268 -23.494253 -19.905879 157.343379 
0.3874125000000000 -21.810985 -64.035786 -9.216892 -24.017639 -9.179452 -23.971166 -19.910169 156.690067 
0.3948562500000000 -21.758379 -64.947860 -9.221978 -24.515082 -9.168237 -24.472644 -19.929416 156.233201 
0.4023000000000000 -21.737048 -65.899816 -9.228472 -25.013837 -9.175688 -24.949001 -19.930506 155.622083 
0.4097437500000000 -21.696751 -66.685572 -9.229975 -25.437996 -9.176938 -25.433623 -19.957957 155.156955 
0.4171875000000000 -21.684984 -67.574255 -9.237276 -25.916146 -9.178466 -25.946401 -19.983136 154.597900 
0.4246312500000000 -21.643354 -68.492833 -9.232636 -26.374891 -9.191738 -26.407331 -19.982634 153.962704 
0.4320750000000000 -21.603122 -69.379957 -9.225387 -26.831941 -9.202564 -26.894406 -20.011856 153.592536 
0.4395187500000000 -21.567462 -70.198954 -9.239598 -27.260583 -9.211192 -27.320405 -20.035955 153.093382 
0.4469625000000000 -21.519846 -71.117157 -9.235116 -27.750519 -9.205652 -27.799543 -20.060499 152.466360 
0.4544062500000000 -21.510718 -71.913783 -9.235153 -28.278291 -9.207488 -28.292036 -20.103245 151.946115 
0.4618500000000000 -21.451857 -72.788062 -9.242926 -28.767378 -9.218274 -28.784886 -20.130586 151.453998 
0.4692937500000000 -21.429394 -73.673423 -9.249495 -29.217413 -9.222770 -29.205854 -20.158645 150.946474 
0.4767375000000000 -21.370168 -74.465891 -9.248429 -29.693938 -9.225667 -29.681214 -20.208077 150.373960 
0.4841812500000000 -21.322918 -75.308772 -9.258831 -30.169631 -9.237238 -30.122090 -20.241218 149.831718 
0.4916250000000000 -21.295795 -76.120061 -9.270093 -30.640302 -9.240639 -30.604913 -20.303221 149.232648 
0.4990687500000000 -21.245765 -76.925025 -9.269983 -31.161223 -9.240534 -31.055865 -20.345842 148.714048 
0.5065125000000000 -21.203034 -77.831428 -9.281135 -31.602330 -9.250648 -31.541382 -20.403470 148.242651 
0.5139562500000000 -21.143583 -78.547293 -9.290020 -32.058320 -9.247103 -32.022041 -20.458069 147.765780 
0.5214000000000000 -21.107284 -79.319185 -9.301331 -32.470217 -9.258254 -32.485408 -20.520913 147.310233 
0.5288437500000000 -21.041224 -80.204700 -9.324054 -32.894125 -9.266622 -32.958574 -20.580248 146.745442 
0.5362875000000000 -20.968071 -81.047825 -9.317463 -33.390934 -9.283114 -33.354700 -20.620057 146.454465 
0.5437312500000000 -20.907468 -81.844160 -9.328968 -33.785178 -9.283338 -33.844695 -20.688355 146.034333 
0.5511750000000000 -20.833992 -82.806644 -9.324119 -34.198700 -9.296520 -34.275575 -20.721339 145.692076 
0.5586187500000001 -20.783082 -83.792931 -9.340870 -34.572145 -9.301031 -34.723058 -20.745056 145.403047 
0.5660625000000000 -20.712821 -84.630073 -9.346581 -34.985291 -9.303266 -35.178485 -20.789275 145.128181 
0.5735062500000000 -20.664645 -85.701729 -9.336709 -35.406668 -9.311848 -35.566182 -20.797700 144.831918 
0.5809500000000000 -20.606122 -86.703042 -9.347663 -35.855785 -9.314008 -35.992055 -20.812027 144.550482 
0.5883937500000001 -20.570346 -87.609295 -9.335611 -36.295690 -9.327262 -36.439538 -20.824750 144.037653 
0.5958375000000000 -20.510433 -88.609091 -9.338293 -36.620879 -9.315565 -36.821861 -20.798458 143.718592 
0.6032812500000000 -20.474965 -89.665265 -9.334234 -37.151575 -9.329596 -37.221549 -20.818825 143.254991 
0.6107250000000000 -20.438638 -90.616110 -9.331379 -37.639918 -9.315541 -37.649759 -20.814799 142.685503 
0.6181687500000000 -20.416641 -91.506714 -9.335745 -38.028621 -9.321279 -38.038465 -20.823562 142.244305 
0.6256125000000000 -20.371081 -92.345586 -9.334249 -38.533040 -9.318076 -38.523296 -20.826176 141.638637 
0.6330562500000000 -20.316909 -93.191148 -9.337901 -39.038689 -9.308531 -38.977206 -20.825943 140.971550 
0.6405000000000000 -20.288067 -94.142765 -9.336490 -39.527479 -9.315571 -39.453547 -20.843667 140.343691 
0.6479437500000000 -20.261462 -94.954813 -9.333322 -39.973094 -9.316131 -39.841561 -20.848187 139.775105 
0.6553875000000000 -20.230639 -95.728461 -9.356683 -40.398568 -9.311397 -40.299341 -20.879369 139.087324 
0.6628312500000000 -20.207593 -96.435862 -9.360568 -40.802719 -9.299395 -40.768934 -20.889660 138.503603 
0.6702750000000000 -20.178156 -97.247602 -9.357352 -41.257418 -9.302783 -41.244728 -20.919287 137.896120 
0.6777187500000000 -20.147273 -98.013467 -9.351029 -41.734539 -9.306495 -41.763910 -20.940870 137.075837 
0.6851625000000000 -20.096884 -98.777752 -9.355226 -42.187351 -9.301086 -42.333059 -20.963954 136.443832 
0.6926062500000000 -20.089455 -99.378459 -9.355283 -42.594333 -9.316885 -42.785805 -20.989548 135.881617 
0.7000500000000000 -20.056157 -100.085457 -9.360182 -42.984638 -9.324256 -43.310532 -21.020243 135.208573 
0.7074937500000000 -20.034864 -100.799080 -9.354625 -43.473460 -9.343690 -43.712908 -21.028513 134.589409 
0.7149375000000000 -20.028056 -101.492263 -9.346975 -43.881114 -9.343835 -44.153457 -21.055279 133.949362 
0.7223812500000000 -20.002149 -102.158888 -9.343890 -44.316609 -9.356215 -44.561611 -21.105394 133.170727 
0.7298250000000000 -19.969299 -102.951196 -9.342010 -44.867702 -9.357295 -45.000904 -21.127103 132.533989 
0.7372687500000000 -19.942349 -103.646563 -9.337065 -45.352288 -9.350114 -45.479810 -21.151978 131.915608 
0.7447125000000000 -19.942082 -104.519123 -9.340902 -45.867101 -9.351811 -45.904484 -21.187413 131.260414 
0.7521562500000000 -19.887843 -105.143088 -9.351307 -46.388015 -9.352023 -46.342765 -21.211218 130.616016 
0.7596000000000001 -19.863300 -105.965790 -9.366336 -46.863143 -9.359819 -46.843574 -21.247599 129.931567 
0.7670437500000000 -19.837522 -106.751022 -9.374077 -47.240664 -9.362863 -47.225046 -21.279900 129.369420 
0.7744875000000000 -19.809542 -107.431449 -9.378088 -47.703459 -9.370666 -47.699322 -21.310105 128.769754 
0.7819312500000000 -19.771165 -108.129990 -9.373653 -48.100933 -9.373415 -48.129988 -21.336612 128.041107 
0.7893750000000001 -19.733001 -108.914848 -9.380318 -48.537266 -9.375122 -48.560675 -21.376513 127.530648 
0.7968187500000000 -19.685116 -109.525502 -9.376075 -49.067983 -9.370211 -48.995975 -21.415068 126.885848 
0.8042625000000000 -19.646045 -110.159156 -9.376961 -49.524582 -9.359805 -49.502897 -21.451585 126.236482 
0.8117062500000000 -19.612421 -110.818553 -9.389501 -50.001070 -9.367788 -49.946595 -21.485070 125.862645 
0.8191500000000000 -19.566842 -111.480156 -9.394825 -50.438087 -9.360993 -50.458840 -21.526849 125.212960 
0.8265937500000000 -19.544565 -112.049825 -9.396272 -50.913646 -9.367130 -50.966855 -21.576750 124.595042 
0.8340375000000000 -19.499930 -112.608753 -9.396082 -51.285814 -9.372540 -51.429766 -21.613866 124.068921 
0.8414812500000000 -19.456672 -113.163003 -9.403187 -51.696932 -9.382114 -51.907993 -21.659470 123.447913 
0.8489250000000000 -19.423326 -113.527842 -9.392075 -52.075727 -9.375291 -52.197677 -21.751042 122.774909 
0.8563687500000000 -19.386644 -114.210844 -9.396777 -52.605496 -9.391444 -52.797598 -21.809790 122.140642 
0.8638125000000000 -19.362407 -114.743652 -9.402691 -53.071264 -9.400189 -53.173966 -21.875960 121.705771 
0.8712562500000000 -19.338478 -115.321321 -9.415894 -53.512150 -9.413983 -53.608203 -21.924213 120.979197 
0.8787000000000000 -19.341583 -115.980606 -9.407125 -54.054074 -9.419427 -54.020722 -22.004777 120.220566 
0.8861437500000000 -19.309128 -116.542483 -9.407252 -54.435303 -9.426382 -54.389520 -22.059393 119.695051 
0.8935875000000000 -19.287150 -117.269213 -9.431285 -54.940947 -9.418611 -54.813099 -22.155299 119.140305 
0.9010312500000000 -19.286977 -117.633916 -9.416478 -55.321189 -9.415354 -55.228835 -22.176599 118.430276 
0.9084750000000000 -19.257497 -118.578272 -9.411703 -55.828395 -9.432129 -55.667799 -22.257904 118.045807 
0.9159187500000000 -19.219487 -119.153375 -9.433868 -56.244556 -9.423618 -56.171443 -22.352447 117.204537 
0.9233625000000000 -19.209963 -119.743893 -9.431486 -56.708535 -9.424756 -56.561114 -22.400499 116.701645 
0.9308062500000000 -19.175507 -120.551611 -9.434409 -57.174965 -9.429308 -57.008578 -22.453243 116.190367 
0.9382500000000000 -19.148577 -121.185333 -9.443247 -57.593041 -9.420530 -57.406024 -22.565117 115.442133 
0.9456937500000000 -19.109348 -121.875533 -9.455005 -58.062332 -9.420853 -57.897567 -22.610159 114.752253 
0.9531375000000000 -19.081414 -122.394733 -9.456488 -58.413591 -9.418607 -58.403007 -22.686881 113.972468 
0.9605812500000001 -19.018358 -123.063642 -9.444980 -58.942842 -9.417487 -58.867756 -22.750578 113.612198 
0.9680250000000000 -18.997394 -123.635517 -9.445710 -59.299580 -9.421067 -59.446989 -22.804595 112.982568 
0.9754687500000000 -18.954618 -124.232369 -9.435046 -59.803975 -9.440410 -59.849352 -22.887649 112.057209 
0.9829125000000000 -18.913098 -124.757240 -9.447843 -60.287940 -9.457934 -60.357566 -23.010078 111.776726 
0.9903562500000001 -18.862522 -125.253715 -9.448879 -60.716309 -9.473598 -60.720206 -23.062117 110.958927 
0.9978000000000000 -18.837478 -125.726147 -9.463684 -61.083996 -9.472135 -61.109653 -23.181042 110.260508 
1.0052437500000000 -18.801180 -126.231319 -9.461872 -61.582198 -9.471099 -61.558122 -23.243901 109.862930 
1.0126875000000000 -18.800852 -126.829157 -9.467899 -62.041627 -9.467356 -61.990539 -23.362147 108.937783 
1.0201312499999999 -18.760553 -127.275813 -9.463604 -62.473647 -9.472477 -62.495925 -23.454585 108.251829 
1.0275749999999999 -18.751124 -127.801268 -9.462418 -62.963090 -9.467532 -62.966303 -23.514838 107.443529 
1.0350187500000001 -18.711310 -128.284015 -9.460071 -63.433791 -9.491648 -63.355653 -23.621537 106.701149 
1.0424625000000001 -18.693312 -128.846580 -9.477850 -63.828467 -9.499790 -63.803790 -23.664244 105.903740 
1.0499062500000000 -18.693189 -129.262416 -9.477606 -64.295342 -9.508847 -64.152380 -23.756974 105.256888 
1.0573500000000000 -18.676765 -129.982432 -9.478352 -64.716971 -9.500020 -64.574248 -23.840813 104.377340 
1.0647937500000000 -18.659389 -130.575898 -9.472131 -65.169980 -9.505072 -64.994309 -23.898650 103.572045 
1.0722375000000000 -18.651358 -131.029778 -9.470595 -65.603830 -9.489067 -65.425306 -24.007847 102.691083 
1.0796812499999999 -18.653485 -131.780744 -9.464233 -66.101379 -9.501292 -65.875570 -24.066491 101.794275 
1.0871249999999999 -18.608403 -132.435521 -9.484468 -66.613937 -9.493167 -66.347323 -24.121706 101.207280 
1.0945687500000001 -18.583801 -132.984162 -9.488367 -67.064941 -9.501178 -66.770911 -24.211965 100.166102 
1.1020125000000001 -18.589685 -133.576936 -9.491272 -67.509098 -9.511576 -67.246840 -24.297207 99.523318 
1.1094562500000000 -18.542026 -134.287841 -9.496271 -67.912758 -9.502257 -67.671127 -24.389705 98.395514 
1.1169000000000000 -18.513771 -134.803332 -9.506779 -68.365935 -9.515919 -68.080116 -24.439986 97.601867 
1.1243437500000000 -18.501422 -135.355065 -9.503386 -68.759088 -9.499917 -68.521382 -24.484561 96.958055 
1.1317874999999999 -18.467436 -135.908190 -9.511918 -69.160081 -9.507278 -68.970371 -24.616077 96.026034 
1.1392312499999999 -18.431327 -136.375414 -9.494249 -69.689087 -9.517117 -69.532715 -24.716403 95.241939 
1.1466750000000001 -18.388558 -136.839994 -9.503814 -70.096749 -9.515893 -69.925961 -24.767660 94.447024 
1.1541187500000001 -18.366217 -137.451619 -9.514532 -70.534885 -9.528079 -70.364315 -24.916840 93.499608 
1.1615625000000001 -18.370930 -137.859526 -9.523551 -71.007236 -9.528028 -70.772608 -24.967703 92.694168 
1.1690062500000000 -18.329123 -138.407642 -9.514172 -71.475775 -9.538499 -71.222661 -25.039007 91.690764 
1.1764500000000000 -18.298998 -138.808328 -9.519701 -71.868648 -9.522061 -71.689999 -25.208563 90.999326 
1.1838937500000000 -18.287906 -139.129105 -9.504214 -72.291731 -9.534360 -72.115263 -25.276455 90.250778 
1.1913374999999999 -18.269426 -139.703277 -9.503942 -72.746758 -9.540515 -72.685394 -25.347609 89.004773 
1.1987812499999999 -18.253734 -140.166733 -9.486578 -73.237351 -9.559646 -73.113482 -25.465329 88.254922 
1.2062250000000001 -18.262908 -140.615783 -9.503961 -73.687677 -9.557747 -73.473892 -25.530664 87.400351 
1.2136687500000001 -18.235603 -141.036802 -9.508293 -74.212142 -9.574422 -73.792452 -25.688537 86.425632 
1.2211125000000000 -18.238339 -141.529972 -9.515684 -74.689605 -9.565109 -74.217867 -25.810978 85.611278 
1.2285562500000000 -18.204822 -142.075594 -9.515509 -75.147577 -9.545524 -74.654681 -25.913906 84.748495 
1.2360000000000000 -18.221686 -142.648154 -9.524322 -75.629853 -9.552054 -75.075349 -26.015403 83.395189 
1.2434437500000000 -18.200148 -143.088174 -9.523785 -76.054522 -9.551675 -75.605241 -26.146825 82.514089 
1.2508874999999999 -18.178837 -143.705385 -9.518901 -76.496025 -9.551923 -76.073284 -26.276654 81.479922 
1.2583312499999999 -18.154654 -144.211056 -9.540696 -76.957228 -9.553901 -76.548490 -26.391403 80.536553 
1.2657750000000001 -18.152323 -144.706326 -9.537596 -77.435090 -9.558296 -77.016612 -26.468459 79.549417 
1.2732187500000001 -18.118452 -145.374631 -9.561677 -77.878620 -9.565351 -77.399602 -26.551476 78.313686 
1.2806625000000000 -18.120940 -145.900761 -9.553922 -78.310995 -9.564257 -77.807734 -26.694686 77.188090 
1.2881062500000000 -18.085038 -146.339111 -9.569038 -78.668907 -9.565222 -78.282133 -26.821901 76.177685 
1.2955500000000000 -18.070492 -146.813812 -9.550671 -79.115857 -9.560667 -78.768419 -27.010842 74.859827 
1.3029937500000000 -18.040117 -147.388752 -9.558197 -79.520766 -9.576936 -79.237991 -27.125783 73.597710 
1.3104374999999999 -18.024277 -147.705075 -9.549843 -80.013767 -9.573779 -79.761305 -27.275176 72.578484 
1.3178812499999999 -17.993354 -148.073143 -9.546009 -80.454853 -9.580102 -80.163072 -27.419822 71.219151 
1.3253250000000001 -17.971395 -148.431717 -9.545624 -80.925884 -9.586263 -80.527709 -27.552229 69.831792 
1.3327687500000001 -17.962159 -148.843555 -9.558246 -81.375304 -9.584198 -80.951881 -27.784122 68.466099 
1.3402125000000000 -17.946345 -149.250476 -9.558681 -81.845005 -9.586500 -81.322977 -27.880378 67.142701 
1.3476562500000000 -17.937141 -149.714660 -9.554670 -82.342005 -9.585295 -81.753226 -28.027878 65.759575 
1.3551000000000000 -17.930274 -150.107295 -9.561546 -82.749465 -9.582122 -82.306989 -28.169535 64.164781 
1.3625437499999999 -17.918371 -150.627169 -9.561442 -83.239479 -9.591000 -82.732668 -28.272684 62.550699 
1.3699874999999999 -17.908564 -151.068706 -9.556479 -83.716675 -9.589352 -83.249501 -28.440833 60.935010 
1.3774312500000001 -17.888869 -151.427715 -9.558056 -84.214897 -9.607820 -83.591516 -28.502513 59.270186 
1.3848750000000001 -17.879373 -151.848945 -9.570713 -84.637386 -9.606188 -83.980757 -28.637274 58.417651 
1.3923187500000000 -17.876494 -152.432140 -9.578449 -85.087417 -9.588297 -84.411928 -28.779840 56.595195 
1.3997625000000000 -17.870599 -152.901016 -9.592767 -85.529271 -9.578659 -84.862564 -28.905466 55.063887 
1.4072062500000000 -17.865176 -153.375322 -9.578044 -85.964670 -9.569118 -85.427960 -29.037630 53.408817 
