#  HZ   S   DB   R     50.00 
! Rohde & Schwarz ZVA67 4Ports - Version 3.30 - 1305.7002k04 SN: 101038
! Date: 2022-09-30 01:22:13
! Measurements: S11 S21 S12 S22 
! 
 2.000000000000000E7     9.186882121948636E-2  -1.382110644082439E1  -6.680416327616229E1  -7.429953925875434E1  -5.911332434656158E1  -1.707077854896416E1   3.712608143465758E-2  -9.969815078747745  
 3.199199199199199E7     1.248491157774895E-1  -2.214091624469396E1  -5.181441756192791E1  -5.849225706705409E1  -6.042997882552001E1  -1.773233049583761E2   1.012421168656059E-1  -1.947972262526148E1  
 4.398398398398398E7    -1.614314734592988E-1  -3.062694759726914E1  -4.646818652719168E1  -6.183766344626827E1  -7.349509975437591E1  -7.511586383300239E1  -1.980280113542827E-2  -2.481760293429332E1  
 5.597597597597598E7    -9.226470732878218E-2  -3.981422005593654E1  -4.282562083984869E1  -7.205140835037861E1  -6.826210239704454E1  -4.571182127417337E1  -1.070540526788169E-2  -3.150925330111083E1  
 6.796796796796796E7     2.331381925457063E-2  -4.827052962306281E1  -3.971705979971502E1  -7.867622249114328E1  -6.268749058599853E1  -1.705826619446690E2  -1.117163912904573E-1  -3.859400442849282E1  
 7.995995995995995E7    -2.166202137642651E-1  -5.704998048151313E1  -3.661562960367436E1  -9.094909600045433E1  -7.493920700620394E1   5.368469510424297E1  -3.509529154006610E-3  -4.658642273414871E1  
 9.195195195195195E7    -9.598036330567346E-2  -6.512019532153641E1  -3.426459815418193E1  -1.016764303680653E2  -7.509778179607525E1   1.052231372744746E2   1.665981354834838E-2  -5.343094513952462E1  
 1.039439439439439E8    -8.798534529174082E-2  -7.411611691534927E1  -3.246141413437171E1  -1.102725538460023E2  -6.965436995967352E1   3.658154085228833  -8.703134822640006E-2  -6.007865370980650E1  
 1.159359359359359E8    -1.264892369595112E-1  -8.232770925006470E1  -3.060366951532389E1  -1.210371938027234E2  -9.225226659884950E1  -1.400895022361115E2  -3.446017474348546E-2  -6.753725169880991E1  
 1.279279279279279E8    -1.951650525130504E-1  -9.098311841368606E1  -2.928469602151178E1  -1.312323122070911E2  -7.102267082091179E1   3.644045915628244E1  -1.313066746775506E-1  -7.417306838025212E1  
 1.399199199199199E8    -1.520087944429860E-1  -9.911883389259970E1  -2.794263203131805E1  -1.415271851408810E2  -8.122793540910830E1   1.478875982377440E2  -6.124841347045054E-2  -8.119070664256236E1  
 1.519119119119119E8    -1.377909851625460E-1  -1.072515195475180E2  -2.664067421234521E1  -1.520430273464442E2  -7.960507332956681E1   1.024808605773049E2  -2.030589863584503E-1  -8.798684067216284E1  
 1.639039039039039E8    -1.764153309245895E-1  -1.162976388466223E2  -2.546586185287328E1  -1.629693483872852E2  -7.657885130728347E1  -7.361453046329953E1  -4.705346964478666E-2  -9.474226779849103E1  
 1.758958958958959E8    -2.505289254158292E-1  -1.250366978845714E2  -2.460947583836302E1  -1.738546430529891E2  -7.350182715736942E1   1.330203783577026E1  -1.717776293742166E-1  -1.021124764706501E2  
 1.878878878878879E8    -2.817081210610664E-1  -1.337680505929933E2  -2.380928585500705E1   1.755473536589686E2  -7.440028225292983E1  -5.617477313842124E1  -2.292806615256502E-1  -1.089373371707952E2  
 1.998798798798799E8    -3.264691788304535E-1  -1.422126117701097E2  -2.289707403071246E1   1.655446124586221E2  -7.162527952003903E1   1.657447624977131E2  -1.658235595093773E-1  -1.165691048610944E2  
 2.118718718718719E8    -3.415340244271731E-1  -1.512898815239639E2  -2.225439932801662E1   1.539340221434102E2  -8.295825262065640E1   1.360975799013039E2  -2.108218615429126E-1  -1.231570821762384E2  
 2.238638638638639E8    -3.925081409186585E-1  -1.599002247945263E2  -2.153239678374628E1   1.437443278299925E2  -8.216539474921009E1  -9.917212238984024E1  -3.061380869250703E-1  -1.302586595427110E2  
 2.358558558558559E8    -4.467025437121842E-1  -1.685414793586118E2  -2.094804399563108E1   1.340281890130633E2  -7.643277121894205E1   8.912185282121723E1  -2.232940194243386E-1  -1.376807920840493E2  
 2.478478478478478E8    -4.377080677463046E-1  -1.768304636989081E2  -2.031110070617115E1   1.234740372278206E2  -6.924773538865607E1  -2.507509343754944  -2.769716405540933E-1  -1.450808964661357E2  
 2.598398398398398E8    -4.690513096290425E-1   1.739841244725623E2  -1.985000055858677E1   1.134201512478845E2  -8.672336948267126E1   5.088927880505268E1  -2.975867685712076E-1  -1.513956453926734E2  
 2.718318318318318E8    -5.510021893263825E-1   1.656795293518059E2  -1.942047955619598E1   1.033199100726072E2  -8.177105438360631E1  -7.820239321595824E1  -2.965381175194560E-1  -1.586417207670405E2  
 2.838238238238238E8    -4.611456345096476E-1   1.568944922988881E2  -1.886332776547079E1   9.252118009569726E1  -8.731535075537191E1   1.490822892353372E1  -3.954163502660670E-1  -1.659731125548908E2  
 2.958158158158158E8    -5.116190318547411E-1   1.484847515268085E2  -1.847488580647018E1   8.366904711238695E1  -7.546236806323979E1   1.005574860296033E1  -3.834764414490202E-1  -1.725635148741875E2  
 3.078078078078078E8    -5.408012862726647E-1   1.397841052368859E2  -1.812593482560308E1   7.319816711701014E1  -8.490509861639924E1  -4.072828827628953E1  -4.007303816580973E-1   1.794816264889605E2  
 3.197997997997998E8    -5.380045842644443E-1   1.312049781004945E2  -1.775285178949413E1   6.381943826254396E1  -7.557942776536204E1  -1.374579713705508E1  -3.964581167270246E-1   1.726927039527258E2  
 3.317917917917918E8    -5.372532541338879E-1   1.224203310272392E2  -1.741411045277253E1   5.324380466869935E1  -7.306043415160819E1  -1.240344160371610E2  -4.755006988748281E-1   1.653955649673568E2  
 3.437837837837837E8    -5.171379812002188E-1   1.135376734359481E2  -1.711420744889136E1   4.301323582048584E1  -7.475364722814175E1  -4.244020800857528E1  -4.403529676703574E-1   1.584965652882373E2  
 3.557757757757757E8    -5.700472523374800E-1   1.050219301244690E2  -1.689704922448369E1   3.384265753929590E1  -7.613482240998665E1  -2.234169698863285E1  -4.728706328696856E-1   1.511629220664765E2  
 3.677677677677677E8    -6.241148536640803E-1   9.649313007285321E1  -1.668561684530804E1   2.390102461028003E1  -8.521176158145963E1  -3.385586779068171E1  -5.209361103519854E-1   1.436571266811144E2  
 3.797597597597597E8    -5.725676297093247E-1   8.815050735944804E1  -1.643711900923046E1   1.490257503628007E1  -7.962026741839277E1  -1.163552262312066E2  -5.365026288593221E-1   1.370606239139633E2  
 3.917517517517517E8    -5.626614521578529E-1   7.981706268929349E1  -1.620906042917508E1   5.548505463801773  -7.286999754695468E1  -1.014020602995583E2  -5.354889508754378E-1   1.296187380062831E2  
 4.037437437437437E8    -5.780700970732288E-1   7.149061248385706E1  -1.601188793827805E1  -3.532095854933788  -7.958980122804941E1  -1.106602244873988E2  -5.586085437956617E-1   1.227798200289256E2  
 4.157357357357357E8    -5.611849867201083E-1   6.305696617544757E1  -1.585259610946313E1  -1.281044573896405E1  -7.498945266261559E1  -5.205142962596587E1  -5.453364068077501E-1   1.155251455321934E2  
 4.277277277277277E8    -5.489588902285180E-1   5.475676018954597E1  -1.557035334778396E1  -2.227283034893382E1  -7.832088137821539E1  -1.598332367239638E2  -5.423201022094601E-1   1.085771361201920E2  
 4.397197197197197E8    -5.566041100135151E-1   4.639578033271133E1  -1.545836098440369E1  -3.138064262652555E1  -7.529757576665745E1  -1.371052481720066E2  -5.581823214264036E-1   1.016232017138428E2  
 4.517117117117117E8    -5.479588111560171E-1   3.833564643524679E1  -1.530160354801839E1  -4.002577632850773E1  -7.305568305775358E1  -9.404315864182519E1  -5.598305627512865E-1   9.495148647675237E1  
 4.637037037037037E8    -5.473734367007831E-1   2.992717291350624E1  -1.513119158101846E1  -4.911104910745590E1  -7.169551347010409E1  -1.444500968445758E2  -5.677175940701910E-1   8.808880436212371E1  
 4.756956956956956E8    -5.432028503216368E-1   2.166396235790507E1  -1.499093455732041E1  -5.793213042021886E1  -7.272284047577840E1  -1.507271610689975E2  -5.879989374764112E-1   8.086529864877139E1  
 4.876876876876876E8    -5.207379748814700E-1   1.308756995752791E1  -1.483028729703916E1  -6.723649749247494E1  -7.254755364757034E1  -1.437751985052579E2  -5.859200291169575E-1   7.399953599793081E1  
 4.996796796796796E8    -5.230553810615065E-1   4.997469038176484  -1.473332247306198E1  -7.598621363311207E1  -7.010894449022626E1  -1.605872279612758E2  -6.015662008692879E-1   6.704058982721540E1  
 5.116716716716716E8    -4.983886981825302E-1  -3.216792031774827  -1.460132586092261E1  -8.480308046931913E1  -7.140009961334658E1   1.670419828362418E2  -6.092544561521260E-1   5.986537629253062E1  
 5.236636636636636E8    -4.973919269052008E-1  -1.151796996855123E1  -1.449316081157078E1  -9.373937437339869E1  -7.062514408320553E1  -1.693924934986418E2  -6.024771506634141E-1   5.315794616078051E1  
 5.356556556556556E8    -4.925730333236943E-1  -1.941416026834559E1  -1.432906416663439E1  -1.021494849223972E2  -7.082625673250207E1   1.631543814088151E2  -5.928337788194861E-1   4.624866572979347E1  
 5.476476476476476E8    -4.976541494900778E-1  -2.769093230233899E1  -1.423269290868866E1  -1.109540385289785E2  -6.936452865512469E1   1.415410697642500E2  -5.689404274103620E-1   3.938061060084133E1  
 5.596396396396396E8    -5.039162349518126E-1  -3.598007122456396E1  -1.411687353480966E1  -1.198106368631282E2  -6.931508677776296E1   1.621049885887842E2  -5.716567575448481E-1   3.262493066412386E1  
 5.716316316316316E8    -5.010294494680968E-1  -4.435062090643027E1  -1.401317127609375E1  -1.285118812940284E2  -7.123946872084422E1   1.509642465758631E2  -5.950122046363947E-1   2.592637356304774E1  
 5.836236236236236E8    -5.013287877371556E-1  -5.261669042801705E1  -1.390149551542657E1  -1.370817781407141E2  -6.872282483616743E1   1.304345784775443E2  -5.840745649876951E-1   1.919203171183127E1  
 5.956156156156156E8    -5.006249141921159E-1  -6.102171390468367E1  -1.375800262946956E1  -1.455879557451737E2  -6.899588547433730E1   1.243441060652528E2  -5.635228703286307E-1   1.230117177153679E1  
 6.076076076076076E8    -5.148497080333107E-1  -6.945295916931642E1  -1.371907002248106E1  -1.542616620882094E2  -6.643742515787402E1   1.176483928458400E2  -5.735269980436443E-1   5.438530305423833  
 6.195995995995996E8    -5.257304565791512E-1  -7.790138282996061E1  -1.361883374035805E1  -1.627674609434120E2  -6.952125506120660E1   1.102370300395240E2  -5.753846952296107E-1  -1.307952717228509  
 6.315915915915916E8    -5.437817624624102E-1  -8.646767731511841E1  -1.352091709132938E1  -1.717363910814922E2  -7.025902922881939E1   1.093501737864620E2  -5.777457744062676E-1  -8.085482322559686  
 6.435835835835836E8    -5.249414466970431E-1  -9.482807488717532E1  -1.340956926397939E1   1.798477355614454E2  -6.879934131840953E1   9.332916604373871E1  -5.841035155033757E-1  -1.485754902650570E1  
 6.555755755755756E8    -5.489200968456001E-1  -1.033380246288044E2  -1.335067309474779E1   1.712270445629445E2  -6.595333105982496E1   8.888518622880356E1  -5.720254509019712E-1  -2.160943818172614E1  
 6.675675675675675E8    -5.575129004449559E-1  -1.118504797741209E2  -1.325849533052670E1   1.626803110769949E2  -6.956742429508979E1   6.952508464579728E1  -5.759034227432437E-1  -2.840463315437388E1  
 6.795595595595595E8    -5.822184135038143E-1  -1.203516731619675E2  -1.317697065618942E1   1.540905885425969E2  -6.820078105731128E1   6.113228027850659E1  -5.746911911677202E-1  -3.523755161145023E1  
 6.915515515515515E8    -5.868694871816091E-1  -1.289208008619302E2  -1.309523554294898E1   1.456782010063396E2  -6.654898512363866E1   4.692051652350202E1  -5.620875088844048E-1  -4.186120305224033E1  
 7.035435435435435E8    -6.106668358874154E-1  -1.376311827579325E2  -1.305801239126918E1   1.368835956685767E2  -6.622514701751176E1   4.887620868955015E1  -5.752662186902283E-1  -4.863024764219329E1  
 7.155355355355355E8    -6.345218381696719E-1  -1.464627246939346E2  -1.294975776135618E1   1.282656466057754E2  -6.617536293190295E1   3.406423901883228E1  -5.707564115596403E-1  -5.540705432857921E1  
 7.275275275275275E8    -6.596404962434721E-1  -1.551800599515948E2  -1.289480361664110E1   1.198904472035110E2  -6.596357564827794E1   4.027901043742912E1  -5.973026853431273E-1  -6.205545787243901E1  
 7.395195195195195E8    -6.985314942491903E-1  -1.641898001519416E2  -1.284671587755793E1   1.113012245788775E2  -6.561246230699094E1   2.221902418929350E1  -5.894004911872437E-1  -6.893494380917547E1  
 7.515115115115115E8    -7.243484459915501E-1  -1.728809922607757E2  -1.280608010704774E1   1.029665373941716E2  -6.656515642425502E1   1.201093340624120E1  -6.111849765533005E-1  -7.575143825117289E1  
 7.635035035035034E8    -7.298905555406282E-1   1.782230137453217E2  -1.275740097807529E1   9.417695539715137E1  -6.560664630556542E1   3.219835991583784  -6.368211243549998E-1  -8.268054420934861E1  
 7.754954954954954E8    -7.257275993901639E-1   1.695358439271817E2  -1.270432837011244E1   8.565982478973562E1  -6.436018596856772E1  -3.739231510866315  -6.464647590301126E-1  -8.964315806090438E1  
 7.874874874874874E8    -7.727091331717881E-1   1.606868240894609E2  -1.270919022884851E1   7.713197068867829E1  -6.558723721164130E1  -9.793721020146576  -6.426958044587497E-1  -9.667634023724925E1  
 7.994794794794794E8    -7.795830436810454E-1   1.519342836253240E2  -1.268114386732906E1   6.866432436815654E1  -6.499548356674467E1  -1.649815764075985E1  -6.506130575434902E-1  -1.033496755613399E2  
 8.114714714714714E8    -7.929158271568365E-1   1.431702870728196E2  -1.264101497491877E1   6.025029332483806E1  -6.447341514035685E1  -2.603094273351661E1  -6.728465658705666E-1  -1.103372231994370E2  
 8.234634634634634E8    -7.923897741388025E-1   1.345282311757136E2  -1.258677328249502E1   5.189090950959047E1  -6.589206548370594E1  -3.657515412214124E1  -6.696828560367184E-1  -1.172280575283667E2  
 8.354554554554554E8    -8.203308491270787E-1   1.256813998786426E2  -1.258653474635139E1   4.336506763193466E1  -6.560906252285638E1  -3.432931286100563E1  -6.643870846352055E-1  -1.242282380112411E2  
 8.474474474474474E8    -8.374757531578315E-1   1.169445906761562E2  -1.257988645738837E1   3.508743346263827E1  -6.493232043927719E1  -4.502981398429090E1  -7.003897365296511E-1  -1.311234126616229E2  
 8.594394394394394E8    -8.689879182270635E-1   1.082259581809654E2  -1.259966027969669E1   2.669730325985809E1  -6.513275314134737E1  -5.565007989730842E1  -6.937984657168399E-1  -1.381469496455893E2  
 8.714314314314314E8    -8.679230381078948E-1   9.929146308914179E1  -1.255115005690589E1   1.849640065178112E1  -6.460783590154807E1  -6.116060799285329E1  -7.114348310501818E-1  -1.451393276793810E2  
 8.834234234234234E8    -8.851763257835159E-1   9.062627127767387E1  -1.255775550298379E1   1.024205863314560E1  -6.326782613161740E1  -8.413545749715884E1  -7.253118610082726E-1  -1.521997353039228E2  
 8.954154154154154E8    -8.774429590388817E-1   8.181018148246876E1  -1.255481343819660E1   1.684410770304236  -6.437367896797635E1  -7.944083191086763E1  -7.446720535347322E-1  -1.594085553697111E2  
 9.074074074074074E8    -8.827771469418230E-1   7.322079033338279E1  -1.257030578559240E1  -6.513594395427104  -6.430064252359610E1  -9.360717788621885E1  -7.640415933349044E-1  -1.665598021982062E2  
 9.193993993993993E8    -8.805851425699507E-1   6.468517090716820E1  -1.259019917634565E1  -1.480227378193854E1  -6.432178907472265E1  -9.793235430107067E1  -7.904276165065275E-1  -1.738651066945864E2  
 9.313913913913913E8    -8.893399055422542E-1   5.623166965132570E1  -1.261919206242716E1  -2.289487817103073E1  -6.428184126546977E1  -1.082906340935424E2  -8.200621103710305E-1   1.789191163614279E2  
 9.433833833833833E8    -8.968466256573024E-1   4.800063070751362E1  -1.264391679075886E1  -3.084808581789083E1  -6.408994421455371E1  -1.222757835827632E2  -8.101628102852471E-1   1.716471345607838E2  
 9.553753753753753E8    -8.860434188188182E-1   3.956755598587382E1  -1.260290939967484E1  -3.902810809388326E1  -6.378682800287830E1  -1.243094770610269E2  -8.244467471816095E-1   1.644091672470525E2  
 9.673673673673673E8    -8.893203844593040E-1   3.125678261530685E1  -1.262588860172066E1  -4.724545111500088E1  -6.368249689368744E1  -1.407914168414927E2  -8.315061073536569E-1   1.571664569331414E2  
 9.793593593593593E8    -8.934739103368917E-1   2.295922109623409E1  -1.264890334321072E1  -5.532259003920252E1  -6.362473349814016E1  -1.410310505128170E2  -8.410834675252499E-1   1.500219200760099E2  
 9.913513513513513E8    -9.031329336095859E-1   1.451929166568244E1  -1.267332860998202E1  -6.329736693661879E1  -6.343830130637959E1  -1.497565904566599E2  -8.570720132977399E-1   1.427866119649855E2  
 1.003343343343343E9    -8.854000228006602E-1   6.227684470261956  -1.267891262936055E1  -7.122731038876991E1  -6.369041892362376E1  -1.546182607500913E2  -8.698175619215994E-1   1.357079551791884E2  
 1.015335335335335E9    -9.012775801934300E-1  -2.114418641587541  -1.269588316784368E1  -7.919519036658926E1  -6.332539219573520E1  -1.581386259006598E2  -8.899569919426862E-1   1.284424584726296E2  
 1.027327327327327E9    -9.072989185800465E-1  -1.046354062706452E1  -1.273529310350283E1  -8.714235759699629E1  -6.371595848418275E1  -1.738569148716346E2  -8.985143620710427E-1   1.213032588871450E2  
 1.039319319319319E9    -9.075235580874453E-1  -1.874203188001473E1  -1.276169113148041E1  -9.513341265780232E1  -6.257876961850740E1  -1.794534191896383E2  -9.167411358427885E-1   1.139702034633973E2  
 1.051311311311311E9    -8.988401662278081E-1  -2.690467344427788E1  -1.278768237040171E1  -1.028641950659547E2  -6.401664432279999E1   1.737960269313445E2  -9.361252122346088E-1   1.067506615015443E2  
 1.063303303303303E9    -9.000542908357867E-1  -3.509862046082348E1  -1.280532508690529E1  -1.106964232528237E2  -6.354967821852269E1   1.699017121766802E2  -9.439729642943625E-1   9.940404555623074E1  
 1.075295295295295E9    -8.968040164636274E-1  -4.333435023626787E1  -1.281983975446393E1  -1.187413819279184E2  -6.302627680531735E1   1.553987196159778E2  -9.565984208604954E-1   9.200028790193103E1  
 1.087287287287287E9    -9.042995418760248E-1  -5.150262219596959E1  -1.283822401110195E1  -1.265919360087286E2  -6.333888227899431E1   1.503381538527748E2  -9.521528929658596E-1   8.487419340531861E1  
 1.099279279279279E9    -9.124275657671024E-1  -5.958651947699628E1  -1.288972906805142E1  -1.344370985943379E2  -6.263403160582405E1   1.391364631539801E2  -9.730884909855548E-1   7.757163514725617E1  
 1.111271271271271E9    -9.215681396853986E-1  -6.791197504099469E1  -1.289428699816743E1  -1.422561160310234E2  -6.268022622849232E1   1.351994134774997E2  -9.744692696439754E-1   7.030457923940112E1  
 1.123263263263263E9    -9.344286614220939E-1  -7.611592924507689E1  -1.292918908771437E1  -1.498530448462511E2  -6.219646712797265E1   1.264019809277271E2  -9.652449266540509E-1   6.328805211073501E1  
 1.135255255255255E9    -9.606153439754642E-1  -8.435486540475625E1  -1.295963323201733E1  -1.575830798925842E2  -6.204324215697106E1   1.165028714845887E2  -9.597845472926605E-1   5.610475218820372E1  
 1.147247247247247E9    -9.759449010867244E-1  -9.282636415391717E1  -1.298131428490026E1  -1.653984679770575E2  -6.261804041768910E1   1.087224886371236E2  -9.629715108970416E-1   4.903196067841290E1  
 1.159239239239239E9    -9.681864218433500E-1  -1.011101888064798E2  -1.299948940704575E1  -1.730652413643348E2  -6.188861636492718E1   1.037916888868864E2  -9.746009943185519E-1   4.187191075334343E1  
 1.171231231231231E9    -9.970434977619319E-1  -1.096098057721320E2  -1.303998057234329E1   1.792824992657073E2  -6.256195732792968E1   9.217141790864012E1  -9.845625527747018E-1   3.487283523618633E1  
