#  HZ   S   DB   R     50.00 
! Rohde & Schwarz ZVA67 4Ports - Version 3.30 - 1305.7002k04 SN: 101038
! Date: 2022-09-30 01:50:57
! Measurements: S11 S21 S12 S22 
! 
 2.000000000000000E7     3.967011157223826E-2  -1.314953238111330E1  -6.354844057864069E1  -8.534518725019640E1  -6.165678217342260E1  -1.499941704212185E2   5.289219987453709E-2  -1.070067466332810E1  
 3.199199199199199E7     1.714181432125946E-1  -2.234077875651396E1  -5.148525003577056E1  -5.773082400027646E1  -7.192083916753128E1   1.217519228531132E2   1.693652351392405E-1  -1.866968123088597E1  
 4.398398398398398E7    -2.050270734609063E-1  -3.013913515303798E1  -4.646524114238488E1  -6.145101835688072E1  -7.091057337416568E1   1.918250901473845E1  -1.049009405679815E-1  -2.447413295455312E1  
 5.597597597597598E7    -6.743599106931907E-2  -3.862924141132171E1  -4.317835694517450E1  -6.994275587690976E1  -7.693405194865200E1   1.094270722245519E2  -6.884650524672697E-2  -3.284612024909833E1  
 6.796796796796796E7    -1.178316070005200E-1  -4.754429149685527E1  -3.927637282667696E1  -7.433141817299735E1  -7.017319754304134E1   8.804691803103147   3.415088269503900E-2  -3.819814188407116E1  
 7.995995995995995E7    -1.274261020115385E-1  -5.638646699954350E1  -3.694015193600857E1  -9.058935581424512E1  -6.575055504890514E1   1.470935006763587E2   6.783633753150661E-2  -4.655896680293845E1  
 9.195195195195195E7    -5.727213144406825E-2  -6.551282335695255E1  -3.472646459981843E1  -9.949007216627280E1  -6.770467549270309E1  -1.669692108779964E2  -2.094239279042209E-3  -5.326539743092712E1  
 1.039439439439439E8    -1.109441161039000E-1  -7.436616729876391E1  -3.278988786088902E1  -1.102967265834543E2  -7.317959078513647E1   2.029706137390159E1  -9.169571098718576E-2  -6.061026525542283E1  
 1.159359359359359E8    -1.364958887538065E-1  -8.251487566785713E1  -3.082057521891462E1  -1.208346002671301E2  -6.992682908437573E1   1.771826595238055E2   4.977558242006104E-3  -6.816547204334555E1  
 1.279279279279279E8    -1.398845548395266E-1  -9.049627662057702E1  -2.946287343291118E1  -1.302265678467424E2  -7.257256716972941E1   7.983300834463162E1  -7.730205225051448E-2  -7.410787960164457E1  
 1.399199199199199E8    -1.443956802153761E-1  -9.939752677502661E1  -2.809746360045132E1  -1.409408586251749E2  -6.967029495166322E1   4.584141378060443E1  -1.378775084773511E-1  -8.121482815619206E1  
 1.519119119119119E8    -2.259324445473846E-1  -1.072886966875425E2  -2.690351541354379E1  -1.513667373743882E2  -7.263651643319274E1  -1.600840125918868E2  -1.812465956456810E-1  -8.841888918247072E1  
 1.639039039039039E8    -1.862246057025600E-1  -1.163913967850325E2  -2.575908690317986E1  -1.618039770556425E2  -8.497659276067752E1   1.259849574208299E2  -1.271620434668466E-1  -9.460641320226505E1  
 1.758958958958959E8    -2.763577876857586E-1  -1.249201550831269E2  -2.483437566483439E1  -1.734043321893164E2  -7.007973449586541E1  -1.479550398949527E2  -1.960889057952997E-1  -1.021189175712429E2  
 1.878878878878879E8    -3.216630196304533E-1  -1.336415197359278E2  -2.412674041084464E1   1.762018912644876E2  -9.360798697658865E1   8.043013716491224E1  -2.009019693188406E-1  -1.089189106237472E2  
 1.998798798798799E8    -2.679927231472563E-1  -1.422867530257988E2  -2.307775324973745E1   1.657511052267593E2  -8.221254893316210E1  -6.844526844878971E1  -1.740567164222334E-1  -1.163247322998988E2  
 2.118718718718719E8    -4.045108234660136E-1  -1.511652879845374E2  -2.254611468192099E1   1.552972572466420E2  -7.122868483844059E1  -4.366593347292015E1  -2.403733475989267E-1  -1.234688405378340E2  
 2.238638638638639E8    -4.020736506815807E-1  -1.596092595684389E2  -2.172652077640623E1   1.451280938460511E2  -7.656106791781106E1   2.746786576491075E1  -2.735971283444005E-1  -1.306142911477633E2  
 2.358558558558559E8    -4.342425704802121E-1  -1.685247379817592E2  -2.111300693363289E1   1.348215781788272E2  -7.737232104163942E1   9.731416553395060E1  -2.595179725956402E-1  -1.378307307812600E2  
 2.478478478478478E8    -4.551452280279525E-1  -1.769609452726832E2  -2.055551467598338E1   1.242446603574300E2  -8.497902555031085E1  -1.182285006971780E2  -3.000577512915185E-1  -1.451714995106950E2  
 2.598398398398398E8    -4.309989203566195E-1   1.740223028815846E2  -2.002251864756588E1   1.145028257500636E2  -9.734133922600653E1   3.741150647131760E1  -3.243159170229092E-1  -1.516020662927496E2  
 2.718318318318318E8    -5.137583653144068E-1   1.655516808086088E2  -1.957052126975110E1   1.042308926793623E2  -7.432114692273331E1  -1.296637802928633E2  -3.135069718268745E-1  -1.588005894261311E2  
 2.838238238238238E8    -4.716932898738758E-1   1.571442853508258E2  -1.906436919122391E1   9.370569294126176E1  -7.350687747833273E1  -1.942294403380006E1  -3.891099740431677E-1  -1.660249869556135E2  
 2.958158158158158E8    -5.199491566643247E-1   1.485860977956704E2  -1.868736058750240E1   8.502825186896938E1  -7.610454188599029E1   2.565247412920086E1  -3.615245883894399E-1  -1.727316772643873E2  
 3.078078078078078E8    -5.273954137113049E-1   1.398857548773304E2  -1.830810613347231E1   7.417358265840747E1  -7.212781946283897E1   1.341451742934866E1  -4.234294700666612E-1   1.795856711963180E2  
 3.197997997997998E8    -5.469107359122649E-1   1.312875994960891E2  -1.794488392609286E1   6.466002320994215E1  -7.780422646645150E1  -1.282171275680346E1  -4.299784728164248E-1   1.725713674179574E2  
 3.317917917917918E8    -5.454840332202678E-1   1.226232816530484E2  -1.759611665285207E1   5.470987467604347E1  -7.619859710527402E1  -9.986111025118440E1  -4.622886114450250E-1   1.653600892430398E2  
 3.437837837837837E8    -5.821559400994782E-1   1.139290829050584E2  -1.729684824901724E1   4.442490527506816E1  -8.301158530290685E1  -2.318506659338931E1  -4.457931780130429E-1   1.581035362590224E2  
 3.557757757757757E8    -5.676984381324857E-1   1.053118561014077E2  -1.708455701626182E1   3.534200938479120E1  -7.556103072777616E1  -2.925806628966658E1  -4.839172917001623E-1   1.510507279506493E2  
 3.677677677677677E8    -6.025190523838446E-1   9.671578792261897E1  -1.680176266860330E1   2.509437034347159E1  -7.945059540643146E1  -5.554788279771882E1  -5.314700530676103E-1   1.436763658054354E2  
 3.797597597597597E8    -5.586852985852538E-1   8.833171999895308E1  -1.656725307367777E1   1.628310709924262E1  -6.943117042444870E1  -7.416787909401516E1  -5.408705143774357E-1   1.367515018354996E2  
 3.917517517517517E8    -5.513380412511881E-1   8.002373170799977E1  -1.632288285886887E1   6.921942452410852  -7.514292723302651E1  -8.051265779686506E1  -5.678790441376126E-1   1.294355717840228E2  
 4.037437437437437E8    -5.720302984252991E-1   7.144796348591881E1  -1.612568956334854E1  -2.457335049264753  -7.310455953864340E1  -1.151710210797448E2  -5.566303143861643E-1   1.224450909112101E2  
 4.157357357357357E8    -5.636954494705943E-1   6.313113744496255E1  -1.593576625919076E1  -1.174807561066436E1  -7.829241521554762E1  -1.235020623123072E2  -5.601790577846223E-1   1.154988686974890E2  
 4.277277277277277E8    -5.330464894614558E-1   5.495306624468159E1  -1.566080628810243E1  -2.116389700293412E1  -7.338110271866930E1  -1.347046187979333E2  -5.622774469877196E-1   1.085344883063164E2  
 4.397197197197197E8    -5.721658847562953E-1   4.686913826436190E1  -1.558178423740032E1  -3.000068617626635E1  -7.410630394164433E1  -1.086582873860918E2  -5.698285541128201E-1   1.015761080546171E2  
 4.517117117117117E8    -5.562986899462848E-1   3.852409048280865E1  -1.541558374080078E1  -3.883329302567244E1  -7.231096999129456E1  -1.477152491524005E2  -5.644076597032888E-1   9.481826074831656E1  
 4.637037037037037E8    -5.328533353831982E-1   3.025529677730680E1  -1.519651490242128E1  -4.774007215678063E1  -6.981026239406012E1  -1.492527507829111E2  -5.920215219514018E-1   8.787742058000728E1  
 4.756956956956956E8    -5.382887248074059E-1   2.189249693949869E1  -1.507009009844632E1  -5.682307226227101E1  -7.096790958619192E1  -1.338050608622696E2  -6.040239128869159E-1   8.068795660633283E1  
 4.876876876876876E8    -5.272508944016009E-1   1.345442629498760E1  -1.493961532352388E1  -6.607970543410525E1  -7.294092518308516E1  -9.496085406759733E1  -5.983585774833992E-1   7.375096558410505E1  
 4.996796796796796E8    -5.230788693785680E-1   5.332616949192669  -1.477188589087475E1  -7.467072546791488E1  -7.183689860323734E1  -1.628352655906141E2  -5.933999979724781E-1   6.689786618558469E1  
 5.116716716716716E8    -5.125036861817870E-1  -2.850356447945493  -1.466800866673746E1  -8.358488701408308E1  -7.122608796497886E1   1.767679038479475E2  -6.235280671976384E-1   5.991610577112774E1  
 5.236636636636636E8    -5.173360423230641E-1  -1.116263666645178E1  -1.459858917080251E1  -9.252733846512096E1  -7.057038222904978E1   1.786093794625234E2  -6.048545992104932E-1   5.283854349780639E1  
 5.356556556556556E8    -5.003647872355087E-1  -1.911111099345593E1  -1.440503347439957E1  -1.010728845694563E2  -7.308211892409145E1   1.654121478664426E2  -5.879713480481822E-1   4.611267017898439E1  
 5.476476476476476E8    -4.881039685470429E-1  -2.735824348210584E1  -1.432118398236256E1  -1.097929722297881E2  -7.174564394199828E1  -1.746788594224992E2  -5.898678872919683E-1   3.920292593110626E1  
 5.596396396396396E8    -5.171311528190404E-1  -3.570914660256510E1  -1.421161077778849E1  -1.186616480980538E2  -6.938261154407985E1   1.587413672707594E2  -5.750299778261011E-1   3.251416902121670E1  
 5.716316316316316E8    -4.888608641931347E-1  -4.395850019927041E1  -1.404791462301077E1  -1.272935083989924E2  -6.955655531959987E1   1.330891844655687E2  -5.988876217381254E-1   2.568080212267688E1  
 5.836236236236236E8    -4.937444335518093E-1  -5.224140928544516E1  -1.396112889338669E1  -1.358666949732424E2  -6.855377496436331E1   1.407351720057695E2  -5.867817125883393E-1   1.901138398585648E1  
 5.956156156156156E8    -5.061673444394652E-1  -6.077527104929987E1  -1.381385870185195E1  -1.446396752143247E2  -6.844778427360510E1   1.267313322523340E2  -5.718631377080794E-1   1.219679874636677E1  
 6.076076076076076E8    -5.304972679187054E-1  -6.913453280136697E1  -1.376903394205137E1  -1.531048002819399E2  -7.024801057326769E1   1.232308953773258E2  -5.784615796775781E-1   5.189042983640690  
 6.195995995995996E8    -5.264333945153218E-1  -7.743593194025917E1  -1.363355098263440E1  -1.615810740357719E2  -6.845325116905151E1   1.106292829618730E2  -5.806048374649059E-1  -1.532273881693059  
 6.315915915915916E8    -5.294301286130767E-1  -8.600258005251904E1  -1.353518324439303E1  -1.704474242409897E2  -6.621470523905214E1   9.420883206788842E1  -5.793120950640335E-1  -8.297544217852158  
 6.435835835835836E8    -5.462270063237025E-1  -9.449614823622453E1  -1.346042528747281E1  -1.790005367710096E2  -6.933098615986864E1   9.446814433806570E1  -5.866422624376571E-1  -1.515379745235753E1  
 6.555755755755756E8    -5.588747334188410E-1  -1.030262884128645E2  -1.340113644414258E1   1.722356155479890E2  -6.738757890922288E1   9.119583409223122E1  -5.747897349624689E-1  -2.198336358112442E1  
 6.675675675675675E8    -5.703518043253323E-1  -1.115734559879051E2  -1.330451494813661E1   1.636927557805752E2  -6.962329298847993E1   8.489717136532941E1  -6.124467001601864E-1  -2.878248968623497E1  
 6.795595595595595E8    -5.959547142035363E-1  -1.199235004858956E2  -1.321842317472282E1   1.550961126504209E2  -6.871590365486036E1   6.950439111654694E1  -5.690912643732683E-1  -3.555546670335949E1  
 6.915515515515515E8    -6.041534069677329E-1  -1.285613340565086E2  -1.315019815191410E1   1.467205810285164E2  -6.653943382183005E1   7.216832424742184E1  -5.818067857548743E-1  -4.217423693601057E1  
 7.035435435435435E8    -6.142886710338952E-1  -1.372667507269459E2  -1.308238695231531E1   1.379586302716743E2  -6.622293402545564E1   4.667529309005722E1  -5.937048294755700E-1  -4.893377255563115E1  
 7.155355355355355E8    -6.426945175765657E-1  -1.460053974327454E2  -1.298826828161518E1   1.294225863239350E2  -6.648434992283387E1   3.612227862750571E1  -5.782194581545308E-1  -5.561620784786892E1  
 7.275275275275275E8    -6.805147072464184E-1  -1.548491396167039E2  -1.294096165060597E1   1.208480352830783E2  -6.625594421034157E1   4.047559561822381E1  -5.924377131576954E-1  -6.244880324993181E1  
 7.395195195195195E8    -6.929863681038123E-1  -1.638270614180769E2  -1.286324280081521E1   1.122438226724572E2  -6.652857318062556E1   2.443074863978773E1  -6.058965790483254E-1  -6.923175541086516E1  
 7.515115115115115E8    -7.297533391999949E-1  -1.726140808630805E2  -1.282529253777404E1   1.038860545920981E2  -6.586143039071773E1   5.361266722661998  -6.324219319440498E-1  -7.610171916749872E1  
 7.635035035035034E8    -7.437990506486014E-1   1.784651953072871E2  -1.277405172540659E1   9.510351420706012E1  -6.578014426030238E1   6.836561611546794  -6.401734209934237E-1  -8.300364663501151E1  
 7.754954954954954E8    -7.568678389724401E-1   1.697766866069636E2  -1.275294396561932E1   8.678405160167692E1  -6.676119925479092E1   2.181209673070315  -6.677080558343924E-1  -9.000855748838920E1  
 7.874874874874874E8    -7.953534681634374E-1   1.610845948362538E2  -1.273297931498650E1   7.832370726107207E1  -6.548205171130282E1  -1.039692409487327E1  -6.524891039071327E-1  -9.703808918675406E1  
 7.994794794794794E8    -7.917732431723926E-1   1.522047280122500E2  -1.270596079073845E1   6.957188212893573E1  -6.569235543754124E1  -1.275687415533356E1  -6.586034104047138E-1  -1.037932994683354E2  
 8.114714714714714E8    -7.906150691908871E-1   1.435401206373745E2  -1.264572190920430E1   6.141144869967492E1  -6.555348848115315E1  -2.869811429490084E1  -6.863330225952203E-1  -1.106694612296033E2  
 8.234634634634634E8    -7.976865053076666E-1   1.348870636062649E2  -1.261195008901208E1   5.290485926842924E1  -6.554012960072512E1  -3.802558619521459E1  -6.852172271152185E-1  -1.176623067894354E2  
 8.354554554554554E8    -8.408280689680284E-1   1.261357443624489E2  -1.260008626505197E1   4.432753884954856E1  -6.522931354985290E1  -4.701761353376368E1  -6.909725859199808E-1  -1.246546084839338E2  
 8.474474474474474E8    -8.557572468634070E-1   1.172902199260565E2  -1.261067061335227E1   3.601794820040824E1  -6.512622226764975E1  -4.932149124878692E1  -7.026040023012740E-1  -1.315689649856044E2  
 8.594394394394394E8    -8.870371817357137E-1   1.085611851591636E2  -1.262287393065200E1   2.758443159782228E1  -6.476470040583068E1  -6.390059709910481E1  -7.104489493632908E-1  -1.386120247490636E2  
 8.714314314314314E8    -8.888631118936173E-1   9.974705084145850E1  -1.257593200837851E1   1.953251837305868E1  -6.385104041160294E1  -6.816498268361512E1  -7.169100915600858E-1  -1.455087505184505E2  
 8.834234234234234E8    -9.075946925574704E-1   9.094669437205295E1  -1.258348305528546E1   1.120209946970373E1  -6.508208413831167E1  -6.579477135258418E1  -7.386871953299131E-1  -1.526481666868695E2  
 8.954154154154154E8    -9.060967051106234E-1   8.223496722844570E1  -1.258250740581279E1   2.721457218836886  -6.474879595729979E1  -8.495773208185395E1  -7.724475476226813E-1  -1.598250226980443E2  
 9.074074074074074E8    -8.841172330626483E-1   7.362033413303269E1  -1.257355532425478E1  -5.592627201428108  -6.481242595888618E1  -8.801309915974848E1  -7.839613834309687E-1  -1.670473900406334E2  
 9.193993993993993E8    -8.935658880578538E-1   6.517381316973895E1  -1.259631098049894E1  -1.364368994890575E1  -6.470584885411205E1  -9.848473917808727E1  -8.086151378496425E-1  -1.742428358891594E2  
 9.313913913913913E8    -9.017970106180935E-1   5.666908583127821E1  -1.263457176537857E1  -2.186495205196238E1  -6.478044651611457E1  -1.084747466049523E2  -8.325143495881328E-1   1.784344930291111E2  
 9.433833833833833E8    -8.962454213696954E-1   4.845261968386377E1  -1.265052080432916E1  -2.993382338580135E1  -6.394209523844868E1  -1.156281258167398E2  -8.222383513893190E-1   1.710757434778837E2  
 9.553753753753753E8    -8.841083088875942E-1   4.014490353100139E1  -1.261941983292829E1  -3.802377857361741E1  -6.361653719778992E1  -1.215831814754317E2  -8.386000171706113E-1   1.639493767797028E2  
 9.673673673673673E8    -8.792326907175369E-1   3.176766841360160E1  -1.262392010254631E1  -4.618325780244948E1  -6.220321260221317E1  -1.372214115079900E2  -8.390234426616976E-1   1.566686465542520E2  
 9.793593593593593E8    -9.047290655764037E-1   2.344837670421788E1  -1.266183661196221E1  -5.425890524321773E1  -6.425337382896440E1  -1.389172602976989E2  -8.517575580590578E-1   1.494540878900729E2  
 9.913513513513513E8    -9.095242547246956E-1   1.497159180712631E1  -1.268487035618290E1  -6.238133822834583E1  -6.410222877207215E1  -1.486244188862002E2  -8.733557064693174E-1   1.422956969135477E2  
 1.003343343343343E9    -9.001867216440320E-1   6.681663971964466  -1.269911943398082E1  -7.033940206119802E1  -6.362012397975860E1  -1.582686119494246E2  -8.796033678964718E-1   1.351518742967452E2  
 1.015335335335335E9    -9.240224278678864E-1  -1.602055656701865  -1.273042981626332E1  -7.825790521921495E1  -6.308446658848899E1  -1.649301674877966E2  -8.849343182995035E-1   1.279404165484311E2  
 1.027327327327327E9    -9.080091228026206E-1  -9.863730203229299  -1.273938927853905E1  -8.607028338042952E1  -6.363741548164585E1  -1.710137953160465E2  -9.182412276238294E-1   1.208124359785254E2  
 1.039319319319319E9    -9.237513844098508E-1  -1.813162644421319E1  -1.278514497891710E1  -9.401061046877845E1  -6.285194384795073E1  -1.759877234814984E2  -9.257080195095482E-1   1.135018165687711E2  
 1.051311311311311E9    -9.188885213207049E-1  -2.626833690089795E1  -1.280988874995332E1  -1.017501024085457E2  -6.335082981525923E1   1.736659197496277E2  -9.611140962103990E-1   1.061401884407829E2  
 1.063303303303303E9    -9.005337032253816E-1  -3.444224786277224E1  -1.280685298862437E1  -1.096479426146783E2  -6.359113396511820E1   1.701272298260368E2  -9.600389841941164E-1   9.882550322586890E1  
 1.075295295295295E9    -8.962140091882894E-1  -4.263681665954908E1  -1.282490874855984E1  -1.176446503936671E2  -6.336174688513945E1   1.580701778000669E2  -9.798822794342379E-1   9.139188562051146E1  
 1.087287287287287E9    -9.106429431235416E-1  -5.082259182449172E1  -1.284592544958047E1  -1.255096476230849E2  -6.308958441557439E1   1.501562045798007E2  -9.774937019150026E-1   8.420626900451896E1  
 1.099279279279279E9    -9.263377274487747E-1  -5.896914443178794E1  -1.289255729689551E1  -1.333799924100610E2  -6.279598107718935E1   1.440005650053961E2  -9.873584336866009E-1   7.696766129039483E1  
 1.111271271271271E9    -9.266188024101004E-1  -6.714903037572366E1  -1.288719065270314E1  -1.411500815099778E2  -6.269318466519133E1   1.332634408730392E2  -9.792629174449249E-1   6.974364169832731E1  
 1.123263263263263E9    -9.441055230912435E-1  -7.547431045334675E1  -1.293865299431255E1  -1.489207692353028E2  -6.204691777668685E1   1.286352475212356E2  -9.690780252697393E-1   6.264669822778738E1  
 1.135255255255255E9    -9.688769575644386E-1  -8.369274877080089E1  -1.298226485123493E1  -1.566056466617050E2  -6.259374496805948E1   1.210858642207395E2  -9.697573408559667E-1   5.549358660306514E1  
 1.147247247247247E9    -9.866757479824949E-1  -9.212521747611920E1  -1.299029408619406E1  -1.644224169114246E2  -6.250063301109821E1   1.052613714259778E2  -9.655214431757988E-1   4.839099218912570E1  
 1.159239239239239E9    -9.788239181556346E-1  -1.004690748528608E2  -1.300092803010516E1  -1.720965761232350E2  -6.122973302153537E1   1.040775989162973E2  -9.918787791292434E-1   4.127699305056315E1  
 1.171231231231231E9    -1.002562082951346  -1.090021412515986E2  -1.307043275528444E1  -1.797882532887326E2  -6.132965160746397E1   9.437500758093620E1  -9.914617644622614E-1   3.420861697688582E1  
