! AWR Design Environment (9138) Sun Nov 27 12:25:02 2022
! Document = 'LNA'
! nPorts: 2, nXvals: 161

# MHz S DB R 50
!Freq DBS11 AngS11 DBS21 AngS21 DBS12 AngS12 DBS22 AngS22 
2000 -8.3719089 -132.97385 -0.80035598 150.86427 -47.119403 73.397496 -7.4982748 -107.37187 
2050 -9.2225109 -132.72221 0.73109151 146.35107 -45.36284 69.529671 -8.4895713 -106.64794 
2100 -9.9895446 -130.76449 2.2000373 140.17844 -43.67556 64.006271 -9.4707166 -103.72016 
2150 -10.527189 -127.31783 3.5447154 132.52142 -42.115786 56.647229 -10.265121 -98.361389 
2200 -10.731982 -123.22223 4.7273821 123.75215 -40.723938 48.196776 -10.65157 -91.192135 
2250 -10.602286 -119.62163 5.7158351 114.26929 -39.532154 39.040187 -10.520017 -83.898083 
2300 -10.23734 -117.38383 6.5182412 104.37673 -38.531409 29.491647 -9.9661798 -78.225227 
2350 -9.7697273 -116.81559 7.1522676 94.318396 -37.736919 19.576791 -9.2108602 -74.915632 
2400 -9.2966014 -117.6552 7.6321461 84.380504 -37.099958 9.8036642 -8.4188221 -73.717587 
2450 -8.8839888 -119.49789 7.9656003 74.765459 -36.568888 0.71624239 -7.6730282 -74.096187 
2500 -8.5383118 -122.10794 8.1950419 65.513509 -36.14692 -7.997595 -7.02143 -75.602951 
2550 -8.2606435 -125.17958 8.3534225 56.736496 -35.79447 -16.609826 -6.4735372 -77.898107 
2600 -8.0517166 -128.62345 8.4502526 48.378127 -35.508169 -24.780629 -6.0219241 -80.664194 
2650 -7.9200169 -132.4111 8.4936688 40.386505 -35.290964 -32.298746 -5.6566673 -83.677017 
2700 -7.8469578 -136.3542 8.5056334 32.779198 -35.109612 -39.422984 -5.3641897 -86.863623 
2750 -7.8142491 -140.36644 8.4931903 25.530813 -34.971933 -46.532586 -5.1343456 -90.164793 
2800 -7.8274504 -144.45177 8.467239 18.597166 -34.850486 -53.30796 -4.956891 -93.511666 
2850 -7.8852095 -148.5524 8.4286786 11.940407 -34.722037 -59.568321 -4.8238768 -96.835472 
2900 -7.9792246 -152.68298 8.3870899 5.5285899 -34.600431 -65.57097 -4.7279941 -100.15277 
2950 -8.1053175 -156.79744 8.3473102 -0.66118848 -34.461092 -71.350961 -4.6683959 -103.482 
3000 -8.2613442 -160.92888 8.3100551 -6.6687235 -34.323613 -76.935383 -4.6357366 -106.79104 
3050 -8.4471707 -165.15027 8.2761691 -12.474154 -34.241674 -82.509468 -4.6232961 -110.05479 
3100 -8.660206 -169.38942 8.2474268 -18.136388 -34.156658 -87.928682 -4.631475 -113.29255 
3150 -8.9101176 -173.56951 8.2172254 -23.725048 -34.060949 -93.091073 -4.6559398 -116.49419 
3200 -9.1855905 -177.76888 8.1935691 -29.208069 -33.96143 -98.1383 -4.696442 -119.67366 
3250 -9.4706157 178.03587 8.1739373 -34.552227 -33.815244 -103.16164 -4.7553529 -122.8442 
3300 -9.7802942 173.80673 8.1607939 -39.81858 -33.666136 -108.09247 -4.8273783 -125.99833 
3350 -10.124208 169.5817 8.1546294 -45.027001 -33.542448 -113.11149 -4.91053 -129.1437 
3400 -10.494779 165.31499 8.1548971 -50.177797 -33.414638 -118.05713 -5.0050142 -132.28025 
3450 -10.898178 160.93703 8.156943 -55.285097 -33.294797 -122.84044 -5.1116999 -135.37246 
3500 -11.331545 156.49522 8.1648752 -60.350582 -33.171332 -127.57124 -5.2284389 -138.46057 
3550 -11.796127 152.01056 8.1742493 -65.378916 -33.028211 -132.28434 -5.3526065 -141.53931 
3600 -12.295207 147.43755 8.1889074 -70.377281 -32.882454 -136.955 -5.4859686 -144.62036 
3650 -12.817016 142.88242 8.2101491 -75.317074 -32.741347 -141.50323 -5.6309834 -147.755 
3700 -13.377782 138.21527 8.2361325 -80.236108 -32.597925 -146.02166 -5.7851173 -150.90002 
3750 -13.989857 133.44218 8.2616782 -85.134601 -32.463079 -150.60212 -5.9479437 -154.05813 
3800 -14.650989 128.51028 8.2914197 -90.019569 -32.326039 -155.15888 -6.1197985 -157.2334 
3850 -15.372372 123.30206 8.319067 -94.925844 -32.163814 -159.82841 -6.2998974 -160.35849 
3900 -16.157392 117.83113 8.3502383 -99.823808 -32.000497 -164.47453 -6.4888374 -163.50335 
3950 -17.018818 112.20409 8.3848937 -104.68099 -31.849397 -169.02496 -6.6844908 -166.69923 
4000 -17.964757 106.1759 8.4225961 -109.53437 -31.697432 -173.56064 -6.8891466 -169.92373 
4050 -18.981164 99.643984 8.4647939 -114.36836 -31.554516 -178.13867 -7.1099523 -173.21389 
4100 -20.102877 92.389647 8.5096048 -119.2006 -31.410702 177.29537 -7.3406938 -176.54229 
4150 -21.385719 83.973407 8.5493552 -124.059 -31.253777 172.67123 -7.5780979 -179.8323 
4200 -22.798806 73.976048 8.5912287 -128.91733 -31.096753 168.06003 -7.8255059 176.83595 
4250 -24.25815 62.225796 8.6306253 -133.74674 -30.951118 163.68304 -8.0812666 173.41677 
4300 -25.724861 47.441104 8.6718001 -138.57794 -30.805762 159.3114 -8.3474208 169.94252 
4350 -26.982603 28.372491 8.7174698 -143.41811 -30.648943 154.63196 -8.6287899 166.4191 
4400 -27.586039 5.8532326 8.7646227 -148.2602 -30.492357 149.96431 -8.9214327 162.82807 
4450 -27.357375 -17.246808 8.8034121 -153.10889 -30.341603 145.56504 -9.2133466 159.19105 
4500 -26.358928 -37.482766 8.8435564 -157.95951 -30.191769 141.17182 -9.5158307 155.47312 
4550 -25.120943 -53.076038 8.8821915 -162.77393 -30.083038 136.77732 -9.8375684 151.58959 
4600 -23.838955 -65.558738 8.9219718 -167.59233 -29.974504 132.38473 -10.171059 147.59727 
4650 -22.560549 -75.5732 8.9708118 -172.41263 -29.795849 127.71308 -10.527151 143.56187 
4700 -21.41396 -84.07205 9.0204039 -177.23509 -29.618619 123.05459 -10.895848 139.39738 
4750 -20.392911 -92.005865 9.0581378 177.88372 -29.492635 118.57126 -11.262978 135.19323 
4800 -19.479561 -99.122808 9.0968112 173.00108 -29.367477 114.09418 -11.64107 130.84006 
4850 -18.68534 -105.55811 9.1402932 168.18289 -29.221873 109.5239 -12.039347 126.15408 
4900 -17.971622 -111.60019 9.1845856 163.3624 -29.077132 104.96182 -12.447219 121.25801 
4950 -17.341323 -117.34315 9.2206057 158.53323 -28.946657 100.37702 -12.848679 116.24452 
5000 -16.771331 -122.86385 9.2574721 153.7023 -28.816775 95.800759 -13.254473 110.98668 
5050 -16.250273 -128.25146 9.2981715 148.86009 -28.672752 91.299444 -13.683542 105.50177 
5100 -15.776016 -133.50198 9.339632 144.01686 -28.529891 86.80594 -14.112152 99.717908 
5150 -15.371342 -138.67508 9.3771087 139.18155 -28.425556 82.300661 -14.518785 93.504724 
5200 -15.001778 -143.75808 9.4155912 134.34378 -28.321449 77.799494 -14.909793 86.937078 
5250 -14.648449 -148.77428 9.4518509 129.51693 -28.19054 73.187262 -15.283104 80.106261 
5300 -14.325304 -153.73412 9.4890897 124.68858 -28.060059 68.584129 -15.623259 72.909275 
5350 -14.045755 -158.62723 9.5275484 119.85194 -27.926297 64.160895 -15.923856 65.27208 
5400 -13.789564 -163.48946 9.5670685 115.01278 -27.793302 59.742242 -16.166816 57.308006 
5450 -13.549772 -168.43337 9.601081 110.18353 -27.665417 55.187062 -16.338058 49.304118 
5500 -13.329963 -173.35272 9.6363831 105.35232 -27.537773 50.639588 -16.436476 41.125927 
5550 -13.140203 -178.18102 9.6714295 100.52193 -27.440032 46.079492 -16.461657 32.841131 
5600 -12.967347 177.00549 9.7077879 95.689256 -27.342038 41.523765 -16.408785 24.566162 
5650 -12.815413 172.13042 9.7439433 90.855197 -27.220059 37.000673 -16.272546 16.293608 
5700 -12.677174 167.25674 9.7815344 86.016544 -27.098094 32.481331 -16.066501 8.2210533 
5750 -12.55144 162.38973 9.8178457 81.163706 -26.980892 27.840262 -15.831007 0.39027548 
5800 -12.437826 157.51883 9.8555621 76.30632 -26.863463 23.203991 -15.54566 -7.1577175 
5850 -12.337757 152.60957 9.8910316 71.472907 -26.74071 18.78286 -15.204358 -14.172595 
5900 -12.246936 147.68876 9.9281946 66.633767 -26.617907 14.362767 -14.838997 -20.872273 
5950 -12.181704 142.73711 9.9659841 61.774374 -26.510782 9.7051663 -14.450816 -27.369142 
6000 -12.124678 137.76973 10.005446 56.906722 -26.402955 5.0477174 -14.054331 -33.579714 
6050 -12.07222 132.83347 10.042826 52.035388 -26.281247 0.49364923 -13.675396 -39.645485 
6100 -12.02657 127.87555 10.081678 47.155811 -26.159481 -4.0607609 -13.296266 -45.470104 
6150 -11.996528 122.84926 10.11854 42.276697 -26.060316 -8.6818243 -12.929581 -50.950179 
6200 -11.971658 117.79987 10.157033 37.387956 -25.960524 -13.305621 -12.57022 -56.253162 
6250 -11.947849 112.69724 10.19363 32.486595 -25.833735 -17.895817 -12.215656 -61.343434 
6300 -11.928035 107.56548 10.232033 27.573854 -25.706636 -22.488349 -11.871629 -66.301917 
6350 -11.921565 102.45362 10.269585 22.659335 -25.585998 -27.038989 -11.539864 -71.223977 
6400 -11.918116 97.309024 10.308668 17.732306 -25.465269 -31.594854 -11.220278 -76.043402 
6450 -11.928549 92.113905 10.344995 12.796493 -25.379876 -36.244445 -10.930738 -80.764088 
6500 -11.940602 86.88724 10.3828 7.8472414 -25.293917 -40.901977 -10.65416 -85.415644 
6550 -11.955008 81.568389 10.422904 2.8857646 -25.179099 -45.595434 -10.369873 -89.973038 
6600 -11.970342 76.211964 10.464505 -2.0920467 -25.063934 -50.297155 -10.099365 -94.48759 
6650 -11.984407 70.855473 10.499671 -7.0825512 -24.962532 -54.955892 -9.8701558 -98.94368 
6700 -11.998033 65.463121 10.536435 -12.089243 -24.860691 -59.623964 -9.6535799 -103.37557 
6750 -12.019938 60.021156 10.574176 -17.094324 -24.744936 -64.288226 -9.4351899 -107.78559 
6800 -12.041003 54.538255 10.613269 -22.11795 -24.629112 -68.963734 -9.2297605 -112.18701 
6850 -12.080205 48.991502 10.649929 -27.163677 -24.528448 -73.835138 -9.0416955 -116.58335 
6900 -12.118281 43.403678 10.687687 -32.229807 -24.427436 -78.718843 -8.8671482 -120.98848 
6950 -12.145814 37.930408 10.721786 -37.276024 -24.334025 -83.349534 -8.7080488 -125.3634 
7000 -12.17123 32.417646 10.756979 -42.342111 -24.24063 -87.994959 -8.561896 -129.751 
7050 -12.212041 26.728877 10.79154 -47.450453 -24.134678 -92.819218 -8.4222055 -134.20948 
7100 -12.250722 20.994328 10.826859 -52.58191 -24.029002 -97.659154 -8.2958165 -138.69537 
7150 -12.26337 15.281034 10.864062 -57.695129 -23.922424 -102.3981 -8.1930731 -143.12139 
7200 -12.272568 9.5251332 10.902421 -62.83207 -23.815889 -107.1549 -8.1027284 -147.58592 
7250 -12.301315 3.7173165 10.935656 -67.993801 -23.701677 -112.09357 -8.0203124 -152.17563 
7300 -12.327335 -2.1350262 10.969509 -73.180764 -23.587869 -117.04879 -7.9509876 -156.8162 
7350 -12.340451 -8.0029023 11.005109 -78.388531 -23.491914 -121.81715 -7.8938759 -161.42964 
7400 -12.3496 -13.920912 11.041504 -83.62424 -23.396329 -126.60881 -7.8496073 -166.09982 
7450 -12.368328 -19.972802 11.073829 -88.891717 -23.296955 -131.63397 -7.8313307 -170.91602 
7500 -12.383123 -26.0781 11.106639 -94.18891 -23.198017 -136.68169 -7.8264769 -175.80686 
7550 -12.394432 -32.139479 11.137298 -99.502573 -23.112365 -141.71674 -7.8376603 179.22853 
7600 -12.401515 -38.256925 11.16845 -104.84735 -23.027096 -146.77716 -7.8624207 174.17814 
7650 -12.40869 -44.562601 11.199711 -110.23534 -22.910406 -151.80496 -7.8827813 169.06947 
7700 -12.411955 -50.937255 11.230889 -115.65945 -22.795189 -156.86198 -7.91634 163.85319 
7750 -12.413497 -57.327398 11.261267 -121.09182 -22.706362 -162.01277 -7.9756621 158.55416 
7800 -12.410281 -63.79289 11.291404 -126.56268 -22.618699 -167.19642 -8.048938 153.13079 
7850 -12.40654 -70.341292 11.314066 -132.07377 -22.535986 -172.45353 -8.1417846 147.51472 
7900 -12.397533 -76.976183 11.336079 -137.62733 -22.454765 -177.74685 -8.2482227 141.74915 
7950 -12.374143 -83.752091 11.359569 -143.23398 -22.370278 176.98838 -8.368956 135.90007 
8000 -12.344368 -90.624637 11.381913 -148.88877 -22.288002 171.68094 -8.5028253 129.87096 
8050 -12.33988 -97.582206 11.394099 -154.57037 -22.211919 166.20997 -8.652013 123.56617 
8100 -12.328396 -104.64848 11.404252 -160.30046 -22.138682 160.69751 -8.8127898 117.04873 
8150 -12.289563 -111.90397 11.414409 -166.09531 -22.056847 155.23253 -8.9723209 110.32455 
8200 -12.242134 -119.27515 11.421514 -171.94542 -21.979222 149.71834 -9.1392776 103.3509 
8250 -12.188753 -126.68306 11.422414 -177.83605 -21.919595 144.09227 -9.3332757 96.063637 
8300 -12.125223 -134.21156 11.419528 176.21411 -21.864658 138.41295 -9.5293001 88.479218 
8350 -12.067395 -142.01097 11.40433 170.18847 -21.811499 132.67802 -9.7235279 80.70317 
8400 -11.997115 -149.93202 11.383472 164.10213 -21.765039 126.88915 -9.9137144 72.605072 
8450 -11.928378 -157.90948 11.355702 157.99579 -21.726887 121.04017 -10.089256 64.06425 
8500 -11.845444 -166.00345 11.321075 151.82936 -21.696583 115.13757 -10.245032 55.194208 
8550 -11.741761 -174.24112 11.27425 145.59629 -21.693814 109.19769 -10.388841 46.156398 
8600 -11.622456 177.42247 11.218615 139.30111 -21.700706 103.20061 -10.502534 36.829185 
8650 -11.485956 169.0368 11.152377 132.94242 -21.709152 97.108741 -10.583453 27.109566 
8700 -11.333831 160.57741 11.075621 126.52188 -21.729016 90.96102 -10.618644 17.17343 
8750 -11.184908 152.01805 10.983005 120.0846 -21.763572 84.793495 -10.610899 7.2162438 
8800 -11.019817 143.41532 10.878055 113.59247 -21.811357 78.576908 -10.554177 -2.8244235 
8850 -10.834376 134.76957 10.75526 107.02488 -21.874618 72.248693 -10.447129 -13.00446 
8900 -10.634865 126.12797 10.618169 100.41105 -21.953032 65.880726 -10.293815 -23.106833 
8950 -10.417073 117.47244 10.462845 93.763371 -22.049801 59.570863 -10.106498 -32.945246 
9000 -10.189975 108.85088 10.291006 87.074217 -22.164078 53.224698 -9.8872072 -42.609657 
9050 -9.9782066 100.34477 10.106024 80.403516 -22.29498 46.75567 -9.640496 -52.156656 
9100 -9.758498 91.886663 9.903793 73.699304 -22.443868 40.259178 -9.3763065 -61.465554 
9150 -9.5253892 83.433855 9.6758897 66.953521 -22.613749 33.780532 -9.1092986 -70.540647 
9200 -9.2892771 75.061928 9.4288187 60.185873 -22.8037 27.285906 -8.8385032 -79.365286 
9250 -9.0483955 66.787972 9.1594387 53.396104 -23.024798 20.796471 -8.5785201 -87.922664 
9300 -8.8090349 58.608524 8.8693362 46.594059 -23.267487 14.299547 -8.3251104 -96.2459 
9350 -8.580209 50.523759 8.5574153 39.808119 -23.525391 7.7603103 -8.0783156 -104.40018 
9400 -8.3545904 42.53773 8.2237171 33.018583 -23.80591 1.2233139 -7.8446448 -112.34543 
9450 -8.129881 34.643827 7.8631968 26.23155 -24.10505 -5.2565906 -7.6314169 -120.05572 
9500 -7.9112386 26.850396 7.4790694 19.449552 -24.428791 -11.725651 -7.4344538 -127.59779 
9550 -7.701193 19.111667 7.0646313 12.712062 -24.794894 -18.181491 -7.2663007 -134.97279 
9600 -7.4981766 11.475523 6.6248943 5.9881423 -25.187141 -24.618807 -7.1139816 -142.20919 
9650 -7.3097249 3.9532636 6.1602694 -0.7000645 -25.604396 -31.089953 -6.9727774 -149.35479 
9700 -7.1280983 -3.4856651 5.6672712 -7.3713621 -26.050726 -37.538589 -6.8478766 -156.39022 
9750 -6.9510934 -10.865755 5.1372853 -14.003105 -26.50964 -43.847296 -6.7290369 -163.2688 
9800 -6.7817716 -18.175222 4.5737697 -20.606665 -27.003199 -50.121434 -6.6265799 -170.07973 
9850 -6.6231763 -25.404567 3.979148 -27.161286 -27.562894 -56.437324 -6.5577805 -176.89373 
9900 -6.4724192 -32.581668 3.3449343 -33.671832 -28.162853 -62.704974 -6.5017719 176.33972 
9950 -6.3290705 -39.731643 2.6595243 -40.10927 -28.789414 -68.870732 -6.4492213 169.62319 
10000 -6.1936757 -46.853725 1.9247631 -46.469597 -29.466207 -74.953245 -6.4099371 162.91935 
