!
! C:\Users\Aljaz\OneDrive - Univerza v Ljubljani\DOKTORAT\NOVI SA\Slabilec PE43711B\meritve\prototip2\0_25dB.S2P
!
! Touchstone 1.1 file saved by VNA.EXE V1.65 (www.ke5fx.com/gpib/readme.htm)
! 18. 04. 2022 17:57:46
!
!    Source: HP8510C.07.14: Aug 26  1998 
!  Min freq: 4.500000E+007 Hz
!  Max freq: 6.000000E+009 Hz
!    Points: 801
!    Params: S11 S21 S12 S22
!
!!!!!
# GHZ S DB R 50
0.0450000000000000 -19.315268 -24.219273 -1.257830 -1.758538 -1.536169 -1.972416 -19.515737 -25.640558 
0.0524437500000000 -19.335947 -23.419527 -1.255571 -2.623479 -1.526700 -2.859074 -19.610588 -24.834840 
0.0598875000000000 -19.370611 -23.396921 -1.267065 -3.344123 -1.532251 -3.548231 -19.673860 -24.736473 
0.0673312500000000 -19.429893 -23.464127 -1.264030 -4.032013 -1.520488 -4.171845 -19.725675 -24.700892 
0.0747750000000000 -19.428717 -23.757812 -1.262182 -4.671960 -1.516074 -4.758625 -19.722835 -24.766861 
0.0822187500000000 -19.426797 -23.761180 -1.257908 -5.164607 -1.501395 -5.334811 -19.724543 -25.293201 
0.0896625000000000 -19.394282 -24.425906 -1.257467 -5.807918 -1.508605 -5.872248 -19.698106 -26.060912 
0.0971062500000000 -19.369142 -25.086883 -1.262036 -6.382395 -1.490125 -6.458935 -19.674954 -26.943557 
0.1045500000000000 -19.339157 -26.114841 -1.259787 -6.928193 -1.485511 -7.034175 -19.696773 -28.198257 
0.1119937500000000 -19.352434 -27.058591 -1.261732 -7.471857 -1.485366 -7.579972 -19.705607 -29.217343 
0.1194375000000000 -19.370591 -27.988898 -1.264109 -8.016843 -1.483230 -8.107811 -19.729407 -30.294104 
0.1268812500000000 -19.389266 -29.070436 -1.268808 -8.493543 -1.488547 -8.597364 -19.736440 -31.182302 
0.1343250000000000 -19.383100 -29.887295 -1.264673 -9.042027 -1.476870 -9.118519 -19.771523 -32.138750 
0.1417687500000000 -19.384046 -30.898811 -1.275625 -9.601490 -1.492572 -9.574969 -19.746718 -33.104229 
0.1492125000000000 -19.388865 -31.925268 -1.279698 -10.074883 -1.479204 -10.142970 -19.728271 -34.269376 
0.1566562500000000 -19.372151 -32.952439 -1.288076 -10.618658 -1.482285 -10.618892 -19.695103 -35.467273 
0.1641000000000000 -19.372036 -34.113009 -1.289493 -11.097511 -1.482382 -11.132194 -19.685118 -36.671762 
0.1715437500000000 -19.357782 -35.368013 -1.299523 -11.593096 -1.482858 -11.610927 -19.702908 -37.941675 
0.1789875000000000 -19.374530 -36.459067 -1.302544 -12.072483 -1.476910 -12.130222 -19.689857 -38.986547 
0.1864312500000000 -19.377626 -37.567351 -1.293235 -12.572386 -1.484994 -12.574937 -19.676990 -40.121848 
0.1938750000000000 -19.382286 -38.623251 -1.299579 -13.056564 -1.485539 -13.109844 -19.658374 -41.086098 
0.2013187500000000 -19.376049 -39.660239 -1.305078 -13.599585 -1.480382 -13.585656 -19.639921 -42.236589 
0.2087625000000000 -19.373842 -40.627102 -1.304430 -14.084043 -1.479201 -14.042781 -19.614878 -43.327614 
0.2162062500000000 -19.346878 -41.685228 -1.307482 -14.523308 -1.485439 -14.528358 -19.609987 -44.524197 
0.2236500000000000 -19.323661 -42.751906 -1.313621 -15.047106 -1.483882 -15.014794 -19.577378 -45.733125 
0.2310937500000000 -19.279110 -43.863425 -1.303378 -15.578702 -1.490117 -15.494886 -19.578525 -46.971788 
0.2385375000000000 -19.255621 -45.002837 -1.322094 -16.038527 -1.488003 -16.010677 -19.560702 -48.178198 
0.2459812500000000 -19.244308 -46.184461 -1.313785 -16.573773 -1.480284 -16.540368 -19.557817 -49.456384 
0.2534250000000000 -19.216265 -47.360371 -1.320957 -17.064264 -1.487946 -16.991043 -19.540308 -50.705633 
0.2608687500000000 -19.236349 -48.528039 -1.312708 -17.767992 -1.566278 -17.891942 -19.509087 -52.430275 
0.2683125000000000 -19.215636 -49.800931 -1.319322 -18.304290 -1.572891 -18.384584 -19.512382 -53.808705 
0.2757562500000000 -19.166598 -51.113807 -1.323084 -18.787171 -1.576935 -18.895747 -19.478334 -55.227525 
0.2832000000000000 -19.132637 -52.165609 -1.337735 -19.325083 -1.573889 -19.432479 -19.469272 -56.641255 
0.2906437500000000 -19.118892 -53.491891 -1.332129 -19.740343 -1.570283 -19.866766 -19.487406 -57.951373 
0.2980875000000000 -19.097644 -54.510416 -1.341173 -20.209038 -1.573007 -20.341918 -19.430705 -59.054848 
0.3055312500000000 -19.090328 -55.746537 -1.348267 -20.679618 -1.584515 -20.813929 -19.399677 -60.205029 
0.3129750000000000 -19.087173 -56.681572 -1.350585 -21.188421 -1.585195 -21.229319 -19.349162 -61.245175 
0.3204187500000000 -19.069091 -57.700939 -1.355886 -21.658700 -1.587388 -21.708638 -19.298760 -62.536875 
0.3278625000000000 -19.079511 -58.472860 -1.355043 -22.105776 -1.592217 -22.196893 -19.250106 -63.713795 
0.3353062500000000 -19.059405 -59.236717 -1.364712 -22.558639 -1.575123 -22.695167 -19.218457 -64.867134 
0.3427500000000000 -19.042745 -60.057230 -1.361425 -23.022152 -1.584351 -23.180955 -19.164864 -65.946595 
0.3501937500000000 -19.016241 -60.991271 -1.360930 -23.557358 -1.591686 -23.650303 -19.136976 -66.988768 
0.3576375000000000 -18.994797 -61.988664 -1.366899 -24.051011 -1.601834 -24.137340 -19.136446 -67.967098 
0.3650812500000000 -18.988666 -63.058231 -1.375856 -24.522451 -1.592915 -24.643692 -19.093375 -68.858586 
0.3725250000000000 -18.998126 -64.124766 -1.373552 -25.034339 -1.593617 -25.048619 -19.049032 -69.745926 
0.3799687500000000 -18.995702 -65.252466 -1.396198 -25.467583 -1.589953 -25.522660 -19.040330 -70.798257 
0.3874125000000000 -19.002732 -66.169673 -1.386060 -25.975248 -1.599605 -25.966205 -19.025629 -71.848640 
0.3948562500000000 -18.983317 -67.210386 -1.383722 -26.452258 -1.597357 -26.457909 -19.002656 -72.965178 
0.4023000000000000 -18.980941 -68.212670 -1.392153 -26.962505 -1.595172 -26.958748 -19.001544 -74.123379 
0.4097437500000000 -18.938338 -69.243833 -1.389041 -27.415671 -1.603350 -27.497119 -19.002840 -75.330925 
0.4171875000000000 -18.918277 -70.459230 -1.402561 -27.970345 -1.604800 -27.953587 -18.991406 -76.378158 
0.4246312500000000 -18.875499 -71.824955 -1.403952 -28.422970 -1.620494 -28.451036 -18.990869 -77.499685 
0.4320750000000000 -18.859841 -72.990846 -1.410993 -28.912354 -1.625318 -28.893648 -18.967992 -78.568652 
0.4395187500000000 -18.848418 -74.221046 -1.430128 -29.307898 -1.628628 -29.412900 -18.940816 -79.853488 
0.4469625000000000 -18.831974 -75.277447 -1.428980 -29.805985 -1.634707 -29.862949 -18.931171 -80.962465 
0.4544062500000000 -18.816645 -76.381938 -1.430193 -30.224829 -1.636702 -30.324365 -18.893386 -82.132223 
0.4618500000000000 -18.757553 -77.217230 -1.440262 -30.701832 -1.639239 -30.802594 -18.845570 -83.215599 
0.4692937500000000 -18.728984 -78.144992 -1.436923 -31.160127 -1.644339 -31.234447 -18.800165 -84.134078 
0.4767375000000000 -18.681965 -78.976231 -1.440586 -31.651178 -1.652655 -31.711696 -18.745914 -85.067627 
0.4841812500000000 -18.646473 -79.792344 -1.449793 -32.124307 -1.654711 -32.153831 -18.672457 -86.027451 
0.4916250000000000 -18.594070 -80.755892 -1.447996 -32.632952 -1.657084 -32.607197 -18.604666 -86.843503 
0.4990687500000000 -18.562020 -81.583077 -1.454276 -33.132196 -1.652793 -33.072372 -18.545140 -87.921733 
0.5065125000000000 -18.538307 -82.382165 -1.466418 -33.593610 -1.661374 -33.567932 -18.497903 -88.593362 
0.5139562500000000 -18.488619 -83.042417 -1.471293 -34.066348 -1.659246 -34.068122 -18.448502 -89.510054 
0.5214000000000000 -18.459962 -83.924018 -1.466586 -34.549038 -1.668282 -34.536894 -18.413095 -90.183889 
0.5288437500000000 -18.406004 -84.775268 -1.483340 -35.021926 -1.673108 -35.026063 -18.369864 -91.038135 
0.5362875000000000 -18.346758 -85.554316 -1.493018 -35.524640 -1.681857 -35.458982 -18.332939 -91.813294 
0.5437312500000000 -18.294127 -86.630691 -1.510468 -35.966032 -1.685774 -35.932316 -18.278228 -92.587666 
0.5511750000000000 -18.247800 -87.659199 -1.512513 -36.447840 -1.696113 -36.350396 -18.258182 -93.634905 
0.5586187500000001 -18.221642 -88.847613 -1.536252 -36.834419 -1.705110 -36.844787 -18.235066 -94.782457 
0.5660625000000000 -18.197229 -89.888110 -1.544728 -37.255921 -1.715401 -37.288295 -18.217041 -95.952544 
0.5735062500000000 -18.165083 -91.072347 -1.539855 -37.747175 -1.718895 -37.681901 -18.216638 -97.202950 
0.5809500000000000 -18.151732 -92.270840 -1.545234 -38.129657 -1.730996 -38.127862 -18.199297 -98.355705 
0.5883937500000001 -18.150928 -93.321233 -1.544542 -38.522797 -1.732766 -38.539796 -18.207159 -99.513477 
0.5958375000000000 -18.115811 -94.281170 -1.549686 -38.898091 -1.731464 -38.946125 -18.190170 -100.765619 
0.6032812500000000 -18.121488 -95.459027 -1.548899 -39.368074 -1.734004 -39.361660 -18.172913 -102.081034 
0.6107250000000000 -18.111062 -96.472630 -1.554345 -39.793791 -1.731985 -39.779883 -18.155979 -103.340006 
0.6181687500000000 -18.110542 -97.471360 -1.545246 -40.245559 -1.735414 -40.211281 -18.140116 -104.587842 
0.6256125000000000 -18.107154 -98.298882 -1.553239 -40.686112 -1.733822 -40.648301 -18.141402 -105.685072 
0.6330562500000000 -18.088025 -99.055775 -1.543258 -41.176690 -1.727534 -41.123314 -18.112521 -106.737823 
0.6405000000000000 -18.078404 -100.045835 -1.541457 -41.647931 -1.725218 -41.595812 -18.086147 -107.581012 
0.6479437500000000 -18.089463 -100.941843 -1.529686 -42.181111 -1.725325 -41.985470 -18.059239 -108.510129 
0.6553875000000000 -18.064779 -101.915050 -1.546577 -42.653296 -1.725844 -42.460920 -18.040363 -109.325767 
0.6628312500000000 -18.070392 -102.705745 -1.555040 -43.124545 -1.707612 -42.918119 -18.000650 -110.183959 
0.6702750000000000 -18.073600 -103.622200 -1.558252 -43.607794 -1.713982 -43.433449 -17.991033 -110.994306 
0.6777187500000000 -18.059399 -104.542039 -1.560327 -44.158020 -1.711167 -43.936970 -18.005408 -111.924960 
0.6851625000000000 -18.040651 -105.416365 -1.568466 -44.606031 -1.717416 -44.547987 -18.018016 -112.778711 
0.6926062500000000 -18.054530 -106.295289 -1.585071 -45.072714 -1.733229 -45.042265 -18.041202 -113.598507 
0.7000500000000000 -18.040730 -107.332805 -1.594011 -45.472379 -1.741995 -45.546978 -18.060004 -114.312869 
0.7074937500000000 -18.034252 -108.231009 -1.601112 -45.993140 -1.759236 -45.979593 -18.078368 -115.133517 
0.7149375000000000 -18.068532 -109.239004 -1.608487 -46.310980 -1.765725 -46.398584 -18.079018 -115.937448 
0.7223812500000000 -18.090530 -109.995693 -1.614002 -46.734804 -1.774159 -46.747370 -18.088778 -116.720368 
0.7298250000000000 -18.101441 -110.824129 -1.610374 -47.134647 -1.770475 -47.189543 -18.087587 -117.698434 
0.7372687500000000 -18.101319 -111.411309 -1.604167 -47.552862 -1.770626 -47.634156 -18.092696 -118.795891 
0.7447125000000000 -18.092501 -112.106404 -1.594523 -48.005139 -1.771884 -48.132480 -18.114730 -119.790055 
0.7521562500000000 -18.063289 -112.638972 -1.586624 -48.527171 -1.772130 -48.595820 -18.110966 -120.767426 
0.7596000000000001 -18.021745 -113.373655 -1.592441 -49.090697 -1.781179 -49.045285 -18.107731 -121.704456 
0.7670437500000000 -18.002434 -114.273362 -1.608043 -49.581516 -1.792074 -49.470972 -18.077576 -122.526415 
0.7744875000000000 -17.983565 -115.092477 -1.612201 -50.087153 -1.790309 -49.892343 -18.046633 -123.432041 
0.7819312500000000 -17.982606 -115.859138 -1.613917 -50.466444 -1.788550 -50.377896 -18.027278 -124.322856 
0.7893750000000001 -17.983235 -116.699881 -1.629343 -50.946865 -1.789057 -50.781188 -17.992244 -125.258610 
0.7968187500000000 -17.998047 -117.366932 -1.622354 -51.400759 -1.782644 -51.240947 -17.976024 -126.026345 
0.8042625000000000 -17.995656 -118.013291 -1.630171 -51.836022 -1.779600 -51.739714 -17.971812 -126.767110 
0.8117062500000000 -18.003041 -118.712326 -1.620443 -52.374880 -1.782314 -52.254181 -17.928571 -127.540764 
0.8191500000000000 -17.981788 -119.400402 -1.630303 -52.855861 -1.781672 -52.717517 -17.935506 -127.988036 
0.8265937500000000 -17.988091 -120.251310 -1.648842 -53.352920 -1.784029 -53.240899 -17.914829 -128.687732 
0.8340375000000000 -17.984284 -120.846357 -1.653786 -53.749464 -1.790441 -53.749395 -17.912809 -129.353984 
0.8414812500000000 -17.989977 -121.633530 -1.669302 -54.214268 -1.804758 -54.223123 -17.938872 -130.162053 
0.8489250000000000 -18.089952 -122.678512 -1.672330 -54.705293 -1.894755 -55.040757 -17.960856 -131.436472 
0.8563687500000000 -18.104487 -123.518534 -1.667657 -55.159329 -1.911933 -55.536933 -17.998888 -132.003600 
0.8638125000000000 -18.119940 -123.980064 -1.670990 -55.563957 -1.931982 -55.932543 -18.009797 -132.649462 
0.8712562500000000 -18.116774 -124.551465 -1.662918 -56.066209 -1.941083 -56.300228 -18.024378 -133.197402 
0.8787000000000000 -18.107120 -125.162933 -1.675293 -56.566942 -1.942040 -56.733849 -18.039025 -134.033159 
0.8861437500000000 -18.086662 -126.027108 -1.668469 -56.973997 -1.945913 -57.077474 -17.997300 -134.779096 
0.8935875000000000 -18.077188 -126.670911 -1.695696 -57.567443 -1.937780 -57.626033 -18.003442 -135.782334 
0.9010312500000000 -18.053783 -126.979255 -1.669462 -57.809977 -1.937275 -57.878791 -18.002022 -136.590355 
0.9084750000000000 -18.024463 -127.922932 -1.678501 -58.419600 -1.941241 -58.472278 -17.960670 -137.556226 
0.9159187500000000 -18.020543 -128.378515 -1.694128 -58.829234 -1.946236 -58.879793 -17.989670 -138.100048 
0.9233625000000000 -18.008969 -128.996913 -1.689210 -59.329099 -1.947815 -59.314680 -17.950910 -138.766166 
0.9308062500000000 -18.001416 -129.546337 -1.692266 -59.736221 -1.947580 -59.721827 -17.909284 -139.506977 
0.9382500000000000 -17.986780 -130.364007 -1.711174 -60.189887 -1.929819 -60.160868 -17.866226 -140.025662 
0.9456937500000000 -18.003426 -131.021397 -1.722929 -60.706826 -1.933841 -60.623083 -17.845836 -140.792795 
0.9531375000000000 -17.992209 -131.631236 -1.735921 -61.088921 -1.930812 -61.189108 -17.828417 -141.563225 
0.9605812500000001 -17.985970 -132.368832 -1.730070 -61.543153 -1.939861 -61.696433 -17.833066 -142.164748 
0.9680250000000000 -18.033345 -133.083333 -1.735805 -61.915457 -1.941365 -62.236061 -17.868408 -142.745355 
0.9754687500000000 -18.055228 -133.695240 -1.730530 -62.361228 -1.966304 -62.698476 -18.015763 -143.562142 
0.9829125000000000 -18.062628 -134.198711 -1.730379 -62.808882 -1.994572 -63.101433 -17.917592 -143.310345 
0.9903562500000001 -18.073300 -134.699157 -1.735912 -63.238225 -1.985322 -63.498831 -17.958253 -143.570687 
0.9978000000000000 -18.098158 -135.232177 -1.740370 -63.684321 -1.988828 -63.847885 -17.957362 -143.898567 
1.0052437500000000 -18.104534 -135.801435 -1.748827 -64.113993 -1.991184 -64.236476 -17.944373 -144.657643 
1.0126875000000000 -18.123181 -136.493121 -1.751127 -64.550450 -1.989385 -64.680805 -18.004876 -145.354502 
1.0201312499999999 -18.138526 -137.014913 -1.741211 -65.013700 -1.988170 -65.208738 -18.050685 -145.979135 
1.0275749999999999 -18.164661 -137.579440 -1.745223 -65.422829 -1.988424 -65.667205 -18.103894 -146.686134 
1.0350187500000001 -18.146709 -138.122900 -1.749314 -65.887027 -2.017850 -66.106272 -18.164558 -147.321860 
1.0424625000000001 -18.124845 -138.717645 -1.766588 -66.339948 -2.032935 -66.470067 -18.164525 -148.063075 
1.0499062500000000 -18.130318 -139.323389 -1.760175 -66.813500 -2.030485 -66.811563 -18.175839 -148.643082 
1.0573500000000000 -18.130665 -140.127634 -1.773037 -67.222104 -2.020881 -67.267599 -18.163592 -149.510779 
1.0647937500000000 -18.142319 -140.852893 -1.774519 -67.619864 -2.019384 -67.687306 -18.169317 -150.575701 
1.0722375000000000 -18.186316 -141.418865 -1.768384 -67.986054 -2.004647 -68.145424 -18.172794 -151.479861 
1.0796812499999999 -18.224036 -141.931425 -1.765299 -68.425776 -2.012516 -68.641516 -18.215157 -152.220316 
1.0871249999999999 -18.209749 -142.300193 -1.763904 -68.914659 -2.011871 -69.132296 -18.209750 -152.912359 
1.0945687500000001 -18.223011 -142.771348 -1.759781 -69.360502 -2.021659 -69.515757 -18.232561 -153.363175 
1.1020125000000001 -18.246160 -143.486241 -1.754569 -69.907562 -2.031503 -69.927235 -18.225351 -153.828594 
1.1094562500000000 -18.214618 -143.928795 -1.764686 -70.420686 -2.020386 -70.380905 -18.236770 -154.449895 
1.1169000000000000 -18.227784 -144.570677 -1.780435 -70.845581 -2.031061 -70.833600 -18.238493 -154.853208 
1.1243437500000000 -18.239382 -145.125378 -1.789781 -71.303457 -2.025314 -71.287888 -18.242532 -155.566379 
1.1317874999999999 -18.240135 -145.793627 -1.788916 -71.713157 -2.030340 -71.763434 -18.286071 -156.004361 
1.1392312499999999 -18.270374 -146.152963 -1.791165 -72.153566 -2.038874 -72.193666 -18.311036 -156.265527 
1.1466750000000001 -18.246674 -146.495699 -1.797645 -72.593376 -2.040441 -72.702969 -18.356460 -156.664370 
1.1541187500000001 -18.262810 -147.062844 -1.798953 -73.065686 -2.044800 -73.143076 -18.381764 -156.781877 
1.1615625000000001 -18.272110 -147.536223 -1.800479 -73.541020 -2.042462 -73.507969 -18.406236 -157.530008 
1.1690062500000000 -18.259895 -148.073492 -1.812707 -74.026490 -2.054739 -73.959368 -18.420042 -158.257474 
1.1764500000000000 -18.276538 -148.668307 -1.822052 -74.459266 -2.042962 -74.416207 -18.461515 -158.777926 
1.1838937500000000 -18.307944 -149.021444 -1.834094 -74.788822 -2.053108 -74.902807 -18.494869 -159.520533 
1.1913374999999999 -18.340129 -149.540946 -1.833160 -75.123669 -2.057968 -75.430590 -18.591679 -160.215538 
1.1987812499999999 -18.348425 -149.950260 -1.825293 -75.547767 -2.076102 -75.835035 -18.620581 -160.455811 
1.2062250000000001 -18.436866 -149.975918 -1.814978 -75.989885 -2.075723 -76.201800 -18.624671 -160.853548 
1.2136687500000001 -18.449780 -150.171423 -1.807321 -76.434762 -2.081082 -76.536073 -18.596768 -161.304534 
1.2211125000000000 -18.452374 -150.471077 -1.800374 -76.894606 -2.077527 -76.920484 -18.582785 -161.821028 
1.2285562500000000 -18.441392 -150.797070 -1.796177 -77.421517 -2.060263 -77.399307 -18.530801 -162.655880 
1.2360000000000000 -18.472244 -151.297219 -1.792299 -77.928809 -2.063650 -77.852893 -18.579853 -163.340759 
1.2434437500000000 -18.519751 -151.658296 -1.803174 -78.386204 -2.053768 -78.371659 -18.587010 -163.936465 
1.2508874999999999 -18.547508 -152.035623 -1.796241 -78.812358 -2.061853 -78.815289 -18.631046 -164.283613 
1.2583312499999999 -18.547709 -152.323451 -1.797517 -79.286018 -2.063842 -79.327628 -18.660422 -164.553806 
1.2657750000000001 -18.586071 -152.636709 -1.796321 -79.812282 -2.068349 -79.732660 -18.670340 -164.749650 
1.2732187500000001 -18.566511 -153.298215 -1.804922 -80.387649 -2.084421 -80.074685 -18.692337 -164.976906 
1.2806625000000000 -18.587490 -153.637660 -1.807075 -80.911083 -2.080383 -80.566168 -18.697218 -165.355542 
1.2881062500000000 -18.603376 -154.083307 -1.836182 -81.315425 -2.060568 -81.050420 -18.722659 -165.757835 
1.2955500000000000 -18.677567 -154.548920 -1.843398 -81.828317 -2.064450 -81.539964 -18.783971 -166.031044 
1.3029937500000000 -18.615416 -155.238781 -1.865772 -82.131065 -2.080182 -81.993693 -18.867808 -166.475604 
1.3104374999999999 -18.669536 -155.515235 -1.859520 -82.506123 -2.079602 -82.458352 -18.944325 -166.572626 
1.3178812499999999 -18.664289 -155.802496 -1.859044 -82.925754 -2.089778 -82.857604 -18.968635 -166.610115 
1.3253250000000001 -18.691813 -156.177807 -1.853755 -83.305088 -2.091441 -83.241687 -18.992043 -166.901227 
1.3327687500000001 -18.708797 -156.348512 -1.857539 -83.735856 -2.081324 -83.694650 -19.013362 -167.252808 
1.3402125000000000 -18.720545 -156.621099 -1.852867 -84.185394 -2.089649 -84.082262 -19.030197 -168.090100 
1.3476562500000000 -18.746036 -156.888107 -1.860968 -84.619641 -2.086195 -84.549342 -19.052956 -168.654711 
1.3551000000000000 -18.761693 -157.214509 -1.858418 -85.034383 -2.088017 -85.075142 -19.117162 -169.002171 
1.3625437499999999 -18.792235 -157.430746 -1.862365 -85.397397 -2.090158 -85.518045 -19.162631 -169.380222 
1.3699874999999999 -18.788859 -157.680662 -1.848287 -85.858286 -2.096728 -85.981151 -19.197082 -169.481453 
1.3774312500000001 -18.783766 -157.509492 -1.828204 -86.328621 -2.103184 -86.315280 -19.197506 -169.807087 
1.3848750000000001 -18.798877 -157.686435 -1.823279 -86.795284 -2.102804 -86.752831 -19.139592 -170.331684 
1.3923187500000000 -18.824289 -157.920680 -1.814039 -87.379043 -2.092584 -87.162150 -19.116711 -170.687632 
1.3997625000000000 -18.837083 -158.201787 -1.833138 -87.984881 -2.072697 -87.655268 -19.145145 -171.198416 
