!
! C:\Users\Aljaz\OneDrive - Univerza v Ljubljani\DOKTORAT\NOVI SA\Slabilec PE43711B\meritve\prototip2\0_5dB.S2P
!
! Touchstone 1.1 file saved by VNA.EXE V1.65 (www.ke5fx.com/gpib/readme.htm)
! 18. 04. 2022 17:59:07
!
!    Source: HP8510C.07.14: Aug 26  1998 
!  Min freq: 4.500000E+007 Hz
!  Max freq: 6.000000E+009 Hz
!    Points: 801
!    Params: S11 S21 S12 S22
!
!!!!!
# GHZ S DB R 50
0.0450000000000000 -19.330368 -24.155412 -1.499571 -1.704233 -1.768967 -1.865164 -20.200448 -26.893146 
0.0524437500000000 -19.385751 -23.524548 -1.497618 -2.554167 -1.757266 -2.721726 -20.295987 -26.169616 
0.0598875000000000 -19.452549 -23.444072 -1.521003 -3.286946 -1.754960 -3.477547 -20.377016 -25.777978 
0.0673312500000000 -19.451997 -23.411181 -1.515853 -3.925418 -1.748172 -4.089883 -20.420921 -25.704212 
0.0747750000000000 -19.430910 -23.735106 -1.503477 -4.626560 -1.746357 -4.640070 -20.420060 -25.810998 
0.0822187500000000 -19.409694 -24.051022 -1.503500 -5.137776 -1.730900 -5.225151 -20.411944 -26.213498 
0.0896625000000000 -19.403188 -24.753337 -1.509923 -5.766486 -1.736096 -5.803235 -20.402302 -27.065691 
0.0971062500000000 -19.413544 -25.464048 -1.512792 -6.281123 -1.727508 -6.355272 -20.386344 -27.892637 
0.1045500000000000 -19.401164 -26.512136 -1.514273 -6.868899 -1.713421 -6.949605 -20.387121 -29.057489 
0.1119937500000000 -19.417125 -27.404148 -1.508245 -7.436432 -1.729220 -7.467741 -20.408010 -30.148929 
0.1194375000000000 -19.446441 -28.265616 -1.517770 -7.965773 -1.715019 -8.014418 -20.438716 -31.184146 
0.1268812500000000 -19.456227 -29.143140 -1.524913 -8.441932 -1.719173 -8.522228 -20.457834 -32.080845 
0.1343250000000000 -19.444008 -29.996120 -1.517503 -8.967647 -1.711193 -9.098266 -20.470097 -33.093024 
0.1417687500000000 -19.458050 -30.967279 -1.523118 -9.518156 -1.723734 -9.541548 -20.457186 -33.968650 
0.1492125000000000 -19.423017 -32.034648 -1.528432 -10.014864 -1.718497 -10.054767 -20.414942 -35.222663 
0.1566562500000000 -19.415848 -33.088719 -1.532857 -10.577623 -1.721474 -10.554438 -20.395570 -36.432522 
0.1641000000000000 -19.393181 -34.298896 -1.536260 -11.038592 -1.715753 -11.070113 -20.378258 -37.646122 
0.1715437500000000 -19.384977 -35.568214 -1.544111 -11.536457 -1.719998 -11.549451 -20.383616 -38.866372 
0.1789875000000000 -19.394728 -36.611003 -1.546056 -11.987216 -1.712767 -12.079291 -20.384006 -39.935734 
0.1864312500000000 -19.409725 -37.813372 -1.541601 -12.545117 -1.717096 -12.508471 -20.360581 -41.078974 
0.1938750000000000 -19.404070 -38.808962 -1.553337 -12.997593 -1.717481 -13.018097 -20.343177 -42.133741 
0.2013187500000000 -19.386880 -39.937001 -1.551591 -13.538342 -1.720245 -13.479978 -20.315626 -43.191867 
0.2087625000000000 -19.359188 -40.978512 -1.549613 -14.038778 -1.721197 -13.966443 -20.289374 -44.392803 
0.2162062500000000 -19.335783 -42.136808 -1.549721 -14.493992 -1.720441 -14.506184 -20.273002 -45.551822 
0.2236500000000000 -19.310744 -43.260923 -1.556394 -15.024519 -1.724821 -14.974551 -20.261961 -46.879860 
0.2310937500000000 -19.301796 -44.449509 -1.553652 -15.511686 -1.732558 -15.397400 -20.250848 -48.001584 
0.2385375000000000 -19.287510 -45.569522 -1.565316 -15.979045 -1.731798 -15.905816 -20.243669 -49.164889 
0.2459812500000000 -19.284757 -46.701128 -1.568576 -16.467320 -1.723744 -16.441286 -20.214715 -50.500787 
0.2534250000000000 -19.268871 -47.808484 -1.564966 -17.004674 -1.720964 -16.947726 -20.208570 -51.713261 
0.2608687500000000 -19.294531 -49.267340 -1.567137 -17.689219 -1.802104 -17.790575 -20.176928 -53.459791 
0.2683125000000000 -19.276003 -50.452665 -1.572230 -18.217603 -1.803229 -18.254613 -20.153476 -54.955492 
0.2757562500000000 -19.231411 -51.665127 -1.577493 -18.741940 -1.799090 -18.783208 -20.128050 -56.420054 
0.2832000000000000 -19.226230 -52.809798 -1.592647 -19.244644 -1.806248 -19.325398 -20.130534 -57.801763 
0.2906437500000000 -19.205340 -54.092730 -1.592461 -19.651848 -1.808468 -19.734933 -20.106451 -59.054077 
0.2980875000000000 -19.188434 -54.879794 -1.590676 -20.183687 -1.803289 -20.219548 -20.093971 -60.217024 
0.3055312500000000 -19.165226 -56.063793 -1.600996 -20.621500 -1.821354 -20.652459 -20.037005 -61.423176 
0.3129750000000000 -19.141375 -57.023277 -1.601465 -21.126728 -1.816826 -21.111788 -19.982138 -62.498476 
0.3204187500000000 -19.089785 -58.107279 -1.609037 -21.559522 -1.823163 -21.591130 -19.938359 -63.703790 
0.3278625000000000 -19.057251 -59.258864 -1.606191 -22.048298 -1.822760 -22.073358 -19.873081 -64.882908 
0.3353062500000000 -19.027527 -60.326621 -1.604236 -22.545442 -1.813797 -22.552411 -19.837948 -66.047314 
0.3427500000000000 -19.037486 -61.449341 -1.611944 -22.984369 -1.818143 -23.062440 -19.788334 -67.149272 
0.3501937500000000 -19.032597 -62.474774 -1.608109 -23.507207 -1.828651 -23.550288 -19.744027 -68.219082 
0.3576375000000000 -19.038590 -63.460324 -1.615998 -23.948590 -1.822757 -24.044833 -19.737947 -69.191031 
0.3650812500000000 -19.031488 -64.306675 -1.620022 -24.454768 -1.835286 -24.491683 -19.705098 -70.048299 
0.3725250000000000 -19.029143 -65.176391 -1.618196 -24.954787 -1.832126 -24.955196 -19.668374 -70.865831 
0.3799687500000000 -19.015118 -66.046035 -1.637737 -25.409244 -1.832012 -25.403377 -19.643837 -71.959776 
0.3874125000000000 -18.981780 -67.001531 -1.632620 -25.898808 -1.836081 -25.866593 -19.608639 -73.040593 
0.3948562500000000 -18.961413 -68.094882 -1.632303 -26.377271 -1.831822 -26.331384 -19.594773 -74.133976 
0.4023000000000000 -18.962312 -69.169281 -1.638788 -26.894629 -1.830462 -26.860468 -19.612324 -75.318888 
0.4097437500000000 -18.961395 -70.174631 -1.645861 -27.345733 -1.830415 -27.386635 -19.597308 -76.485034 
0.4171875000000000 -18.967392 -71.184552 -1.656842 -27.841718 -1.835098 -27.858531 -19.580730 -77.541444 
0.4246312500000000 -18.950625 -72.183089 -1.652383 -28.341582 -1.850091 -28.352484 -19.587925 -78.730129 
0.4320750000000000 -18.912645 -73.091660 -1.654724 -28.768994 -1.850571 -28.812500 -19.563387 -79.693292 
0.4395187500000000 -18.880950 -74.134318 -1.678587 -29.236537 -1.865106 -29.304269 -19.534764 -81.049235 
0.4469625000000000 -18.828941 -75.231353 -1.673862 -29.701231 -1.863814 -29.732785 -19.510034 -82.169054 
0.4544062500000000 -18.807493 -76.521979 -1.678863 -30.158250 -1.871153 -30.208663 -19.470490 -83.231051 
0.4618500000000000 -18.753160 -77.600167 -1.680956 -30.633701 -1.872603 -30.697391 -19.412880 -84.321932 
0.4692937500000000 -18.734317 -78.693035 -1.690582 -31.057381 -1.882706 -31.126888 -19.364857 -85.342642 
0.4767375000000000 -18.702071 -79.659122 -1.686447 -31.580239 -1.886635 -31.585297 -19.304990 -86.208206 
0.4841812500000000 -18.677555 -80.490776 -1.699662 -32.004257 -1.894344 -32.010686 -19.247567 -87.182834 
0.4916250000000000 -18.612904 -81.440955 -1.703360 -32.507574 -1.888834 -32.512197 -19.147248 -88.000486 
0.4990687500000000 -18.572337 -82.301564 -1.702996 -33.014506 -1.894863 -32.940898 -19.099101 -89.006905 
0.5065125000000000 -18.522334 -83.226931 -1.716534 -33.503334 -1.899440 -33.415479 -19.033048 -89.718420 
0.5139562500000000 -18.484866 -84.048647 -1.713802 -33.952356 -1.896794 -33.955526 -18.979841 -90.553894 
0.5214000000000000 -18.466448 -84.990662 -1.724157 -34.447131 -1.902691 -34.413344 -18.942937 -91.238637 
0.5288437500000000 -18.427376 -85.949856 -1.740020 -34.903640 -1.916379 -34.899501 -18.904878 -92.096778 
0.5362875000000000 -18.402686 -86.648385 -1.741736 -35.410745 -1.919558 -35.343468 -18.857375 -92.850633 
0.5437312500000000 -18.374557 -87.378015 -1.760069 -35.884425 -1.928863 -35.797825 -18.801184 -93.650323 
0.5511750000000000 -18.334000 -88.179264 -1.763789 -36.305203 -1.935583 -36.256774 -18.792868 -94.596522 
0.5586187500000001 -18.289828 -89.222726 -1.785201 -36.759519 -1.947307 -36.689172 -18.759683 -95.731900 
0.5660625000000000 -18.242564 -90.141038 -1.791487 -37.161740 -1.952096 -37.142670 -18.739375 -96.907190 
0.5735062500000000 -18.212205 -91.389590 -1.800272 -37.571216 -1.963815 -37.543333 -18.722925 -98.159722 
0.5809500000000000 -18.201229 -92.600384 -1.796050 -38.017743 -1.961784 -38.068356 -18.714814 -99.361291 
0.5883937500000001 -18.196014 -93.708591 -1.795221 -38.382799 -1.971007 -38.437438 -18.694422 -100.542021 
0.5958375000000000 -18.169937 -94.737768 -1.800744 -38.802605 -1.972280 -38.834578 -18.696003 -101.753713 
0.6032812500000000 -18.157379 -95.929427 -1.798395 -39.269130 -1.977015 -39.207382 -18.670210 -103.118316 
0.6107250000000000 -18.135207 -96.986128 -1.810324 -39.671279 -1.969370 -39.665991 -18.663765 -104.327585 
0.6181687500000000 -18.113001 -98.142789 -1.793773 -40.107225 -1.968656 -40.082191 -18.632672 -105.560398 
0.6256125000000000 -18.089774 -99.205079 -1.793244 -40.549770 -1.971239 -40.516574 -18.621185 -106.682626 
0.6330562500000000 -18.071394 -100.293730 -1.791488 -41.056538 -1.961384 -41.025124 -18.598512 -107.683228 
0.6405000000000000 -18.056863 -101.477524 -1.794212 -41.521426 -1.962922 -41.488828 -18.551014 -108.626816 
0.6479437500000000 -18.075144 -102.305620 -1.780568 -42.089316 -1.969036 -41.862323 -18.552407 -109.528496 
0.6553875000000000 -18.077054 -103.078640 -1.803379 -42.505160 -1.959039 -42.337503 -18.527820 -110.253745 
0.6628312500000000 -18.070950 -103.855817 -1.811674 -43.007324 -1.950332 -42.811080 -18.486285 -111.043449 
0.6702750000000000 -18.067194 -104.622273 -1.809410 -43.519723 -1.947531 -43.318000 -18.459632 -112.008759 
0.6777187500000000 -18.049917 -105.391568 -1.820242 -44.005877 -1.952273 -43.828082 -18.477580 -112.751078 
0.6851625000000000 -18.046214 -106.013970 -1.811042 -44.491298 -1.956427 -44.397525 -18.477979 -113.680324 
0.6926062500000000 -18.077594 -106.796729 -1.830567 -44.949626 -1.964889 -44.939539 -18.501138 -114.539544 
0.7000500000000000 -18.092257 -107.464977 -1.841738 -45.366824 -1.982102 -45.389887 -18.516933 -115.125310 
0.7074937500000000 -18.098133 -108.080143 -1.851388 -45.852312 -1.994570 -45.838472 -18.537422 -115.938124 
0.7149375000000000 -18.113191 -108.711383 -1.852928 -46.221348 -2.009008 -46.251290 -18.536303 -116.645155 
0.7223812500000000 -18.103967 -109.298426 -1.866403 -46.594291 -2.012268 -46.635334 -18.558536 -117.475884 
0.7298250000000000 -18.071949 -110.152410 -1.860603 -47.028462 -2.013855 -47.081740 -18.554969 -118.541045 
0.7372687500000000 -18.047788 -111.106700 -1.858903 -47.434205 -2.004997 -47.561262 -18.558212 -119.588509 
0.7447125000000000 -18.035189 -112.365635 -1.845554 -47.909594 -2.011375 -48.010983 -18.572283 -120.588812 
0.7521562500000000 -18.041396 -113.460176 -1.836218 -48.440371 -2.015748 -48.467005 -18.572918 -121.587458 
0.7596000000000001 -18.056280 -114.405351 -1.845185 -48.969487 -2.019669 -48.914114 -18.552060 -122.557036 
0.7670437500000000 -18.097558 -115.276443 -1.857798 -49.503466 -2.028648 -49.329955 -18.538938 -123.296074 
0.7744875000000000 -18.090090 -115.947634 -1.864733 -49.936089 -2.033263 -49.774285 -18.508207 -124.174058 
0.7819312500000000 -18.054747 -116.562712 -1.859429 -50.391321 -2.031781 -50.209425 -18.479721 -125.111962 
0.7893750000000001 -18.017651 -117.287051 -1.881209 -50.781325 -2.029870 -50.655419 -18.443788 -126.007086 
0.7968187500000000 -17.967775 -118.082157 -1.875756 -51.268347 -2.019855 -51.098994 -18.415494 -126.746420 
0.8042625000000000 -17.944631 -119.027632 -1.877210 -51.726604 -2.022242 -51.606274 -18.408391 -127.517000 
0.8117062500000000 -17.957205 -119.853513 -1.870798 -52.236100 -2.023506 -52.099271 -18.375716 -128.258338 
0.8191500000000000 -17.962569 -120.551966 -1.880817 -52.757079 -2.020596 -52.601861 -18.381338 -128.672276 
0.8265937500000000 -18.006204 -121.101121 -1.899103 -53.256736 -2.027318 -53.069601 -18.358863 -129.333201 
0.8340375000000000 -18.007588 -121.370828 -1.903045 -53.657339 -2.029867 -53.580270 -18.367893 -129.998749 
0.8414812500000000 -17.996884 -121.724839 -1.920608 -54.044954 -2.039567 -54.064647 -18.368136 -130.749034 
0.8489250000000000 -18.039533 -122.490845 -1.918942 -54.560433 -2.127041 -54.884274 -18.421927 -132.001029 
0.8563687500000000 -18.037272 -123.297386 -1.916904 -55.036918 -2.146901 -55.408917 -18.445821 -132.573652 
0.8638125000000000 -18.034051 -124.083575 -1.915350 -55.423552 -2.157388 -55.771548 -18.449904 -133.157310 
0.8712562500000000 -18.050245 -124.742522 -1.912967 -55.906774 -2.169623 -56.155538 -18.467036 -133.806806 
0.8787000000000000 -18.072848 -125.671605 -1.919671 -56.430916 -2.170958 -56.602583 -18.476972 -134.609623 
0.8861437500000000 -18.095732 -126.414535 -1.920788 -56.838689 -2.178132 -56.920650 -18.428275 -135.245042 
0.8935875000000000 -18.098924 -127.169125 -1.948690 -57.437674 -2.175839 -57.427675 -18.418125 -136.350132 
0.9010312500000000 -18.078165 -127.490405 -1.917202 -57.680984 -2.164235 -57.734236 -18.435408 -137.104374 
0.9084750000000000 -18.045232 -128.588128 -1.922755 -58.290874 -2.163498 -58.276847 -18.394613 -138.043576 
0.9159187500000000 -18.015217 -129.339946 -1.942389 -58.664974 -2.181527 -58.720144 -18.412118 -138.646757 
0.9233625000000000 -17.999445 -130.039404 -1.932317 -59.177086 -2.178437 -59.112929 -18.380473 -139.365062 
0.9308062500000000 -18.009028 -130.814308 -1.942720 -59.636683 -2.179968 -59.548471 -18.330509 -139.960517 
0.9382500000000000 -17.991417 -131.563971 -1.958179 -60.108933 -2.168495 -59.985087 -18.295717 -140.591159 
0.9456937500000000 -18.003955 -131.984630 -1.973567 -60.530590 -2.169091 -60.448328 -18.261856 -141.257480 
0.9531375000000000 -17.975645 -132.327842 -1.983687 -60.901008 -2.168988 -60.960875 -18.256144 -141.987795 
0.9605812500000001 -17.934347 -132.955114 -1.989666 -61.396210 -2.165457 -61.534216 -18.258657 -142.576341 
0.9680250000000000 -17.930356 -133.526268 -1.988206 -61.733932 -2.177084 -62.076452 -18.280725 -143.187126 
0.9754687500000000 -17.910208 -134.099644 -1.982040 -62.176390 -2.201545 -62.494863 -18.413153 -143.966201 
0.9829125000000000 -17.937174 -134.700177 -1.982755 -62.664661 -2.213567 -62.953678 -18.325002 -143.695682 
0.9903562500000001 -17.965973 -135.069702 -1.983259 -63.119550 -2.222414 -63.288501 -18.368138 -144.002456 
0.9978000000000000 -18.000609 -135.470221 -1.994268 -63.484139 -2.220989 -63.674274 -18.359289 -144.236831 
1.0052437500000000 -18.011894 -135.837192 -1.998885 -63.918250 -2.223825 -64.112765 -18.373097 -144.987345 
1.0126875000000000 -18.034281 -136.455723 -2.000851 -64.379160 -2.217249 -64.559459 -18.408906 -145.612380 
1.0201312499999999 -18.033637 -136.895766 -1.993130 -64.805316 -2.216840 -65.052099 -18.447809 -146.229322 
1.0275749999999999 -18.060298 -137.815919 -1.995873 -65.282179 -2.228649 -65.518450 -18.487891 -147.027099 
1.0350187500000001 -18.091924 -138.487258 -1.995490 -65.733033 -2.249958 -65.929168 -18.559859 -147.537471 
1.0424625000000001 -18.102537 -139.221117 -2.004615 -66.219542 -2.257278 -66.346475 -18.566951 -148.260394 
1.0499062500000000 -18.147109 -139.801491 -2.010205 -66.645721 -2.257172 -66.680535 -18.575937 -148.837073 
1.0573500000000000 -18.148777 -140.487039 -2.017613 -67.113918 -2.250267 -67.145900 -18.565900 -149.646741 
1.0647937500000000 -18.136066 -141.020427 -2.018882 -67.459555 -2.254327 -67.527646 -18.570831 -150.785659 
1.0722375000000000 -18.122169 -141.664669 -2.020364 -67.837210 -2.238998 -68.004473 -18.564520 -151.509022 
1.0796812499999999 -18.083016 -142.456309 -2.006483 -68.342176 -2.239514 -68.483067 -18.612086 -152.346011 
1.0871249999999999 -18.038656 -143.341817 -2.010923 -68.766269 -2.255298 -68.931079 -18.607587 -152.990287 
1.0945687500000001 -18.040927 -144.113948 -2.004129 -69.245989 -2.259047 -69.326895 -18.623124 -153.508366 
1.1020125000000001 -18.098844 -144.954894 -2.009842 -69.749346 -2.266396 -69.788256 -18.625192 -153.944758 
1.1094562500000000 -18.106704 -145.265707 -2.007719 -70.258588 -2.262401 -70.186690 -18.632623 -154.505594 
1.1169000000000000 -18.146446 -145.459299 -2.021443 -70.738799 -2.260472 -70.665530 -18.629962 -154.918605 
1.1243437500000000 -18.146871 -145.675732 -2.032288 -71.155615 -2.253651 -71.103473 -18.629086 -155.642552 
1.1317874999999999 -18.101816 -146.002987 -2.045124 -71.572746 -2.260128 -71.577247 -18.677435 -156.084196 
1.1392312499999999 -18.085259 -146.376055 -2.033516 -72.012287 -2.267768 -72.043172 -18.702616 -156.321151 
1.1466750000000001 -18.066362 -146.816994 -2.032824 -72.461564 -2.272240 -72.546249 -18.731581 -156.694525 
1.1541187500000001 -18.126660 -147.533940 -2.042018 -72.931264 -2.272856 -72.942193 -18.753698 -156.794437 
1.1615625000000001 -18.212323 -148.119640 -2.045161 -73.435761 -2.274507 -73.354287 -18.796478 -157.553003 
1.1690062500000000 -18.259553 -148.293827 -2.051621 -73.880008 -2.287286 -73.801137 -18.803670 -158.246691 
1.1764500000000000 -18.287773 -148.545341 -2.071296 -74.294837 -2.272488 -74.278314 -18.847046 -158.648909 
1.1838937500000000 -18.307053 -148.657155 -2.084783 -74.648179 -2.287978 -74.714746 -18.866715 -159.415897 
1.1913374999999999 -18.293070 -149.151421 -2.082097 -74.973107 -2.295059 -75.249020 -18.960583 -160.131207 
1.1987812499999999 -18.230505 -149.719310 -2.066171 -75.409639 -2.316252 -75.679165 -18.992099 -160.382706 
1.2062250000000001 -18.268679 -150.302207 -2.062615 -75.772858 -2.309224 -76.017971 -19.002524 -160.759053 
1.2136687500000001 -18.263528 -151.023609 -2.049507 -76.269274 -2.319792 -76.329894 -18.978602 -161.136752 
1.2211125000000000 -18.296551 -151.725881 -2.044714 -76.763916 -2.312405 -76.724199 -18.942482 -161.675199 
1.2285562500000000 -18.305943 -152.090110 -2.050359 -77.300447 -2.293155 -77.216824 -18.913268 -162.504918 
1.2360000000000000 -18.338426 -152.486352 -2.052232 -77.787539 -2.290866 -77.672654 -18.945256 -163.115166 
1.2434437500000000 -18.332175 -152.842834 -2.050546 -78.192874 -2.300007 -78.172132 -18.963986 -163.761762 
1.2508874999999999 -18.301357 -153.273369 -2.051399 -78.673134 -2.299071 -78.640914 -19.004587 -164.016329 
1.2583312499999999 -18.277531 -153.746781 -2.045471 -79.140970 -2.307512 -79.113182 -19.021004 -164.232970 
1.2657750000000001 -18.334918 -154.202381 -2.041348 -79.706427 -2.309417 -79.549477 -19.037098 -164.503637 
1.2732187500000001 -18.355265 -154.734870 -2.056221 -80.183638 -2.308910 -79.927937 -19.049463 -164.763436 
1.2806625000000000 -18.430630 -155.089785 -2.054607 -80.762734 -2.309035 -80.400058 -19.065318 -165.137361 
1.2881062500000000 -18.484325 -154.983439 -2.080669 -81.180188 -2.301406 -80.879751 -19.098561 -165.453888 
1.2955500000000000 -18.559017 -154.774822 -2.094073 -81.600833 -2.301264 -81.345842 -19.126603 -165.697689 
1.3029937500000000 -18.486325 -155.011725 -2.111682 -81.968914 -2.318689 -81.794656 -19.218376 -166.043208 
1.3104374999999999 -18.484886 -155.222556 -2.103986 -82.385336 -2.318337 -82.221567 -19.280304 -166.183826 
1.3178812499999999 -18.460762 -155.646034 -2.110898 -82.734502 -2.322198 -82.674372 -19.316684 -166.307741 
1.3253250000000001 -18.489067 -156.116948 -2.106545 -83.155807 -2.326257 -83.034872 -19.339162 -166.542476 
1.3327687500000001 -18.552784 -156.492147 -2.102327 -83.612091 -2.321750 -83.464051 -19.360575 -166.875865 
1.3402125000000000 -18.587493 -156.958744 -2.111712 -84.017836 -2.319831 -83.867628 -19.369783 -167.566222 
1.3476562500000000 -18.632087 -157.137551 -2.105042 -84.470310 -2.315035 -84.339149 -19.397475 -168.074580 
1.3551000000000000 -18.643141 -157.447301 -2.102675 -84.878974 -2.320581 -84.872364 -19.453072 -168.462257 
1.3625437499999999 -18.601415 -157.856883 -2.111908 -85.247285 -2.333062 -85.324116 -19.511328 -168.838780 
1.3699874999999999 -18.558057 -158.465368 -2.099811 -85.678315 -2.330411 -85.777374 -19.531626 -169.027572 
1.3774312500000001 -18.516513 -158.988278 -2.078284 -86.156670 -2.340574 -86.141916 -19.532050 -169.284292 
1.3848750000000001 -18.537977 -159.816007 -2.076486 -86.678137 -2.333544 -86.527824 -19.481412 -169.795335 
1.3923187500000000 -18.601207 -160.313503 -2.066341 -87.215130 -2.326554 -86.965591 -19.472233 -170.186350 
1.3997625000000000 -18.672033 -160.478285 -2.074948 -87.805762 -2.318481 -87.418795 -19.477833 -170.728847 
