!
! C:\Users\Aljaz\OneDrive - Univerza v Ljubljani\DOKTORAT\NOVI SA\Slabilec PE43711B\meritve\prototip2\0dB.S2P
!
! Touchstone 1.1 file saved by VNA.EXE V1.65 (www.ke5fx.com/gpib/readme.htm)
! 18. 04. 2022 17:56:22
!
!    Source: HP8510C.07.14: Aug 26  1998 
!  Min freq: 4.500000E+007 Hz
!  Max freq: 6.000000E+009 Hz
!    Points: 801
!    Params: S11 S21 S12 S22
!
!!!!!
# GHZ S DB R 50
0.0450000000000000 -19.298422 -24.683053 -0.996457 -1.800566 -1.308706 -2.035324 -19.081974 -25.083073 
0.0524437500000000 -19.322601 -23.917740 -0.998848 -2.698228 -1.297694 -2.955379 -19.156498 -24.422446 
0.0598875000000000 -19.372174 -23.845227 -1.008974 -3.433003 -1.294036 -3.622923 -19.229267 -24.206586 
0.0673312500000000 -19.417281 -23.943604 -1.007477 -4.036512 -1.287468 -4.252347 -19.280918 -24.260954 
0.0747750000000000 -19.425213 -23.986997 -1.003847 -4.710013 -1.279236 -4.809238 -19.279615 -24.363042 
0.0822187500000000 -19.410348 -24.151390 -0.996510 -5.200107 -1.260795 -5.397783 -19.254069 -24.880209 
0.0896625000000000 -19.384260 -24.814671 -1.007565 -5.774874 -1.267687 -5.942920 -19.255213 -25.704666 
0.0971062500000000 -19.358645 -25.485513 -1.003417 -6.383975 -1.253319 -6.548760 -19.211011 -26.624853 
0.1045500000000000 -19.322783 -26.388745 -1.008968 -6.933795 -1.242444 -7.080973 -19.236732 -27.729825 
0.1119937500000000 -19.321535 -27.379593 -1.003756 -7.517210 -1.249142 -7.591308 -19.253543 -28.843041 
0.1194375000000000 -19.347398 -28.415966 -1.008108 -8.018459 -1.242732 -8.147795 -19.288305 -29.878258 
0.1268812500000000 -19.360616 -29.412174 -1.015952 -8.536211 -1.246265 -8.653021 -19.308041 -30.868225 
0.1343250000000000 -19.361157 -30.299267 -1.012368 -9.061485 -1.234309 -9.181665 -19.322469 -31.722727 
0.1417687500000000 -19.390904 -31.285254 -1.021240 -9.555115 -1.245276 -9.645458 -19.309159 -32.710849 
0.1492125000000000 -19.376475 -32.277725 -1.025031 -10.068502 -1.242984 -10.177446 -19.287884 -33.933564 
0.1566562500000000 -19.371863 -33.349469 -1.025780 -10.611438 -1.245177 -10.645812 -19.267727 -35.057523 
0.1641000000000000 -19.353812 -34.458782 -1.034679 -11.099784 -1.241952 -11.161570 -19.250089 -36.255994 
0.1715437500000000 -19.349063 -35.765867 -1.040168 -11.629602 -1.244909 -11.626544 -19.260880 -37.541174 
0.1789875000000000 -19.358423 -36.813056 -1.038554 -12.064339 -1.237781 -12.162914 -19.260533 -38.592406 
0.1864312500000000 -19.365075 -38.012541 -1.034524 -12.601022 -1.238613 -12.607984 -19.252439 -39.653306 
0.1938750000000000 -19.384167 -38.991144 -1.045583 -13.070451 -1.234435 -13.126958 -19.234429 -40.743689 
0.2013187500000000 -19.379684 -40.088538 -1.043208 -13.581475 -1.240535 -13.594506 -19.214385 -41.776470 
0.2087625000000000 -19.368319 -41.057831 -1.043915 -14.074024 -1.238045 -14.091016 -19.185505 -42.938069 
0.2162062500000000 -19.341504 -42.089017 -1.050768 -14.535447 -1.243059 -14.588702 -19.177318 -44.124135 
0.2236500000000000 -19.312266 -43.170619 -1.057278 -15.053162 -1.237662 -15.046623 -19.163242 -45.371947 
0.2310937500000000 -19.272786 -44.270818 -1.049289 -15.552417 -1.245969 -15.519573 -19.151146 -46.539142 
0.2385375000000000 -19.253593 -45.482206 -1.061576 -16.006192 -1.247593 -15.994476 -19.158329 -47.747663 
0.2459812500000000 -19.233691 -46.616131 -1.062637 -16.539308 -1.238248 -16.522905 -19.133581 -48.974300 
0.2534250000000000 -19.208823 -47.791949 -1.059483 -17.032434 -1.239225 -17.032451 -19.129819 -50.285569 
0.2608687500000000 -19.265140 -49.631789 -1.062409 -17.802560 -1.335515 -17.931974 -19.108318 -52.075196 
0.2683125000000000 -19.237688 -50.859624 -1.067740 -18.281760 -1.331843 -18.417545 -19.094123 -53.443600 
0.2757562500000000 -19.191934 -52.102833 -1.066356 -18.806293 -1.337788 -18.919352 -19.080873 -54.909400 
0.2832000000000000 -19.167516 -53.186501 -1.085625 -19.317165 -1.337801 -19.489588 -19.070577 -56.327364 
0.2906437500000000 -19.145998 -54.525652 -1.084716 -19.731249 -1.336238 -19.899650 -19.079616 -57.524283 
0.2980875000000000 -19.143489 -55.381629 -1.076793 -20.268556 -1.336407 -20.382280 -19.041724 -58.636779 
0.3055312500000000 -19.124907 -56.571925 -1.094761 -20.721100 -1.351801 -20.791093 -19.011764 -59.739770 
0.3129750000000000 -19.110639 -57.585553 -1.098118 -21.201195 -1.355144 -21.235163 -18.979312 -60.805908 
0.3204187500000000 -19.081868 -58.550951 -1.101644 -21.668711 -1.353263 -21.746391 -18.910105 -62.002709 
0.3278625000000000 -19.062086 -59.536245 -1.106362 -22.092024 -1.351901 -22.205447 -18.863866 -63.215400 
0.3353062500000000 -19.037875 -60.474496 -1.113611 -22.582101 -1.335965 -22.758381 -18.835255 -64.419720 
0.3427500000000000 -19.033329 -61.517669 -1.102859 -23.063036 -1.347676 -23.187865 -18.795374 -65.491953 
0.3501937500000000 -19.014369 -62.442751 -1.104364 -23.566733 -1.354919 -23.658285 -18.769067 -66.531913 
0.3576375000000000 -19.017780 -63.356384 -1.110220 -24.035322 -1.361290 -24.148763 -18.767820 -67.528363 
0.3650812500000000 -19.003801 -64.422464 -1.115392 -24.534783 -1.356504 -24.644086 -18.737089 -68.374413 
0.3725250000000000 -19.009643 -65.293783 -1.116192 -25.016773 -1.362773 -25.046301 -18.693055 -69.321595 
0.3799687500000000 -19.010366 -66.211378 -1.134940 -25.431478 -1.361173 -25.514080 -18.684590 -70.347195 
0.3874125000000000 -18.994156 -67.250005 -1.126136 -25.942776 -1.363169 -25.990525 -18.648952 -71.402948 
0.3948562500000000 -18.979463 -68.224937 -1.132696 -26.423400 -1.360677 -26.454388 -18.653266 -72.548834 
0.4023000000000000 -18.983018 -69.294006 -1.141740 -26.926238 -1.358963 -26.959161 -18.643621 -73.725355 
0.4097437500000000 -18.953351 -70.348132 -1.139104 -27.396894 -1.368482 -27.472252 -18.646479 -74.949431 
0.4171875000000000 -18.937291 -71.474543 -1.144904 -27.916770 -1.362308 -27.989467 -18.650041 -75.956038 
0.4246312500000000 -18.925369 -72.649778 -1.154003 -28.392590 -1.380743 -28.442779 -18.645284 -77.084993 
0.4320750000000000 -18.893164 -73.746959 -1.158664 -28.832590 -1.383328 -28.924162 -18.623335 -78.168412 
0.4395187500000000 -18.878218 -74.896846 -1.170169 -29.288769 -1.387384 -29.406477 -18.600414 -79.317259 
0.4469625000000000 -18.832458 -75.990634 -1.176841 -29.739167 -1.395130 -29.827396 -18.584775 -80.509902 
0.4544062500000000 -18.823080 -77.128561 -1.177873 -30.240150 -1.397944 -30.319863 -18.553028 -81.662918 
0.4618500000000000 -18.784400 -78.143735 -1.189505 -30.682803 -1.401326 -30.767136 -18.518621 -82.741490 
0.4692937500000000 -18.754364 -79.131636 -1.184833 -31.124609 -1.406585 -31.212330 -18.475602 -83.686135 
0.4767375000000000 -18.704450 -79.969985 -1.187331 -31.613544 -1.417637 -31.657130 -18.422741 -84.585762 
0.4841812500000000 -18.664576 -80.790024 -1.189747 -32.093170 -1.417718 -32.108379 -18.363083 -85.609486 
0.4916250000000000 -18.626213 -81.793636 -1.204125 -32.599826 -1.420342 -32.577480 -18.290687 -86.376634 
0.4990687500000000 -18.579344 -82.665967 -1.203771 -33.081205 -1.419873 -33.045878 -18.235502 -87.394683 
0.5065125000000000 -18.539220 -83.481509 -1.211417 -33.549567 -1.424972 -33.516355 -18.184407 -88.270687 
0.5139562500000000 -18.503872 -84.244555 -1.216219 -34.001345 -1.425734 -34.020377 -18.132290 -89.083318 
0.5214000000000000 -18.472546 -85.180331 -1.220294 -34.462506 -1.426741 -34.501091 -18.097897 -89.856021 
0.5288437500000000 -18.420964 -86.077070 -1.232169 -34.982284 -1.439686 -35.014674 -18.066567 -90.636827 
0.5362875000000000 -18.374727 -86.793526 -1.234882 -35.480972 -1.446361 -35.424836 -18.029126 -91.515691 
0.5437312500000000 -18.343822 -87.718126 -1.259423 -35.912945 -1.452594 -35.881496 -17.987248 -92.292397 
0.5511750000000000 -18.294211 -88.730163 -1.262885 -36.375271 -1.464654 -36.323487 -17.961831 -93.310214 
0.5586187500000001 -18.263687 -89.819248 -1.276642 -36.813189 -1.468804 -36.776716 -17.939897 -94.515052 
0.5660625000000000 -18.240059 -90.828169 -1.289157 -37.205381 -1.473291 -37.229554 -17.933205 -95.670481 
0.5735062500000000 -18.194234 -92.026146 -1.296055 -37.656712 -1.483091 -37.649777 -17.929269 -96.911825 
0.5809500000000000 -18.181804 -93.231854 -1.292473 -38.080527 -1.491463 -38.079100 -17.917725 -98.071752 
0.5883937500000001 -18.176549 -94.321930 -1.294676 -38.435713 -1.496928 -38.472606 -17.925392 -99.290846 
0.5958375000000000 -18.149736 -95.361540 -1.301151 -38.818093 -1.495696 -38.851849 -17.911190 -100.451178 
0.6032812500000000 -18.160094 -96.484514 -1.295466 -39.318540 -1.501157 -39.298619 -17.892135 -101.810324 
0.6107250000000000 -18.137319 -97.546157 -1.300580 -39.730681 -1.497646 -39.686135 -17.885433 -103.053818 
0.6181687500000000 -18.129763 -98.541573 -1.295570 -40.121335 -1.496983 -40.151085 -17.876853 -104.203136 
0.6256125000000000 -18.120037 -99.506888 -1.293871 -40.604596 -1.501077 -40.574918 -17.862868 -105.395856 
0.6330562500000000 -18.096300 -100.505672 -1.297312 -41.074964 -1.483555 -41.089725 -17.855342 -106.508055 
0.6405000000000000 -18.102383 -101.495632 -1.287149 -41.599689 -1.491565 -41.545089 -17.826790 -107.286403 
0.6479437500000000 -18.104782 -102.339351 -1.281497 -42.124288 -1.490744 -41.940923 -17.817570 -108.261840 
0.6553875000000000 -18.104991 -103.215366 -1.299827 -42.563841 -1.486383 -42.399301 -17.774136 -108.974152 
0.6628312500000000 -18.104069 -104.096336 -1.308785 -43.056174 -1.476008 -42.874673 -17.742603 -109.903473 
0.6702750000000000 -18.110671 -104.944669 -1.303979 -43.537317 -1.477619 -43.378741 -17.732991 -110.834078 
0.6777187500000000 -18.108324 -105.751742 -1.320206 -44.042784 -1.477494 -43.899224 -17.733938 -111.718245 
0.6851625000000000 -18.088028 -106.530083 -1.314358 -44.525327 -1.474718 -44.465199 -17.759182 -112.614547 
0.6926062500000000 -18.101956 -107.407788 -1.330152 -45.001440 -1.493551 -44.961820 -17.789987 -113.450922 
0.7000500000000000 -18.105959 -108.367156 -1.348745 -45.402905 -1.505289 -45.470518 -17.813264 -114.108269 
0.7074937500000000 -18.126379 -109.146887 -1.356899 -45.887541 -1.519995 -45.861648 -17.833464 -114.915033 
0.7149375000000000 -18.143859 -110.037696 -1.365400 -46.219798 -1.530453 -46.272704 -17.834258 -115.712630 
0.7223812500000000 -18.156810 -110.715765 -1.366257 -46.632443 -1.534714 -46.671802 -17.853598 -116.506272 
0.7298250000000000 -18.158978 -111.542011 -1.361996 -47.015108 -1.532596 -47.096422 -17.849198 -117.591422 
0.7372687500000000 -18.136361 -112.226170 -1.355512 -47.444604 -1.530579 -47.568212 -17.855302 -118.642492 
0.7447125000000000 -18.123293 -113.158585 -1.345844 -47.911569 -1.529947 -48.016815 -17.873006 -119.678464 
0.7521562500000000 -18.110798 -113.925004 -1.337090 -48.456059 -1.538278 -48.504613 -17.886743 -120.620195 
0.7596000000000001 -18.103283 -114.730114 -1.347142 -48.992523 -1.545164 -48.964803 -17.876668 -121.592243 
0.7670437500000000 -18.095732 -115.579795 -1.351986 -49.480029 -1.547713 -49.364483 -17.860770 -122.351285 
0.7744875000000000 -18.088397 -116.364250 -1.361244 -49.969494 -1.552315 -49.799859 -17.825890 -123.249737 
0.7819312500000000 -18.075267 -117.081965 -1.368737 -50.370550 -1.556535 -50.243175 -17.799686 -124.176149 
0.7893750000000001 -18.066502 -117.864717 -1.379754 -50.817160 -1.546722 -50.686927 -17.770408 -125.090509 
0.7968187500000000 -18.055386 -118.563467 -1.373657 -51.265983 -1.544205 -51.120328 -17.742403 -125.910517 
0.8042625000000000 -18.054415 -119.304561 -1.376868 -51.720334 -1.549664 -51.610458 -17.742289 -126.668990 
0.8117062500000000 -18.063378 -120.135343 -1.373633 -52.251837 -1.549709 -52.115117 -17.716273 -127.490635 
0.8191500000000000 -18.053777 -120.757048 -1.383420 -52.760204 -1.546993 -52.577656 -17.714338 -127.943793 
0.8265937500000000 -18.092484 -121.485892 -1.395398 -53.260691 -1.544039 -53.119241 -17.709559 -128.472567 
0.8340375000000000 -18.076889 -121.962304 -1.404868 -53.631239 -1.564256 -53.575201 -17.711770 -129.299808 
0.8414812500000000 -18.086626 -122.595726 -1.422192 -54.042132 -1.569883 -54.098000 -17.725266 -130.063798 
0.8489250000000000 -18.187652 -123.790439 -1.427053 -54.584737 -1.669682 -54.938017 -17.764235 -131.354729 
0.8563687500000000 -18.178219 -124.601353 -1.413223 -55.052140 -1.684692 -55.463268 -17.813893 -131.993401 
0.8638125000000000 -18.184477 -125.278965 -1.424841 -55.462507 -1.698689 -55.865880 -17.822582 -132.594878 
0.8712562500000000 -18.199187 -125.863335 -1.416603 -55.938298 -1.709581 -56.204837 -17.855082 -133.175433 
0.8787000000000000 -18.212306 -126.727567 -1.422303 -56.445885 -1.711054 -56.650681 -17.847478 -133.973415 
0.8861437500000000 -18.219693 -127.462848 -1.414900 -56.869848 -1.721633 -56.979262 -17.819407 -134.771550 
0.8935875000000000 -18.218724 -128.263024 -1.437655 -57.459652 -1.707617 -57.504812 -17.810724 -135.832441 
0.9010312500000000 -18.205815 -128.545146 -1.426479 -57.689698 -1.704074 -57.774063 -17.820769 -136.614049 
0.9084750000000000 -18.159279 -129.634410 -1.425648 -58.303006 -1.707577 -58.333937 -17.784050 -137.559878 
0.9159187500000000 -18.147314 -130.199650 -1.443141 -58.684653 -1.715731 -58.785241 -17.805864 -138.097591 
0.9233625000000000 -18.124426 -130.791942 -1.440279 -59.161187 -1.718774 -59.190842 -17.780070 -138.807864 
0.9308062500000000 -18.118247 -131.502145 -1.448808 -59.658053 -1.721661 -59.595635 -17.733447 -139.453493 
0.9382500000000000 -18.113775 -132.317353 -1.461994 -60.088050 -1.708901 -60.014316 -17.687196 -140.015598 
0.9456937500000000 -18.128542 -132.789167 -1.470651 -60.577262 -1.705113 -60.472325 -17.646851 -140.900472 
0.9531375000000000 -18.120191 -133.209780 -1.494957 -60.948622 -1.702419 -61.050350 -17.676172 -141.565369 
0.9605812500000001 -18.082312 -133.829999 -1.489336 -61.397987 -1.702805 -61.582401 -17.666826 -142.269939 
0.9680250000000000 -18.121974 -134.463402 -1.496680 -61.744832 -1.716082 -62.093313 -17.701538 -142.891551 
0.9754687500000000 -18.126107 -135.133280 -1.488219 -62.174478 -1.731737 -62.547233 -17.862279 -143.693335 
0.9829125000000000 -18.151884 -135.634648 -1.485291 -62.652794 -1.756870 -62.995563 -17.776505 -143.396760 
0.9903562500000001 -18.164089 -136.098485 -1.489584 -63.072001 -1.758562 -63.330590 -17.803626 -143.650173 
0.9978000000000000 -18.211709 -136.566307 -1.496795 -63.475827 -1.760202 -63.731814 -17.814439 -143.943143 
1.0052437500000000 -18.225036 -137.052737 -1.503893 -63.964936 -1.765532 -64.105717 -17.799118 -144.763647 
1.0126875000000000 -18.234105 -137.680960 -1.507964 -64.344746 -1.760263 -64.552581 -17.861015 -145.516654 
1.0201312499999999 -18.255394 -138.150867 -1.490463 -64.818325 -1.752632 -65.089479 -17.920545 -146.103809 
1.0275749999999999 -18.277480 -138.932279 -1.496241 -65.279262 -1.763826 -65.552675 -17.964703 -146.874876 
1.0350187500000001 -18.287580 -139.478900 -1.504174 -65.734996 -1.787672 -65.959429 -18.032560 -147.488844 
1.0424625000000001 -18.301849 -140.259331 -1.513659 -66.233206 -1.795113 -66.325442 -18.039922 -148.218130 
1.0499062500000000 -18.323923 -140.764354 -1.517061 -66.607291 -1.798945 -66.680246 -18.042502 -148.796868 
1.0573500000000000 -18.326645 -141.559785 -1.529012 -67.056303 -1.788413 -67.142170 -18.031297 -149.616259 
1.0647937500000000 -18.332076 -142.168999 -1.526864 -67.410441 -1.790460 -67.536995 -18.040443 -150.831050 
1.0722375000000000 -18.338626 -142.743436 -1.522297 -67.785771 -1.779505 -68.007303 -18.040017 -151.604737 
1.0796812499999999 -18.339979 -143.580382 -1.516356 -68.284420 -1.784999 -68.492089 -18.094243 -152.472630 
1.0871249999999999 -18.291770 -144.124828 -1.507739 -68.725046 -1.794739 -68.965111 -18.095105 -153.128820 
1.0945687500000001 -18.331022 -144.618939 -1.513950 -69.190835 -1.790303 -69.353415 -18.110912 -153.607175 
1.1020125000000001 -18.357715 -145.399697 -1.508573 -69.730762 -1.803000 -69.762811 -18.124833 -154.085563 
1.1094562500000000 -18.365788 -145.810711 -1.514978 -70.235831 -1.800380 -70.224766 -18.116458 -154.666553 
1.1169000000000000 -18.397300 -146.206601 -1.526363 -70.721957 -1.797964 -70.661844 -18.124835 -155.124734 
1.1243437500000000 -18.408935 -146.555227 -1.525698 -71.168920 -1.785619 -71.142626 -18.133052 -155.799267 
1.1317874999999999 -18.390945 -146.917885 -1.545910 -71.531360 -1.801208 -71.602473 -18.167108 -156.252253 
1.1392312499999999 -18.395433 -147.318383 -1.540594 -71.965164 -1.801472 -72.084182 -18.216887 -156.422300 
1.1466750000000001 -18.384427 -147.786291 -1.541758 -72.412288 -1.806961 -72.501874 -18.252079 -156.883540 
1.1541187500000001 -18.435906 -148.355302 -1.547911 -72.857018 -1.813000 -72.927046 -18.290451 -157.034766 
1.1615625000000001 -18.465935 -148.926281 -1.554055 -73.364648 -1.805178 -73.343228 -18.297296 -157.679477 
1.1690062500000000 -18.508138 -149.378132 -1.557243 -73.851168 -1.816979 -73.805319 -18.323705 -158.522844 
1.1764500000000000 -18.531546 -149.717127 -1.581763 -74.249398 -1.812426 -74.264402 -18.381450 -159.059645 
1.1838937500000000 -18.561658 -149.830357 -1.582316 -74.614240 -1.821352 -74.677550 -18.398699 -159.744346 
1.1913374999999999 -18.579876 -150.351573 -1.586041 -74.912025 -1.828953 -75.238200 -18.503951 -160.447909 
1.1987812499999999 -18.555943 -150.795994 -1.571773 -75.325439 -1.844769 -75.648569 -18.555260 -160.759130 
1.2062250000000001 -18.613232 -151.074605 -1.565665 -75.688504 -1.847523 -75.976350 -18.559156 -161.134111 
1.2136687500000001 -18.621717 -151.600595 -1.549927 -76.195420 -1.852925 -76.319652 -18.538569 -161.535257 
1.2211125000000000 -18.656506 -152.028845 -1.545590 -76.700986 -1.845196 -76.710075 -18.501047 -162.057105 
1.2285562500000000 -18.655739 -152.473687 -1.553175 -77.184986 -1.827205 -77.183302 -18.456566 -162.913419 
1.2360000000000000 -18.678955 -152.814507 -1.549517 -77.672269 -1.829061 -77.613998 -18.503472 -163.617411 
1.2434437500000000 -18.711282 -153.058271 -1.549559 -78.142452 -1.830853 -78.152368 -18.519872 -164.218663 
1.2508874999999999 -18.719380 -153.542063 -1.541248 -78.590970 -1.826730 -78.587655 -18.551145 -164.607785 
1.2583312499999999 -18.692326 -153.878071 -1.547990 -79.042100 -1.838120 -79.057022 -18.604832 -164.762838 
1.2657750000000001 -18.753958 -154.213202 -1.544519 -79.597066 -1.838283 -79.492235 -18.624953 -165.018467 
1.2732187500000001 -18.763854 -154.688097 -1.559277 -80.129712 -1.846830 -79.862095 -18.641053 -165.185376 
1.2806625000000000 -18.811477 -155.221129 -1.562773 -80.628872 -1.851583 -80.330982 -18.656908 -165.496427 
1.2881062500000000 -18.847933 -155.318570 -1.584416 -81.094138 -1.834967 -80.778776 -18.666082 -165.939210 
1.2955500000000000 -18.948556 -155.357008 -1.594445 -81.555559 -1.834815 -81.299326 -18.730405 -166.307261 
1.3029937500000000 -18.886698 -155.807148 -1.612701 -81.856795 -1.850435 -81.771370 -18.818040 -166.707267 
1.3104374999999999 -18.913972 -155.973481 -1.612803 -82.273331 -1.855669 -82.218939 -18.909057 -166.780565 
1.3178812499999999 -18.906854 -156.344133 -1.609627 -82.611602 -1.853127 -82.601160 -18.940788 -166.818751 
1.3253250000000001 -18.928714 -156.744321 -1.607529 -83.075672 -1.857440 -82.999071 -18.955155 -167.047219 
1.3327687500000001 -18.974275 -157.014092 -1.608398 -83.483902 -1.858236 -83.428069 -18.979705 -167.517993 
1.3402125000000000 -19.010490 -157.361230 -1.610014 -83.906170 -1.850592 -83.814880 -18.996177 -168.236794 
1.3476562500000000 -19.042407 -157.531913 -1.613759 -84.352257 -1.844917 -84.334159 -19.029182 -168.859488 
1.3551000000000000 -19.053596 -157.757825 -1.613768 -84.752002 -1.850970 -84.823594 -19.097401 -169.296240 
1.3625437499999999 -19.051808 -158.130542 -1.606040 -85.155824 -1.858717 -85.262438 -19.166103 -169.678813 
1.3699874999999999 -19.038548 -158.466726 -1.600679 -85.578561 -1.859433 -85.707445 -19.183989 -169.750323 
1.3774312500000001 -19.009961 -158.633164 -1.579624 -86.039300 -1.873441 -86.055040 -19.195027 -169.988099 
1.3848750000000001 -19.018084 -159.030877 -1.566893 -86.559260 -1.871076 -86.447339 -19.129839 -170.557182 
1.3923187500000000 -19.086318 -159.438669 -1.562675 -87.118570 -1.852156 -86.914648 -19.112462 -170.872150 
1.3997625000000000 -19.119996 -159.526015 -1.579628 -87.688180 -1.842367 -87.355328 -19.139734 -171.490278 
