!
! C:\Users\Aljaz\OneDrive - Univerza v Ljubljani\DOKTORAT\NOVI SA\Slabilec PE43711B\meritve\prototip2\10dB.S2P
!
! Touchstone 1.1 file saved by VNA.EXE V1.65 (www.ke5fx.com/gpib/readme.htm)
! 18. 04. 2022 18:13:02
!
!    Source: HP8510C.07.14: Aug 26  1998 
!  Min freq: 4.500000E+007 Hz
!  Max freq: 6.000000E+009 Hz
!    Points: 801
!    Params: S11 S21 S12 S22
!
!!!!!
# GHZ S DB R 50
0.0450000000000000 -21.862232 -20.723093 -11.078835 -0.773201 -11.188927 -0.881346 -19.278333 -169.661696 
0.0524437500000000 -21.873661 -20.013924 -11.075065 -1.652296 -11.177700 -1.757468 -19.371376 -171.990082 
0.0598875000000000 -21.909589 -20.228085 -11.085874 -2.384762 -11.177279 -2.438539 -19.382413 -173.846619 
0.0673312500000000 -21.938878 -20.389755 -11.085099 -3.024306 -11.189527 -3.067267 -19.421617 -175.525388 
0.0747750000000000 -21.915958 -20.761448 -11.086606 -3.709027 -11.183499 -3.687210 -19.446325 -176.940977 
0.0822187500000000 -21.944071 -21.086584 -11.085182 -4.207701 -11.184998 -4.275477 -19.472940 -177.977569 
0.0896625000000000 -21.909484 -21.735673 -11.085150 -4.845582 -11.188264 -4.804972 -19.483489 -179.085551 
0.0971062500000000 -21.895668 -22.309303 -11.093964 -5.357387 -11.174992 -5.360056 -19.494560 179.855652 
0.1045500000000000 -21.884808 -23.127638 -11.095014 -5.925293 -11.171948 -5.917762 -19.517255 178.955856 
0.1119937500000000 -21.852521 -23.942437 -11.093910 -6.457579 -11.175879 -6.442614 -19.516790 178.110065 
0.1194375000000000 -21.863533 -24.643469 -11.101420 -6.949849 -11.173795 -6.992347 -19.552195 177.269244 
0.1268812500000000 -21.851410 -25.604525 -11.107164 -7.451448 -11.182843 -7.453120 -19.544953 176.505044 
0.1343250000000000 -21.802844 -26.384610 -11.102748 -7.948102 -11.176848 -8.026240 -19.566071 175.735885 
0.1417687500000000 -21.806624 -27.153548 -11.103780 -8.472402 -11.187491 -8.490955 -19.585875 175.002731 
0.1492125000000000 -21.771718 -28.103071 -11.100969 -8.945868 -11.177905 -9.026121 -19.589505 174.255180 
0.1566562500000000 -21.777844 -28.866253 -11.104608 -9.484005 -11.188974 -9.484216 -19.595827 173.564886 
0.1641000000000000 -21.768827 -29.819987 -11.107091 -9.964682 -11.193624 -9.962408 -19.611379 172.921901 
0.1715437500000000 -21.747127 -30.765289 -11.114708 -10.465388 -11.184892 -10.461012 -19.631429 172.174450 
0.1789875000000000 -21.749474 -31.850947 -11.107871 -10.907701 -11.183981 -10.953262 -19.645512 171.536364 
0.1864312500000000 -21.752310 -32.742134 -11.099201 -11.424377 -11.199029 -11.415758 -19.637387 170.716881 
0.1938750000000000 -21.742137 -33.784895 -11.118124 -11.876681 -11.189988 -11.908739 -19.667012 170.108875 
0.2013187500000000 -21.720381 -34.781601 -11.120197 -12.352431 -11.200054 -12.354582 -19.671202 169.329794 
0.2087625000000000 -21.722818 -35.874144 -11.116746 -12.843572 -11.190067 -12.824220 -19.676494 168.703286 
0.2162062500000000 -21.723062 -36.985037 -11.118615 -13.304801 -11.194611 -13.326068 -19.668595 167.991939 
0.2236500000000000 -21.695570 -37.999649 -11.125995 -13.866784 -11.205686 -13.768155 -19.676001 167.386693 
0.2310937500000000 -21.670852 -39.131896 -11.122226 -14.314735 -11.208410 -14.247393 -19.673193 166.723448 
0.2385375000000000 -21.658013 -40.175771 -11.139281 -14.796185 -11.211750 -14.696154 -19.675953 166.082240 
0.2459812500000000 -21.644482 -41.408059 -11.139895 -15.231337 -11.198941 -15.209462 -19.661630 165.520192 
0.2534250000000000 -21.585010 -42.472819 -11.135252 -15.719926 -11.202022 -15.695935 -19.659025 164.992230 
0.2608687500000000 -21.564130 -44.035881 -11.138447 -16.286553 -11.220230 -16.269242 -19.668908 164.300539 
0.2683125000000000 -21.524466 -45.145518 -11.144894 -16.753016 -11.234710 -16.775875 -19.671842 163.809163 
0.2757562500000000 -21.485611 -46.301183 -11.140707 -17.242498 -11.231656 -17.266220 -19.669792 163.383185 
0.2832000000000000 -21.426201 -47.373812 -11.156422 -17.711834 -11.238033 -17.747337 -19.672988 162.937041 
0.2906437500000000 -21.396927 -48.358144 -11.154873 -18.133377 -11.241628 -18.180772 -19.668259 162.461867 
0.2980875000000000 -21.338015 -49.289465 -11.151177 -18.587675 -11.241357 -18.630613 -19.677405 162.035899 
0.3055312500000000 -21.295895 -50.240885 -11.150542 -19.059766 -11.252526 -19.057052 -19.702059 161.631836 
0.3129750000000000 -21.254519 -51.037698 -11.151439 -19.530028 -11.254081 -19.520834 -19.748206 161.227999 
0.3204187500000000 -21.214404 -51.959671 -11.162345 -20.002286 -11.256968 -20.006315 -19.761566 160.630977 
0.3278625000000000 -21.180568 -52.825131 -11.158825 -20.512412 -11.264956 -20.454989 -19.788419 160.251620 
0.3353062500000000 -21.144734 -53.644280 -11.166720 -20.981657 -11.248600 -20.957296 -19.838788 159.670456 
0.3427500000000000 -21.113008 -54.582179 -11.160668 -21.434077 -11.259549 -21.372312 -19.887672 159.188650 
0.3501937500000000 -21.085811 -55.398361 -11.171786 -21.874838 -11.260414 -21.886880 -19.924339 158.566740 
0.3576375000000000 -21.080345 -56.239909 -11.179771 -22.350687 -11.263921 -22.331077 -19.952347 157.859526 
0.3650812500000000 -21.039028 -57.051933 -11.183011 -22.778017 -11.268677 -22.822158 -19.989856 157.215060 
0.3725250000000000 -21.026828 -57.938032 -11.183546 -23.295944 -11.271030 -23.235568 -20.008745 156.544008 
0.3799687500000000 -21.026318 -58.824051 -11.202524 -23.668474 -11.271695 -23.715512 -20.037642 155.846720 
0.3874125000000000 -20.994291 -59.717980 -11.186928 -24.212864 -11.278593 -24.177146 -20.052135 155.223940 
0.3948562500000000 -20.960600 -60.808342 -11.185692 -24.682629 -11.273245 -24.607687 -20.061762 154.489332 
0.4023000000000000 -20.948473 -61.723019 -11.201997 -25.110211 -11.267703 -25.082710 -20.071779 153.882401 
0.4097437500000000 -20.911305 -62.660904 -11.207466 -25.527817 -11.282512 -25.598360 -20.074653 153.188473 
0.4171875000000000 -20.888012 -63.694795 -11.215308 -25.965633 -11.279948 -26.070771 -20.082554 152.564563 
0.4246312500000000 -20.865725 -64.679092 -11.198010 -26.491972 -11.293748 -26.555722 -20.077051 151.950602 
0.4320750000000000 -20.810668 -65.677179 -11.195574 -26.936801 -11.298929 -27.008007 -20.086594 151.541055 
0.4395187500000000 -20.776355 -66.628179 -11.217497 -27.326799 -11.304755 -27.466689 -20.083461 151.089433 
0.4469625000000000 -20.729734 -67.591158 -11.210929 -27.777558 -11.303149 -27.898277 -20.107049 150.534246 
0.4544062500000000 -20.686761 -68.518376 -11.205533 -28.280526 -11.309282 -28.364429 -20.134687 150.160128 
0.4618500000000000 -20.618150 -69.369238 -11.217590 -28.799583 -11.320834 -28.832792 -20.149972 149.881382 
0.4692937500000000 -20.571053 -70.157287 -11.222939 -29.253989 -11.322914 -29.249112 -20.208422 149.493135 
0.4767375000000000 -20.510652 -70.978627 -11.227779 -29.731064 -11.332414 -29.717506 -20.246673 149.021978 
0.4841812500000000 -20.456660 -71.766841 -11.235086 -30.170644 -11.336454 -30.136447 -20.308492 148.715045 
0.4916250000000000 -20.401112 -72.524174 -11.237780 -30.650464 -11.336082 -30.587181 -20.387506 148.259398 
0.4990687500000000 -20.348817 -73.241697 -11.245120 -31.144069 -11.341967 -31.019644 -20.444333 147.811981 
0.5065125000000000 -20.317671 -74.016922 -11.260328 -31.571691 -11.340954 -31.506254 -20.541032 147.418376 
0.5139562500000000 -20.248184 -74.614695 -11.261832 -32.049947 -11.344548 -31.964842 -20.613900 146.961186 
0.5214000000000000 -20.206999 -75.386663 -11.273151 -32.462114 -11.350268 -32.413976 -20.704385 146.345433 
0.5288437500000000 -20.166694 -76.081016 -11.290263 -32.921017 -11.351483 -32.910187 -20.775153 145.773073 
0.5362875000000000 -20.097143 -76.810232 -11.288792 -33.337845 -11.369064 -33.282961 -20.841730 145.323425 
0.5437312500000000 -20.051778 -77.572312 -11.306367 -33.674473 -11.376215 -33.780365 -20.908246 144.757101 
0.5511750000000000 -19.998748 -78.468918 -11.301606 -34.110060 -11.374436 -34.211955 -20.964888 144.245396 
0.5586187500000001 -19.951945 -79.364456 -11.313636 -34.518290 -11.389247 -34.597068 -20.986445 143.733919 
0.5660625000000000 -19.894269 -80.196903 -11.310752 -34.929597 -11.392952 -35.064730 -21.003205 143.359729 
0.5735062500000000 -19.858841 -81.252528 -11.311185 -35.330627 -11.395580 -35.436733 -20.982665 142.848644 
0.5809500000000000 -19.832255 -82.210989 -11.310331 -35.753313 -11.397517 -35.889496 -20.993695 142.556171 
0.5883937500000001 -19.791872 -83.159515 -11.305024 -36.184579 -11.409544 -36.299202 -20.983155 142.049670 
0.5958375000000000 -19.745224 -84.106093 -11.305451 -36.535743 -11.396423 -36.667618 -20.951344 141.667727 
0.6032812500000000 -19.716438 -85.067004 -11.305661 -37.030225 -11.411806 -37.044240 -20.944017 141.204345 
0.6107250000000000 -19.683452 -86.055975 -11.304299 -37.495719 -11.406407 -37.491100 -20.925949 140.790317 
0.6181687500000000 -19.637392 -86.902263 -11.293644 -37.930425 -11.408545 -37.908771 -20.922467 140.444321 
0.6256125000000000 -19.611111 -87.717158 -11.303524 -38.387889 -11.406705 -38.355956 -20.925553 139.974951 
0.6330562500000000 -19.560301 -88.570346 -11.307537 -38.902739 -11.401693 -38.780572 -20.946118 139.656448 
0.6405000000000000 -19.537472 -89.471550 -11.312772 -39.326505 -11.393115 -39.265551 -20.969726 139.234098 
0.6479437500000000 -19.512974 -90.245913 -11.306897 -39.757217 -11.400104 -39.620911 -20.991419 138.775817 
0.6553875000000000 -19.479044 -91.062206 -11.326886 -40.178388 -11.396356 -40.088883 -21.052028 138.218536 
0.6628312500000000 -19.445811 -91.843773 -11.330752 -40.593442 -11.385602 -40.543616 -21.099904 137.700613 
0.6702750000000000 -19.415174 -92.524345 -11.331284 -40.998717 -11.382067 -41.022318 -21.155977 137.161479 
0.6777187500000000 -19.391552 -93.333674 -11.329079 -41.508864 -11.383098 -41.532978 -21.205613 136.438395 
0.6851625000000000 -19.343147 -94.166039 -11.326910 -41.936343 -11.383070 -42.063355 -21.264129 135.716851 
0.6926062500000000 -19.314074 -94.895642 -11.331604 -42.351082 -11.387228 -42.548704 -21.303924 135.003592 
0.7000500000000000 -19.295637 -95.581448 -11.340101 -42.726345 -11.405663 -43.052946 -21.349355 134.142479 
0.7074937500000000 -19.266212 -96.299599 -11.334855 -43.196490 -11.424053 -43.444004 -21.377474 133.358926 
0.7149375000000000 -19.255698 -97.015030 -11.327189 -43.634411 -11.426926 -43.917081 -21.404189 132.550377 
0.7223812500000000 -19.205945 -97.757170 -11.317201 -44.102462 -11.432373 -44.299137 -21.448635 131.769933 
0.7298250000000000 -19.180379 -98.487590 -11.311475 -44.573697 -11.434140 -44.719827 -21.466384 131.039141 
0.7372687500000000 -19.153488 -99.089100 -11.320151 -45.097856 -11.427389 -45.177410 -21.477872 130.407378 
0.7447125000000000 -19.118229 -99.834678 -11.318303 -45.602960 -11.427076 -45.632454 -21.486195 129.742145 
0.7521562500000000 -19.092248 -100.489039 -11.327083 -46.078513 -11.430834 -46.060365 -21.497003 129.202441 
0.7596000000000001 -19.059386 -101.131835 -11.337117 -46.525667 -11.437223 -46.541058 -21.521024 128.575224 
0.7670437500000000 -19.028657 -101.805911 -11.347971 -46.950149 -11.452787 -46.926436 -21.553609 128.249569 
0.7744875000000000 -18.988340 -102.530494 -11.354741 -47.371248 -11.450295 -47.365127 -21.579886 127.777033 
0.7819312500000000 -18.961319 -103.189100 -11.342174 -47.814326 -11.451837 -47.829296 -21.609781 127.144016 
0.7893750000000001 -18.936980 -103.937279 -11.354819 -48.266902 -11.450305 -48.238255 -21.646481 126.791698 
0.7968187500000000 -18.901354 -104.510836 -11.345959 -48.683194 -11.444250 -48.633796 -21.711959 126.280024 
0.8042625000000000 -18.860137 -105.206033 -11.354111 -49.135505 -11.444665 -49.138403 -21.777872 125.786798 
0.8117062500000000 -18.839780 -105.804596 -11.357997 -49.652039 -11.446507 -49.586254 -21.824914 125.459935 
0.8191500000000000 -18.811168 -106.477429 -11.369886 -50.066148 -11.448109 -50.051819 -21.924284 124.796941 
0.8265937500000000 -18.779902 -107.017407 -11.373365 -50.537326 -11.448362 -50.570394 -21.992729 124.329831 
0.8340375000000000 -18.743822 -107.727378 -11.372083 -50.897743 -11.454189 -51.015548 -22.068379 123.603918 
0.8414812500000000 -18.711977 -108.318155 -11.372838 -51.324254 -11.456853 -51.491856 -22.130875 122.899032 
0.8489250000000000 -18.698678 -109.282863 -11.366837 -51.779349 -11.492878 -52.044973 -22.227448 121.985919 
0.8563687500000000 -18.659235 -110.098966 -11.360764 -52.335592 -11.498363 -52.610374 -22.297650 121.162025 
0.8638125000000000 -18.634988 -110.552335 -11.365114 -52.729257 -11.526407 -52.940925 -22.359042 120.528501 
0.8712562500000000 -18.611476 -111.112007 -11.375670 -53.222091 -11.532575 -53.371860 -22.414487 119.679727 
0.8787000000000000 -18.584144 -111.844518 -11.378394 -53.730838 -11.538649 -53.748289 -22.466827 118.970567 
0.8861437500000000 -18.564951 -112.445836 -11.378963 -54.076970 -11.554764 -54.146930 -22.518218 118.362672 
0.8935875000000000 -18.521252 -113.122581 -11.401245 -54.638305 -11.536259 -54.634539 -22.575952 117.791953 
0.9010312500000000 -18.501841 -113.558696 -11.381378 -54.885830 -11.538780 -54.990272 -22.560244 117.221335 
0.9084750000000000 -18.456144 -114.287979 -11.383243 -55.491234 -11.545155 -55.383297 -22.641284 117.038024 
0.9159187500000000 -18.422214 -114.908556 -11.397459 -55.878969 -11.554070 -55.849589 -22.696861 116.254380 
0.9233625000000000 -18.396508 -115.567028 -11.403918 -56.359053 -11.554072 -56.276002 -22.743722 115.839790 
0.9308062500000000 -18.355744 -116.212374 -11.398789 -56.770691 -11.553871 -56.624001 -22.811353 115.607122 
0.9382500000000000 -18.319829 -116.844580 -11.421732 -57.176539 -11.543390 -57.061903 -22.935862 115.290349 
0.9456937500000000 -18.313469 -117.419942 -11.418364 -57.631288 -11.538342 -57.553988 -23.001738 114.596781 
0.9531375000000000 -18.254820 -117.990776 -11.426544 -58.016719 -11.535519 -58.057029 -23.085911 114.221771 
0.9605812500000001 -18.211867 -118.666689 -11.418767 -58.525137 -11.523535 -58.588166 -23.214994 113.886337 
0.9680250000000000 -18.204723 -119.138335 -11.415837 -58.919597 -11.533228 -59.060010 -23.305849 113.301051 
0.9754687500000000 -18.140801 -119.805287 -11.413563 -59.402251 -11.558712 -59.530684 -23.408470 112.462425 
0.9829125000000000 -18.122199 -120.302447 -11.413483 -59.796712 -11.565728 -59.997854 -23.551674 112.093109 
0.9903562500000001 -18.095104 -120.840040 -11.420339 -60.249661 -11.578409 -60.387128 -23.662922 111.019572 
0.9978000000000000 -18.059708 -121.319026 -11.432017 -60.679723 -11.584383 -60.743810 -23.802665 110.385825 
1.0052437500000000 -18.034200 -121.826170 -11.427846 -61.166790 -11.586714 -61.130108 -23.886832 109.463267 
1.0126875000000000 -18.003980 -122.473591 -11.434135 -61.613871 -11.581785 -61.561874 -24.001088 108.516021 
1.0201312499999999 -17.992544 -122.893342 -11.429260 -62.085881 -11.584124 -62.022262 -24.085096 107.752404 
1.0275749999999999 -17.967225 -123.440136 -11.427880 -62.464330 -11.583200 -62.527692 -24.145047 106.781737 
1.0350187500000001 -17.939008 -124.005175 -11.432849 -62.907818 -11.605937 -62.949267 -24.203749 105.939549 
1.0424625000000001 -17.915110 -124.593706 -11.449908 -63.328294 -11.619331 -63.367161 -24.246095 104.941636 
1.0499062500000000 -17.910394 -125.095619 -11.452660 -63.764517 -11.620151 -63.695698 -24.323939 104.320978 
1.0573500000000000 -17.887362 -125.847069 -11.447262 -64.254355 -11.623965 -64.091555 -24.368182 103.717619 
1.0647937500000000 -17.856186 -126.355568 -11.451803 -64.593122 -11.623908 -64.470957 -24.404791 102.844322 
1.0722375000000000 -17.848038 -126.945301 -11.446719 -65.043866 -11.609376 -64.903092 -24.460015 102.289521 
1.0796812499999999 -17.849323 -127.590638 -11.440736 -65.599119 -11.612547 -65.419685 -24.538820 101.632680 
1.0871249999999999 -17.803148 -128.211861 -11.456248 -66.054432 -11.612288 -65.851629 -24.599295 101.054441 
1.0945687500000001 -17.769629 -128.767551 -11.458262 -66.495050 -11.631152 -66.246663 -24.688175 100.518654 
1.1020125000000001 -17.757895 -129.412132 -11.469315 -66.900084 -11.626598 -66.699848 -24.785637 99.939225 
1.1094562500000000 -17.706241 -129.965026 -11.471757 -67.334034 -11.619638 -67.089024 -24.898734 99.234960 
1.1169000000000000 -17.683589 -130.528120 -11.481789 -67.742834 -11.627122 -67.465791 -25.016721 98.617223 
1.1243437500000000 -17.663104 -131.147278 -11.470809 -68.201619 -11.620532 -67.957307 -25.084817 97.904188 
1.1317874999999999 -17.624787 -131.775628 -11.472527 -68.603974 -11.618467 -68.443542 -25.214591 97.097595 
1.1392312499999999 -17.603631 -132.183983 -11.472420 -69.055611 -11.631128 -68.872552 -25.362865 96.406196 
1.1466750000000001 -17.536093 -132.739346 -11.472378 -69.517954 -11.626910 -69.384642 -25.457419 95.640271 
1.1541187500000001 -17.523323 -133.184535 -11.494109 -69.943952 -11.634740 -69.728498 -25.646018 94.560065 
1.1615625000000001 -17.504126 -133.799821 -11.488128 -70.317714 -11.633186 -70.147884 -25.710961 93.638565 
1.1690062500000000 -17.468844 -134.189300 -11.486238 -70.784888 -11.650282 -70.623570 -25.792202 92.559830 
1.1764500000000000 -17.443533 -134.683351 -11.487045 -71.223696 -11.640493 -71.022789 -25.954427 91.644382 
1.1838937500000000 -17.421342 -135.079249 -11.482940 -71.658391 -11.653617 -71.528039 -26.035001 90.998364 
1.1913374999999999 -17.417238 -135.587771 -11.475228 -72.071703 -11.650030 -72.044485 -26.110904 89.739392 
1.1987812499999999 -17.376591 -136.069544 -11.472933 -72.585392 -11.666682 -72.492428 -26.216699 88.846372 
1.2062250000000001 -17.387332 -136.391267 -11.473619 -73.043458 -11.679522 -72.831179 -26.295853 88.118129 
1.2136687500000001 -17.365257 -136.886608 -11.482747 -73.494245 -11.683892 -73.125886 -26.421844 87.389639 
1.2211125000000000 -17.361709 -137.335560 -11.484998 -73.978463 -11.681011 -73.565882 -26.562022 86.643644 
1.2285562500000000 -17.330182 -137.895944 -11.495126 -74.443889 -11.668954 -73.940017 -26.681075 85.907161 
1.2360000000000000 -17.346187 -138.419018 -11.494682 -74.917974 -11.660441 -74.404949 -26.740973 85.049802 
1.2434437500000000 -17.327195 -138.848676 -11.497853 -75.381336 -11.659023 -74.837915 -26.892205 84.125181 
1.2508874999999999 -17.315603 -139.432828 -11.504647 -75.753266 -11.661139 -75.398696 -27.064987 83.262659 
1.2583312499999999 -17.296818 -140.010555 -11.505215 -76.230084 -11.671127 -75.789830 -27.208290 82.703100 
1.2657750000000001 -17.296377 -140.487780 -11.514149 -76.699730 -11.669703 -76.251440 -27.361777 81.640126 
1.2732187500000001 -17.257395 -141.160961 -11.529230 -77.112868 -11.685557 -76.598786 -27.505946 80.548764 
1.2806625000000000 -17.242598 -141.656536 -11.531613 -77.558837 -11.684740 -77.061987 -27.665738 79.558829 
1.2881062500000000 -17.217690 -142.243151 -11.540887 -77.933833 -11.671778 -77.521350 -27.863878 78.577178 
1.2955500000000000 -17.195732 -142.676201 -11.523377 -78.379281 -11.675409 -77.979248 -28.105703 77.132435 
1.3029937500000000 -17.177711 -143.274777 -11.536342 -78.752192 -11.674704 -78.449421 -28.191847 75.737107 
1.3104374999999999 -17.145061 -143.691183 -11.536507 -79.188994 -11.689986 -78.901488 -28.370284 74.247416 
1.3178812499999999 -17.116869 -144.180290 -11.527537 -79.626167 -11.696852 -79.296522 -28.545182 73.141173 
1.3253250000000001 -17.087391 -144.616044 -11.531004 -80.090964 -11.703673 -79.705371 -28.740644 71.473360 
1.3327687500000001 -17.068705 -144.947671 -11.538008 -80.518154 -11.696862 -80.164138 -28.911037 70.291415 
1.3402125000000000 -17.044200 -145.550749 -11.536661 -80.997702 -11.694778 -80.463093 -29.043748 69.046499 
1.3476562500000000 -17.038687 -145.867229 -11.534850 -81.483592 -11.694256 -80.919943 -29.102030 67.805645 
1.3551000000000000 -17.024061 -146.297021 -11.536108 -81.905836 -11.698355 -81.422535 -29.329342 66.230124 
1.3625437499999999 -16.999515 -146.793999 -11.536766 -82.371561 -11.696532 -81.872745 -29.422753 64.706204 
1.3699874999999999 -16.984555 -147.221159 -11.535799 -82.861472 -11.709638 -82.349752 -29.636541 63.719524 
1.3774312500000001 -16.966418 -147.572421 -11.538469 -83.308100 -11.717482 -82.665628 -29.761973 62.172483 
1.3848750000000001 -16.947898 -148.002439 -11.545911 -83.771075 -11.715460 -83.074683 -29.913015 61.126180 
