!
! C:\Users\Aljaz\OneDrive - Univerza v Ljubljani\DOKTORAT\NOVI SA\Slabilec PE43711B\meritve\prototip2\16dB.S2P
!
! Touchstone 1.1 file saved by VNA.EXE V1.65 (www.ke5fx.com/gpib/readme.htm)
! 18. 04. 2022 18:05:56
!
!    Source: HP8510C.07.14: Aug 26  1998 
!  Min freq: 4.500000E+007 Hz
!  Max freq: 6.000000E+009 Hz
!    Points: 801
!    Params: S11 S21 S12 S22
!
!!!!!
# GHZ S DB R 50
0.0450000000000000 -24.316810 -25.191183 -17.101003 -0.920493 -17.280997 -1.054875 -17.009590 -173.308461 
0.0524437500000000 -24.383577 -24.159152 -17.093036 -1.811396 -17.281218 -1.873468 -17.065699 -175.489599 
0.0598875000000000 -24.410336 -23.824954 -17.111462 -2.495953 -17.266293 -2.595174 -17.093762 -177.089495 
0.0673312500000000 -24.464826 -23.654694 -17.108336 -3.166450 -17.274473 -3.173279 -17.113576 -178.545039 
0.0747750000000000 -24.437919 -23.849666 -17.102128 -3.741384 -17.275077 -3.743100 -17.121601 -179.930977 
0.0822187500000000 -24.451486 -23.913217 -17.105567 -4.311247 -17.261395 -4.383070 -17.143546 179.159947 
0.0896625000000000 -24.435119 -24.456160 -17.106484 -4.899444 -17.269686 -4.854857 -17.155310 178.071531 
0.0971062500000000 -24.406892 -24.848797 -17.118247 -5.466785 -17.265780 -5.426107 -17.165909 176.986206 
0.1045500000000000 -24.407217 -25.383038 -17.116903 -5.904084 -17.258485 -5.972641 -17.168751 176.093766 
0.1119937500000000 -24.367530 -26.224048 -17.117453 -6.453446 -17.257257 -6.459159 -17.162692 175.233211 
0.1194375000000000 -24.369326 -26.799438 -17.120741 -6.993054 -17.241694 -6.950590 -17.197983 174.406262 
0.1268812500000000 -24.380399 -27.715899 -17.121607 -7.471464 -17.263929 -7.392887 -17.187647 173.633947 
0.1343250000000000 -24.313173 -28.394642 -17.121538 -7.965458 -17.244053 -7.982919 -17.203995 172.798764 
0.1417687500000000 -24.292358 -29.074091 -17.117726 -8.469046 -17.255649 -8.412250 -17.220591 172.057995 
0.1492125000000000 -24.289469 -30.179996 -17.126264 -8.890359 -17.258747 -8.892587 -17.221363 171.345086 
0.1566562500000000 -24.279469 -30.845348 -17.122939 -9.440131 -17.254158 -9.362272 -17.228065 170.649983 
0.1641000000000000 -24.282908 -31.927994 -17.127276 -9.852636 -17.255778 -9.871544 -17.245525 169.891313 
0.1715437500000000 -24.237081 -32.758968 -17.130394 -10.363552 -17.258441 -10.353872 -17.256421 169.158891 
0.1789875000000000 -24.217797 -33.817638 -17.128753 -10.831325 -17.258261 -10.794722 -17.270034 168.494122 
0.1864312500000000 -24.201716 -34.664095 -17.124203 -11.311764 -17.261168 -11.295529 -17.282692 167.712545 
0.1938750000000000 -24.205027 -35.819284 -17.127298 -11.761368 -17.257224 -11.742532 -17.301895 167.047901 
0.2013187500000000 -24.164587 -36.842008 -17.132203 -12.243561 -17.257720 -12.173353 -17.310316 166.362806 
0.2087625000000000 -24.140306 -37.819403 -17.123113 -12.732075 -17.258290 -12.631154 -17.310517 165.651833 
0.2162062500000000 -24.123001 -38.845545 -17.132120 -13.174326 -17.256351 -13.102373 -17.317935 164.879160 
0.2236500000000000 -24.088748 -39.987493 -17.139044 -13.660250 -17.265146 -13.535551 -17.333653 164.217183 
0.2310937500000000 -24.049959 -40.911925 -17.141423 -14.094989 -17.263363 -13.972814 -17.323475 163.477056 
0.2385375000000000 -24.024691 -41.955065 -17.155126 -14.517624 -17.270440 -14.425712 -17.329542 162.843839 
0.2459812500000000 -23.996844 -43.177964 -17.150146 -15.000759 -17.259869 -14.968171 -17.331052 162.180130 
0.2534250000000000 -23.941289 -44.169120 -17.161545 -15.432664 -17.264369 -15.382696 -17.334011 161.496909 
0.2608687500000000 -23.919064 -45.884579 -17.155181 -16.046235 -17.312598 -16.070529 -17.353023 160.671151 
0.2683125000000000 -23.881229 -46.888589 -17.156223 -16.461745 -17.319969 -16.499361 -17.342570 160.093912 
0.2757562500000000 -23.822973 -48.011021 -17.153863 -16.973505 -17.318871 -16.936312 -17.342145 159.535894 
0.2832000000000000 -23.765289 -49.033726 -17.160713 -17.455974 -17.314881 -17.455655 -17.350952 158.890327 
0.2906437500000000 -23.709190 -49.951016 -17.171175 -17.832083 -17.315911 -17.888945 -17.351412 158.446327 
0.2980875000000000 -23.650035 -50.912269 -17.148957 -18.281625 -17.317519 -18.331400 -17.367520 157.879076 
0.3055312500000000 -23.569244 -51.852958 -17.174025 -18.642619 -17.339929 -18.709731 -17.368448 157.443709 
0.3129750000000000 -23.531848 -52.787429 -17.157238 -19.141502 -17.325850 -19.198024 -17.415447 156.895186 
0.3204187500000000 -23.469842 -53.591895 -17.164918 -19.633877 -17.331169 -19.639776 -17.425536 156.252166 
0.3278625000000000 -23.437636 -54.571210 -17.162674 -20.138276 -17.332302 -20.110839 -17.455525 155.775742 
0.3353062500000000 -23.366295 -55.155451 -17.167101 -20.603324 -17.337017 -20.554535 -17.495406 155.139961 
0.3427500000000000 -23.324411 -55.973944 -17.178551 -21.000109 -17.324660 -21.004985 -17.528295 154.597667 
0.3501937500000000 -23.294485 -56.710757 -17.172091 -21.518868 -17.330763 -21.451585 -17.565760 153.911333 
0.3576375000000000 -23.274129 -57.709893 -17.183831 -21.913540 -17.337686 -21.954354 -17.601346 153.227306 
0.3650812500000000 -23.229166 -58.387412 -17.188214 -22.379296 -17.341398 -22.346496 -17.628580 152.438792 
0.3725250000000000 -23.203371 -59.156843 -17.190902 -22.797751 -17.341804 -22.776372 -17.656169 151.795877 
0.3799687500000000 -23.179461 -60.019778 -17.201827 -23.227292 -17.344315 -23.215294 -17.669081 151.068766 
0.3874125000000000 -23.150939 -60.916561 -17.201890 -23.735114 -17.341955 -23.684034 -17.685043 150.353761 
0.3948562500000000 -23.119998 -61.861959 -17.202181 -24.082470 -17.336229 -24.110768 -17.693837 149.633535 
0.4023000000000000 -23.088072 -62.850531 -17.199943 -24.576300 -17.340395 -24.557549 -17.706448 148.887414 
0.4097437500000000 -23.035245 -63.777373 -17.218248 -25.017951 -17.361553 -25.039106 -17.706497 148.253828 
0.4171875000000000 -23.035836 -64.625957 -17.211316 -25.464581 -17.356986 -25.492102 -17.722564 147.562714 
0.4246312500000000 -22.974232 -65.719344 -17.215277 -25.925905 -17.365756 -25.937123 -17.729718 146.930271 
0.4320750000000000 -22.907832 -66.733223 -17.204642 -26.278116 -17.355877 -26.474935 -17.740206 146.370679 
0.4395187500000000 -22.868499 -67.458262 -17.226138 -26.655250 -17.374265 -26.859099 -17.748705 145.837456 
0.4469625000000000 -22.796686 -68.541333 -17.216117 -27.216307 -17.368751 -27.232187 -17.767181 145.200725 
0.4544062500000000 -22.747656 -69.435532 -17.209928 -27.697252 -17.369514 -27.729806 -17.791096 144.738753 
0.4618500000000000 -22.662403 -70.268069 -17.230212 -28.186801 -17.382309 -28.184349 -17.811013 144.288738 
0.4692937500000000 -22.591511 -71.034116 -17.228118 -28.656223 -17.381387 -28.559613 -17.851989 143.808747 
0.4767375000000000 -22.523429 -71.834911 -17.227863 -29.070657 -17.392598 -29.039662 -17.896200 143.293410 
0.4841812500000000 -22.423485 -72.489656 -17.242679 -29.513760 -17.390972 -29.525451 -17.948586 142.813915 
0.4916250000000000 -22.354986 -73.261223 -17.252461 -29.994436 -17.397660 -29.921680 -18.013504 142.247785 
0.4990687500000000 -22.313375 -73.866907 -17.248099 -30.517862 -17.400655 -30.371552 -18.065206 141.662000 
0.5065125000000000 -22.233321 -74.556226 -17.261934 -30.866658 -17.404193 -30.774996 -18.140616 141.139031 
0.5139562500000000 -22.179020 -75.108753 -17.270688 -31.287078 -17.406978 -31.276069 -18.212735 140.603562 
0.5214000000000000 -22.112304 -75.706182 -17.275108 -31.713186 -17.407242 -31.695474 -18.278080 139.945859 
0.5288437500000000 -22.035868 -76.440215 -17.300313 -32.123904 -17.419212 -32.188349 -18.346660 139.189206 
0.5362875000000000 -21.950345 -77.030809 -17.302137 -32.560033 -17.434239 -32.557160 -18.401897 138.652767 
0.5437312500000000 -21.902784 -77.638233 -17.321024 -32.843957 -17.441291 -32.945039 -18.460600 138.042178 
0.5511750000000000 -21.842556 -78.580900 -17.304205 -33.273181 -17.441883 -33.361790 -18.500783 137.444359 
0.5586187500000001 -21.787835 -79.362038 -17.319000 -33.683841 -17.442892 -33.819669 -18.527572 136.747005 
0.5660625000000000 -21.717916 -80.195233 -17.307731 -34.082224 -17.440457 -34.244947 -18.544928 136.207864 
0.5735062500000000 -21.662924 -81.183000 -17.308676 -34.505637 -17.450081 -34.552920 -18.548844 135.668252 
0.5809500000000000 -21.621510 -82.199595 -17.316242 -34.881586 -17.450353 -35.064260 -18.549569 135.219714 
0.5883937500000001 -21.569886 -83.112087 -17.313416 -35.329369 -17.453398 -35.377721 -18.545523 134.667966 
0.5958375000000000 -21.522625 -84.106187 -17.312767 -35.752127 -17.451765 -35.798977 -18.530340 134.187005 
0.6032812500000000 -21.480164 -85.030593 -17.297455 -36.177828 -17.467062 -36.162539 -18.531357 133.701340 
0.6107250000000000 -21.428462 -86.003409 -17.305897 -36.582994 -17.458435 -36.548231 -18.530196 133.264215 
0.6181687500000000 -21.383443 -86.856139 -17.300412 -37.072354 -17.449662 -36.952670 -18.540631 132.830742 
0.6256125000000000 -21.341175 -87.540470 -17.312317 -37.482630 -17.458379 -37.413749 -18.551334 132.305667 
0.6330562500000000 -21.280531 -88.566257 -17.305771 -37.968184 -17.440262 -37.827732 -18.558050 131.792359 
0.6405000000000000 -21.244835 -89.402168 -17.311277 -38.386285 -17.441943 -38.359766 -18.592965 131.297487 
0.6479437500000000 -21.209802 -90.103003 -17.311576 -38.884738 -17.443449 -38.713218 -18.620978 130.747531 
0.6553875000000000 -21.152419 -90.793676 -17.315931 -39.248988 -17.436351 -39.121017 -18.674023 130.111862 
0.6628312500000000 -21.109536 -91.584660 -17.336062 -39.689218 -17.430382 -39.551394 -18.712075 129.481531 
0.6702750000000000 -21.070728 -92.203457 -17.328833 -40.034790 -17.434486 -39.999260 -18.754853 128.890200 
0.6777187500000000 -21.031965 -93.041248 -17.327268 -40.516778 -17.434651 -40.468966 -18.814818 128.180040 
0.6851625000000000 -20.976587 -93.769170 -17.316842 -40.921575 -17.430681 -40.982935 -18.847385 127.290607 
0.6926062500000000 -20.955608 -94.371573 -17.323038 -41.340925 -17.442963 -41.421511 -18.881811 126.573577 
0.7000500000000000 -20.895811 -95.070921 -17.337476 -41.689250 -17.459544 -41.933491 -18.929678 125.630446 
0.7074937500000000 -20.875391 -95.651418 -17.322411 -42.057768 -17.465938 -42.288405 -18.944412 124.856130 
0.7149375000000000 -20.859792 -96.242927 -17.308158 -42.518829 -17.468574 -42.771883 -18.973792 124.097825 
0.7223812500000000 -20.827198 -96.909131 -17.303862 -42.981568 -17.473507 -43.132497 -19.001799 123.316120 
0.7298250000000000 -20.775248 -97.679603 -17.305788 -43.464150 -17.460791 -43.592295 -19.011854 122.506799 
0.7372687500000000 -20.740579 -98.230414 -17.300870 -43.994120 -17.466444 -43.928571 -19.039210 121.830945 
0.7447125000000000 -20.698246 -98.935070 -17.314247 -44.496303 -17.474941 -44.466096 -19.048375 121.204288 
0.7521562500000000 -20.651864 -99.507640 -17.319226 -44.964814 -17.473366 -44.860195 -19.068564 120.545883 
0.7596000000000001 -20.624663 -100.250018 -17.330543 -45.409167 -17.483091 -45.294958 -19.082463 119.971486 
0.7670437500000000 -20.577557 -100.930613 -17.339135 -45.761137 -17.488158 -45.707177 -19.108480 119.359796 
0.7744875000000000 -20.542315 -101.561790 -17.339693 -46.153770 -17.488561 -46.178349 -19.149055 118.875211 
0.7819312500000000 -20.478826 -102.146536 -17.339590 -46.523628 -17.495044 -46.610245 -19.179613 118.239065 
0.7893750000000001 -20.456051 -102.928317 -17.336060 -47.050970 -17.484310 -46.950854 -19.213972 117.680338 
0.7968187500000000 -20.401588 -103.405542 -17.336220 -47.431167 -17.487179 -47.341768 -19.276701 117.156837 
0.8042625000000000 -20.349247 -104.002580 -17.339014 -47.914835 -17.488193 -47.834432 -19.327485 116.535200 
0.8117062500000000 -20.314413 -104.663395 -17.354486 -48.381191 -17.492785 -48.287038 -19.381569 115.930572 
0.8191500000000000 -20.283264 -105.257098 -17.366696 -48.826217 -17.481357 -48.722978 -19.443685 115.254808 
0.8265937500000000 -20.235571 -105.726066 -17.366817 -49.267917 -17.494568 -49.222107 -19.505501 114.582195 
0.8340375000000000 -20.195835 -106.322170 -17.357589 -49.581279 -17.492399 -49.646138 -19.584442 113.874905 
0.8414812500000000 -20.140644 -106.887970 -17.358385 -50.009646 -17.491806 -50.139722 -19.627720 113.049291 
0.8489250000000000 -20.128300 -107.818363 -17.343179 -50.491209 -17.546290 -50.763222 -19.717516 111.943634 
0.8563687500000000 -20.100983 -108.474806 -17.342602 -51.038791 -17.549772 -51.321144 -19.763394 111.089278 
0.8638125000000000 -20.049043 -109.031340 -17.354603 -51.456481 -17.573307 -51.630078 -19.798462 110.424824 
0.8712562500000000 -20.029993 -109.543323 -17.350443 -52.028097 -17.593247 -52.046555 -19.847732 109.524379 
0.8787000000000000 -19.998349 -110.236083 -17.361964 -52.487088 -17.590834 -52.513295 -19.885176 108.760307 
0.8861437500000000 -19.961713 -110.758010 -17.361866 -52.690676 -17.596943 -52.905366 -19.919109 108.178851 
0.8935875000000000 -19.928171 -111.422230 -17.384419 -53.298619 -17.582906 -53.322702 -19.984476 107.440704 
0.9010312500000000 -19.882836 -111.801408 -17.365485 -53.572284 -17.586828 -53.554905 -19.978485 106.926245 
0.9084750000000000 -19.832303 -112.729035 -17.364234 -54.143822 -17.599167 -54.025047 -20.030426 106.414794 
0.9159187500000000 -19.790266 -113.294398 -17.378705 -54.548373 -17.601873 -54.526894 -20.102350 105.616095 
0.9233625000000000 -19.729587 -113.792548 -17.390711 -55.030931 -17.609884 -54.885871 -20.146057 105.187278 
0.9308062500000000 -19.684357 -114.397558 -17.389070 -55.432469 -17.604358 -55.291729 -20.204689 104.715771 
0.9382500000000000 -19.635846 -115.101727 -17.391967 -55.784197 -17.583817 -55.682489 -20.309708 104.248293 
0.9456937500000000 -19.611469 -115.544310 -17.415576 -56.285164 -17.585966 -56.128592 -20.368431 103.475421 
0.9531375000000000 -19.555227 -116.005988 -17.398297 -56.576821 -17.586056 -56.571633 -20.450006 102.782229 
0.9605812500000001 -19.492374 -116.578881 -17.392530 -57.131611 -17.589289 -57.164684 -20.544639 102.397554 
0.9680250000000000 -19.455716 -117.111320 -17.400914 -57.532897 -17.590162 -57.634746 -20.630571 101.609528 
0.9754687500000000 -19.419221 -117.568022 -17.384908 -57.963231 -17.592512 -58.035889 -20.732532 100.742365 
0.9829125000000000 -19.371904 -118.110997 -17.400745 -58.370951 -17.619790 -58.544918 -20.836948 100.036841 
0.9903562500000001 -19.328500 -118.539580 -17.402133 -58.786934 -17.629112 -58.883045 -20.900208 98.962925 
0.9978000000000000 -19.285868 -118.951556 -17.414986 -59.224136 -17.635100 -59.253211 -20.980866 98.126643 
1.0052437500000000 -19.261671 -119.500359 -17.409983 -59.646890 -17.636652 -59.624184 -21.047359 97.206674 
1.0126875000000000 -19.225839 -120.094536 -17.414824 -60.151642 -17.624652 -60.074245 -21.137485 96.158327 
1.0201312499999999 -19.219508 -120.475168 -17.404830 -60.560565 -17.623826 -60.548158 -21.196673 95.350911 
1.0275749999999999 -19.192958 -120.965120 -17.416970 -60.952656 -17.634910 -60.981944 -21.212909 94.389841 
1.0350187500000001 -19.151405 -121.535559 -17.419361 -61.449801 -17.655840 -61.402463 -21.268697 93.444586 
1.0424625000000001 -19.137901 -122.107341 -17.428069 -61.847107 -17.661603 -61.795591 -21.280751 92.721368 
1.0499062500000000 -19.103318 -122.563720 -17.425846 -62.263324 -17.662819 -62.073291 -21.323340 92.011249 
1.0573500000000000 -19.078872 -123.287161 -17.426250 -62.683427 -17.665684 -62.540630 -21.377242 91.283270 
1.0647937500000000 -19.032111 -123.924870 -17.427169 -63.087504 -17.665748 -62.865645 -21.387006 90.374362 
1.0722375000000000 -19.012278 -124.454571 -17.419058 -63.530802 -17.645356 -63.364135 -21.453077 89.793303 
1.0796812499999999 -19.000796 -124.971273 -17.419149 -63.957811 -17.652363 -63.737805 -21.495384 88.995186 
1.0871249999999999 -18.930289 -125.638091 -17.423836 -64.503821 -17.658974 -64.188212 -21.556784 88.457141 
1.0945687500000001 -18.891923 -126.188059 -17.430441 -64.900302 -17.654274 -64.610180 -21.619565 87.660654 
1.1020125000000001 -18.863708 -126.903646 -17.435048 -65.305756 -17.667487 -65.023075 -21.716389 87.026547 
1.1094562500000000 -18.825844 -127.410623 -17.446725 -65.750040 -17.669574 -65.484114 -21.781754 86.211091 
1.1169000000000000 -18.785327 -127.853980 -17.450840 -66.098409 -17.668069 -65.888381 -21.892937 85.461837 
1.1243437500000000 -18.745316 -128.374714 -17.455668 -66.511704 -17.660574 -66.337740 -21.949864 84.734485 
1.1317874999999999 -18.691742 -128.937276 -17.449473 -66.894909 -17.663552 -66.747890 -22.022396 83.755773 
1.1392312499999999 -18.669770 -129.359206 -17.443245 -67.350705 -17.671938 -67.220027 -22.144559 82.785106 
1.1466750000000001 -18.611839 -129.765977 -17.458498 -67.769374 -17.668840 -67.641226 -22.211350 81.969573 
1.1541187500000001 -18.585315 -130.321094 -17.466230 -68.231033 -17.673689 -68.034327 -22.328980 80.746281 
1.1615625000000001 -18.568978 -130.744045 -17.451532 -68.660454 -17.673859 -68.397623 -22.362240 79.676937 
1.1690062500000000 -18.514473 -131.141561 -17.467843 -68.987929 -17.689725 -68.913775 -22.412185 78.806066 
1.1764500000000000 -18.478683 -131.698134 -17.455810 -69.515336 -17.674660 -69.315361 -22.507032 77.820488 
1.1838937500000000 -18.449262 -132.013578 -17.450752 -69.885728 -17.681198 -69.722495 -22.569987 77.019922 
1.1913374999999999 -18.445128 -132.527284 -17.458347 -70.311519 -17.688601 -70.198348 -22.602954 75.886502 
1.1987812499999999 -18.401723 -132.989973 -17.439358 -70.808414 -17.697024 -70.680127 -22.682048 75.099643 
1.2062250000000001 -18.379989 -133.326062 -17.453619 -71.313462 -17.702632 -70.954928 -22.723230 74.195911 
1.2136687500000001 -18.365514 -133.878302 -17.455209 -71.777486 -17.711750 -71.333490 -22.789851 73.342609 
1.2211125000000000 -18.343446 -134.293720 -17.465041 -72.209315 -17.722514 -71.694261 -22.878226 72.577871 
1.2285562500000000 -18.291730 -134.784173 -17.478411 -72.661196 -17.714784 -72.128210 -22.961131 71.888710 
1.2360000000000000 -18.295517 -135.307371 -17.471711 -73.061334 -17.705279 -72.528837 -23.041332 70.971560 
1.2434437500000000 -18.267799 -135.745737 -17.475093 -73.522125 -17.683143 -73.037327 -23.150128 70.015285 
1.2508874999999999 -18.254338 -136.204786 -17.482749 -73.987646 -17.690225 -73.418550 -23.244194 69.147381 
1.2583312499999999 -18.221334 -136.804897 -17.480776 -74.446816 -17.702026 -73.874410 -23.357392 68.082695 
1.2657750000000001 -18.193391 -137.217362 -17.485949 -74.905631 -17.700335 -74.362421 -23.459853 67.052737 
1.2732187500000001 -18.153923 -137.756383 -17.508872 -75.282488 -17.719005 -74.655822 -23.528681 65.800982 
1.2806625000000000 -18.139959 -138.292907 -17.495175 -75.705517 -17.723544 -75.180588 -23.630166 64.753383 
1.2881062500000000 -18.121096 -138.694832 -17.518295 -75.947821 -17.708906 -75.528888 -23.748929 63.575671 
1.2955500000000000 -18.084070 -139.168633 -17.502094 -76.420226 -17.711376 -76.030576 -23.851551 62.292685 
1.3029937500000000 -18.061205 -139.719391 -17.501022 -76.772454 -17.707846 -76.544372 -23.888454 61.181561 
1.3104374999999999 -18.044321 -140.050765 -17.502156 -77.272017 -17.724208 -76.988500 -24.009873 59.896587 
1.3178812499999999 -17.994604 -140.612076 -17.494708 -77.685836 -17.732573 -77.352150 -24.078607 58.448143 
1.3253250000000001 -17.953399 -141.010093 -17.495000 -78.164504 -17.731078 -77.712897 -24.159027 57.226832 
1.3327687500000001 -17.931853 -141.414174 -17.505988 -78.681686 -17.732549 -78.079269 -24.220165 56.129110 
1.3402125000000000 -17.915016 -141.934113 -17.504146 -79.061847 -17.720286 -78.501466 -24.290640 55.005921 
1.3476562500000000 -17.893485 -142.316494 -17.507667 -79.538160 -17.736270 -78.926579 -24.379368 53.892948 
1.3551000000000000 -17.863053 -142.780788 -17.512114 -79.939739 -17.736578 -79.402916 -24.440281 52.694255 
1.3625437499999999 -17.834069 -143.255813 -17.500551 -80.422337 -17.732649 -79.821933 -24.508335 51.643910 
1.3699874999999999 -17.810470 -143.688639 -17.512217 -80.848523 -17.738639 -80.321110 -24.581791 50.421833 
1.3774312500000001 -17.791452 -144.026095 -17.520677 -81.331802 -17.747590 -80.632486 -24.668916 49.195600 
1.3848750000000001 -17.745141 -144.466837 -17.532883 -81.738689 -17.743305 -80.985476 -24.763331 48.294059 
