!
! C:\Users\Aljaz\OneDrive - Univerza v Ljubljani\DOKTORAT\NOVI SA\Slabilec PE43711B\meritve\prototip2\1dB.S2P
!
! Touchstone 1.1 file saved by VNA.EXE V1.65 (www.ke5fx.com/gpib/readme.htm)
! 18. 04. 2022 18:00:13
!
!    Source: HP8510C.07.14: Aug 26  1998 
!  Min freq: 4.500000E+007 Hz
!  Max freq: 6.000000E+009 Hz
!    Points: 801
!    Params: S11 S21 S12 S22
!
!!!!!
# GHZ S DB R 50
0.0450000000000000 -19.548592 -23.351711 -2.019482 -1.608537 -2.266912 -1.757224 -21.662534 -30.076782 
0.0524437500000000 -19.589074 -22.561333 -2.011070 -2.482565 -2.255175 -2.648675 -21.791531 -28.891531 
0.0598875000000000 -19.605698 -22.618261 -2.031679 -3.174190 -2.252305 -3.355814 -21.878455 -28.445021 
0.0673312500000000 -19.660269 -22.718650 -2.019658 -3.885984 -2.244505 -3.981249 -21.941979 -28.253363 
0.0747750000000000 -19.658374 -22.975642 -2.023374 -4.516187 -2.245750 -4.569946 -21.975939 -28.131074 
0.0822187500000000 -19.653188 -23.061539 -2.017369 -5.017698 -2.229464 -5.139792 -21.952354 -28.729267 
0.0896625000000000 -19.634668 -23.703537 -2.025190 -5.651939 -2.234531 -5.674361 -21.944580 -29.423733 
0.0971062500000000 -19.613355 -24.383401 -2.017201 -6.263222 -2.222401 -6.286320 -21.931108 -30.134613 
0.1045500000000000 -19.597167 -25.226777 -2.037002 -6.735922 -2.223421 -6.821337 -21.935802 -31.264481 
0.1119937500000000 -19.603346 -26.224202 -2.025589 -7.345456 -2.220837 -7.360828 -21.963516 -32.375998 
0.1194375000000000 -19.611024 -27.119306 -2.037829 -7.875591 -2.216628 -7.924237 -21.980093 -33.383979 
0.1268812500000000 -19.627371 -28.122496 -2.032276 -8.397264 -2.220032 -8.388094 -21.996515 -34.346893 
0.1343250000000000 -19.605210 -29.055008 -2.034270 -8.884276 -2.209333 -8.941091 -22.006679 -35.258219 
0.1417687500000000 -19.628803 -29.993987 -2.039340 -9.440510 -2.225890 -9.411438 -21.982682 -36.310228 
0.1492125000000000 -19.620684 -31.004663 -2.042146 -9.923797 -2.215291 -9.942363 -21.950771 -37.530388 
0.1566562500000000 -19.611220 -31.979242 -2.039959 -10.478509 -2.224012 -10.438996 -21.917862 -38.713869 
0.1641000000000000 -19.594689 -33.093563 -2.050191 -10.966471 -2.217186 -10.945197 -21.896627 -39.964844 
0.1715437500000000 -19.586881 -34.342686 -2.054402 -11.452857 -2.219951 -11.457376 -21.891253 -41.188865 
0.1789875000000000 -19.599992 -35.396945 -2.058076 -11.926206 -2.214352 -11.979881 -21.891812 -42.282826 
0.1864312500000000 -19.614025 -36.504028 -2.049441 -12.441881 -2.221310 -12.440146 -21.852021 -43.416961 
0.1938750000000000 -19.611963 -37.501560 -2.058975 -12.919201 -2.215658 -12.924591 -21.843431 -44.515583 
0.2013187500000000 -19.600376 -38.582222 -2.061790 -13.442615 -2.217421 -13.400129 -21.811723 -45.614033 
0.2087625000000000 -19.594195 -39.592179 -2.062564 -13.918480 -2.220817 -13.853881 -21.784866 -46.708508 
0.2162062500000000 -19.575326 -40.626126 -2.059892 -14.387286 -2.222036 -14.377466 -21.765451 -48.000249 
0.2236500000000000 -19.544546 -41.629405 -2.070658 -14.930843 -2.217805 -14.860170 -21.724305 -49.238241 
0.2310937500000000 -19.510027 -42.716280 -2.071099 -15.386897 -2.232007 -15.285455 -21.733088 -50.362517 
0.2385375000000000 -19.492005 -43.871670 -2.073267 -15.928014 -2.232510 -15.805016 -21.714929 -51.629209 
0.2459812500000000 -19.476025 -45.011637 -2.074935 -16.361099 -2.218461 -16.330817 -21.693113 -52.960642 
0.2534250000000000 -19.454618 -46.165585 -2.077331 -16.882618 -2.223481 -16.797680 -21.667169 -54.289008 
0.2608687500000000 -19.470008 -47.283402 -2.075931 -17.579621 -2.293720 -17.639273 -21.640979 -56.007513 
0.2683125000000000 -19.440164 -48.550934 -2.082825 -18.105344 -2.300033 -18.169776 -21.614947 -57.500747 
0.2757562500000000 -19.409124 -49.822396 -2.082286 -18.616957 -2.304023 -18.603637 -21.568234 -59.018735 
0.2832000000000000 -19.368037 -50.961543 -2.097305 -19.104416 -2.308392 -19.160555 -21.544692 -60.438428 
0.2906437500000000 -19.353433 -52.186230 -2.090722 -19.544298 -2.303521 -19.581909 -21.536546 -61.794475 
0.2980875000000000 -19.333412 -53.115530 -2.089622 -20.004958 -2.305113 -20.070374 -21.478349 -63.018931 
0.3055312500000000 -19.308314 -54.238249 -2.110835 -20.462364 -2.319716 -20.526907 -21.427704 -64.199953 
0.3129750000000000 -19.309393 -55.290929 -2.104664 -20.954494 -2.316245 -20.935726 -21.363189 -65.215753 
0.3204187500000000 -19.294979 -56.212118 -2.114017 -21.418302 -2.323554 -21.436951 -21.307554 -66.370041 
0.3278625000000000 -19.302407 -57.048935 -2.112188 -21.907828 -2.318765 -21.906145 -21.238386 -67.693075 
0.3353062500000000 -19.269478 -57.751806 -2.110571 -22.377712 -2.312925 -22.388327 -21.174924 -68.868169 
0.3427500000000000 -19.257096 -58.641202 -2.114076 -22.826948 -2.315532 -22.892558 -21.123357 -69.883860 
0.3501937500000000 -19.229602 -59.555244 -2.118009 -23.335128 -2.319528 -23.365620 -21.079718 -70.879431 
0.3576375000000000 -19.209279 -60.506587 -2.121488 -23.812673 -2.332751 -23.845209 -21.072385 -71.874719 
0.3650812500000000 -19.190012 -61.561157 -2.126307 -24.311048 -2.326519 -24.312677 -21.021281 -72.616937 
0.3725250000000000 -19.196185 -62.608019 -2.131534 -24.810727 -2.327358 -24.757419 -20.980799 -73.533956 
0.3799687500000000 -19.210699 -63.621494 -2.148339 -25.250109 -2.328798 -25.213293 -20.953897 -74.603464 
0.3874125000000000 -19.212368 -64.632176 -2.146964 -25.726988 -2.337213 -25.703310 -20.910929 -75.640549 
0.3948562500000000 -19.197329 -65.584080 -2.145439 -26.197658 -2.333366 -26.199853 -20.909572 -76.774905 
0.4023000000000000 -19.187039 -66.620545 -2.150292 -26.716297 -2.332905 -26.678591 -20.906275 -77.953535 
0.4097437500000000 -19.150194 -67.628491 -2.155739 -27.184450 -2.334353 -27.230057 -20.909934 -79.109889 
0.4171875000000000 -19.130691 -68.767407 -2.159874 -27.696200 -2.334091 -27.724233 -20.862530 -80.144019 
0.4246312500000000 -19.095909 -70.105568 -2.160727 -28.173793 -2.355396 -28.182560 -20.866636 -81.250351 
0.4320750000000000 -19.066257 -71.247235 -2.163555 -28.653067 -2.356606 -28.664089 -20.841568 -82.297628 
0.4395187500000000 -19.056431 -72.402107 -2.187151 -29.059411 -2.365181 -29.117264 -20.804753 -83.625386 
0.4469625000000000 -19.033312 -73.487309 -2.191521 -29.532191 -2.362043 -29.584909 -20.761534 -84.693246 
0.4544062500000000 -19.007339 -74.460857 -2.185788 -29.992579 -2.371976 -30.043258 -20.732663 -85.794259 
0.4618500000000000 -18.981419 -75.275435 -2.195078 -30.468395 -2.380563 -30.534227 -20.655499 -86.974575 
0.4692937500000000 -18.938408 -76.205817 -2.203950 -30.916991 -2.384515 -30.953888 -20.605123 -87.909260 
0.4767375000000000 -18.886900 -77.061585 -2.204685 -31.409801 -2.387643 -31.426397 -20.524540 -88.827451 
0.4841812500000000 -18.839096 -77.815497 -2.217274 -31.876913 -2.393867 -31.860108 -20.450542 -89.714549 
0.4916250000000000 -18.794949 -78.818419 -2.212721 -32.382955 -2.397743 -32.343940 -20.367702 -90.462878 
0.4990687500000000 -18.774769 -79.602122 -2.216798 -32.893203 -2.395126 -32.803185 -20.292634 -91.433340 
0.5065125000000000 -18.731932 -80.443905 -2.226794 -33.354172 -2.397510 -33.294454 -20.219043 -92.125409 
0.5139562500000000 -18.697498 -81.042441 -2.225780 -33.821650 -2.395664 -33.808916 -20.157548 -92.910198 
0.5214000000000000 -18.667280 -81.877590 -2.233607 -34.282123 -2.402960 -34.289302 -20.108142 -93.563083 
0.5288437500000000 -18.613213 -82.654060 -2.249597 -34.791582 -2.408501 -34.765197 -20.068040 -94.259830 
0.5362875000000000 -18.539433 -83.542707 -2.252523 -35.281086 -2.422853 -35.197825 -20.012279 -95.093369 
0.5437312500000000 -18.512144 -84.498125 -2.269272 -35.727720 -2.430814 -35.646582 -19.951539 -95.824140 
0.5511750000000000 -18.450517 -85.493449 -2.272222 -36.176664 -2.439204 -36.083553 -19.922209 -96.673898 
0.5586187500000001 -18.437467 -86.638579 -2.288260 -36.584998 -2.446060 -36.542235 -19.892079 -97.841003 
0.5660625000000000 -18.404149 -87.645781 -2.296076 -36.998807 -2.444072 -37.001022 -19.864417 -98.986168 
0.5735062500000000 -18.376774 -88.790575 -2.300861 -37.431871 -2.451496 -37.419438 -19.872222 -100.217584 
0.5809500000000000 -18.360845 -89.914941 -2.307820 -37.876181 -2.460005 -37.867045 -19.823533 -101.406958 
0.5883937500000001 -18.337943 -90.976558 -2.301579 -38.272558 -2.471179 -38.255121 -19.811628 -102.648509 
0.5958375000000000 -18.317826 -91.939871 -2.306094 -38.645560 -2.468974 -38.647105 -19.796160 -103.908863 
0.6032812500000000 -18.316160 -93.058687 -2.296116 -39.151752 -2.470519 -39.064100 -19.769247 -105.243734 
0.6107250000000000 -18.304902 -94.051026 -2.308289 -39.571364 -2.463433 -39.469930 -19.743343 -106.430135 
0.6181687500000000 -18.297258 -95.006238 -2.305842 -39.979277 -2.462620 -39.909015 -19.726392 -107.648657 
0.6256125000000000 -18.292377 -95.786168 -2.302531 -40.432444 -2.468193 -40.380560 -19.705977 -108.860573 
0.6330562500000000 -18.270251 -96.661392 -2.297860 -40.922759 -2.462410 -40.849586 -19.681648 -109.920282 
0.6405000000000000 -18.263973 -97.625152 -2.295205 -41.382384 -2.455215 -41.334754 -19.636476 -110.778067 
0.6479437500000000 -18.260488 -98.502018 -2.292221 -41.928664 -2.460176 -41.710833 -19.612464 -111.592192 
0.6553875000000000 -18.248805 -99.327804 -2.306696 -42.390118 -2.454664 -42.167902 -19.587308 -112.321976 
0.6628312500000000 -18.233895 -100.254596 -2.314797 -42.860982 -2.437791 -42.643700 -19.537561 -113.184985 
0.6702750000000000 -18.239300 -101.123732 -2.314011 -43.337520 -2.444504 -43.133693 -19.519557 -113.923641 
0.6777187500000000 -18.233799 -101.961222 -2.312695 -43.836522 -2.444581 -43.682707 -19.520493 -114.807355 
0.6851625000000000 -18.218500 -102.770965 -2.317066 -44.325163 -2.441635 -44.236800 -19.542720 -115.652522 
0.6926062500000000 -18.203903 -103.678455 -2.336214 -44.760541 -2.459965 -44.742337 -19.561800 -116.397766 
0.7000500000000000 -18.207553 -104.516665 -2.343595 -45.207278 -2.476917 -45.231860 -19.572937 -117.056391 
0.7074937500000000 -18.190963 -105.520975 -2.350174 -45.672550 -2.483154 -45.654950 -19.586174 -117.720783 
0.7149375000000000 -18.208911 -106.480862 -2.356680 -46.052593 -2.502011 -46.043969 -19.587395 -118.466908 
0.7223812500000000 -18.240554 -107.169387 -2.358574 -46.447097 -2.504710 -46.440298 -19.603828 -119.315436 
0.7298250000000000 -18.244251 -107.950460 -2.357787 -46.852627 -2.503151 -46.905361 -19.596751 -120.303900 
0.7372687500000000 -18.232826 -108.521223 -2.354677 -47.244597 -2.501465 -47.338986 -19.604814 -121.371354 
0.7447125000000000 -18.226987 -109.174910 -2.342293 -47.776214 -2.498900 -47.790456 -19.609077 -122.390103 
0.7521562500000000 -18.181267 -109.777127 -2.338997 -48.279214 -2.506763 -48.305224 -19.622441 -123.378386 
0.7596000000000001 -18.140616 -110.528380 -2.346004 -48.815800 -2.516391 -48.750779 -19.592463 -124.188663 
0.7670437500000000 -18.132389 -111.336570 -2.351481 -49.269921 -2.523853 -49.141804 -19.569131 -125.005992 
0.7744875000000000 -18.104762 -112.103242 -2.368880 -49.754201 -2.523459 -49.609190 -19.529817 -125.878497 
0.7819312500000000 -18.100903 -112.885625 -2.367264 -50.177078 -2.525976 -50.060279 -19.500532 -126.876090 
0.7893750000000001 -18.099683 -113.677551 -2.375621 -50.629408 -2.521210 -50.490711 -19.459091 -127.619929 
0.7968187500000000 -18.112104 -114.331587 -2.374879 -51.060215 -2.513793 -50.914182 -19.435589 -128.430783 
0.8042625000000000 -18.116449 -115.035924 -2.373899 -51.533639 -2.517459 -51.383614 -19.417108 -129.085927 
0.8117062500000000 -18.121726 -115.628823 -2.372307 -52.047831 -2.521535 -51.895810 -19.377930 -129.858455 
0.8191500000000000 -18.087262 -116.264680 -2.387200 -52.585072 -2.520094 -52.370991 -19.387613 -130.193895 
0.8265937500000000 -18.097150 -117.073051 -2.400509 -53.070632 -2.519303 -52.907166 -19.355148 -130.807751 
0.8340375000000000 -18.081031 -117.780669 -2.407141 -53.472445 -2.527728 -53.371034 -19.359611 -131.455994 
0.8414812500000000 -18.079372 -118.561945 -2.419395 -53.862906 -2.543065 -53.863569 -19.379440 -132.236182 
0.8489250000000000 -18.174344 -119.426737 -2.421288 -54.392752 -2.623154 -54.637723 -19.412497 -133.270771 
0.8563687500000000 -18.179665 -120.255798 -2.411359 -54.818902 -2.641856 -55.167391 -19.444317 -133.845946 
0.8638125000000000 -18.186164 -120.849377 -2.411774 -55.225431 -2.650006 -55.553913 -19.453173 -134.325179 
0.8712562500000000 -18.165493 -121.298797 -2.415191 -55.714338 -2.664830 -55.912502 -19.472274 -134.954912 
0.8787000000000000 -18.171667 -121.951699 -2.413328 -56.265752 -2.667934 -56.356745 -19.459010 -135.731916 
0.8861437500000000 -18.132356 -122.747402 -2.418697 -56.666149 -2.673236 -56.698512 -19.434369 -136.485875 
0.8935875000000000 -18.116721 -123.281088 -2.439036 -57.271310 -2.656452 -57.260780 -19.396501 -137.376704 
0.9010312500000000 -18.090938 -123.665735 -2.414844 -57.472321 -2.664772 -57.465384 -19.403863 -138.241224 
0.9084750000000000 -18.081612 -124.492106 -2.428268 -58.072077 -2.665134 -58.070695 -19.366049 -139.073642 
0.9159187500000000 -18.047869 -125.149054 -2.443009 -58.493569 -2.678085 -58.484804 -19.387603 -139.667355 
0.9233625000000000 -18.036568 -125.579640 -2.437856 -58.990984 -2.671791 -58.924893 -19.348089 -140.368630 
0.9308062500000000 -18.022825 -126.245308 -2.447677 -59.461951 -2.672955 -59.294464 -19.294569 -140.945533 
0.9382500000000000 -18.015958 -126.905044 -2.457239 -59.900555 -2.658284 -59.748519 -19.255721 -141.461131 
0.9456937500000000 -18.020687 -127.571244 -2.471393 -60.403863 -2.661079 -60.231552 -19.225803 -142.214795 
0.9531375000000000 -18.009339 -128.171770 -2.482145 -60.761651 -2.654790 -60.770641 -19.214248 -142.824618 
0.9605812500000001 -18.006915 -128.880963 -2.486277 -61.257441 -2.659136 -61.302927 -19.208762 -143.408259 
0.9680250000000000 -18.049382 -129.556975 -2.487856 -61.583177 -2.667151 -61.890181 -19.232937 -143.891274 
0.9754687500000000 -18.034802 -130.197258 -2.483472 -62.031826 -2.687202 -62.312921 -19.368742 -144.618024 
0.9829125000000000 -18.062439 -130.731408 -2.480475 -62.489157 -2.710119 -62.769384 -19.293097 -144.295557 
0.9903562500000001 -18.052568 -131.214186 -2.490457 -62.916212 -2.710132 -63.179627 -19.306455 -144.522607 
0.9978000000000000 -18.061574 -131.693362 -2.499176 -63.344238 -2.714260 -63.516181 -19.317077 -144.774933 
1.0052437500000000 -18.068602 -132.266862 -2.495725 -63.764305 -2.716551 -63.919255 -19.301752 -145.423855 
1.0126875000000000 -18.073903 -132.855073 -2.499336 -64.211779 -2.712953 -64.368991 -19.351935 -146.035379 
1.0201312499999999 -18.076128 -133.420792 -2.495612 -64.662806 -2.705190 -64.879694 -19.403306 -146.635919 
1.0275749999999999 -18.084342 -133.945032 -2.491109 -65.132130 -2.713231 -65.300132 -19.452011 -147.249611 
1.0350187500000001 -18.074030 -134.502265 -2.497455 -65.592318 -2.735738 -65.776733 -19.503793 -147.871422 
1.0424625000000001 -18.051113 -135.012350 -2.512439 -66.074736 -2.752608 -66.149875 -19.518931 -148.558181 
1.0499062500000000 -18.050323 -135.560591 -2.510465 -66.503760 -2.742199 -66.489100 -19.538337 -149.085647 
1.0573500000000000 -18.056673 -136.423634 -2.520556 -66.930303 -2.740102 -66.954375 -19.516310 -149.989986 
1.0647937500000000 -18.061295 -137.083668 -2.523870 -67.306753 -2.743361 -67.351177 -19.517486 -150.964473 
1.0722375000000000 -18.096649 -137.623924 -2.518017 -67.702223 -2.726315 -67.819944 -19.517961 -151.768425 
1.0796812499999999 -18.119656 -138.211657 -2.511176 -68.194258 -2.736068 -68.287129 -19.565885 -152.440938 
1.0871249999999999 -18.102694 -138.644678 -2.508474 -68.650640 -2.747034 -68.686393 -19.536723 -153.202347 
1.0945687500000001 -18.108831 -138.989873 -2.509867 -69.115003 -2.741957 -69.179896 -19.567163 -153.584668 
1.1020125000000001 -18.109729 -139.714702 -2.511191 -69.568285 -2.752151 -69.590327 -19.553494 -154.022686 
1.1094562500000000 -18.085802 -140.225634 -2.522742 -70.053044 -2.753791 -70.016069 -19.570635 -154.593266 
1.1169000000000000 -18.098407 -140.748398 -2.525815 -70.532594 -2.753701 -70.447433 -19.552127 -154.963167 
1.1243437500000000 -18.093824 -141.451743 -2.533958 -70.984695 -2.739651 -70.937436 -19.563608 -155.634831 
1.1317874999999999 -18.085056 -142.015686 -2.535373 -71.389585 -2.755653 -71.380525 -19.600399 -155.966512 
1.1392312499999999 -18.107017 -142.345462 -2.526002 -71.841648 -2.754207 -71.854328 -19.643850 -156.111638 
1.1466750000000001 -18.082541 -142.769744 -2.534944 -72.289842 -2.756960 -72.348104 -19.665572 -156.516698 
1.1541187500000001 -18.096759 -143.320410 -2.545186 -72.730285 -2.769132 -72.723450 -19.679355 -156.663115 
1.1615625000000001 -18.103101 -143.874344 -2.549425 -73.246401 -2.764681 -73.127379 -19.706619 -157.214826 
1.1690062500000000 -18.072492 -144.235201 -2.559264 -73.704391 -2.769288 -73.590100 -19.738994 -157.813793 
1.1764500000000000 -18.072655 -144.891953 -2.568962 -74.103995 -2.768521 -74.029830 -19.754660 -158.280267 
1.1838937500000000 -18.097852 -145.169374 -2.577368 -74.501200 -2.773350 -74.515693 -19.792168 -158.816787 
1.1913374999999999 -18.131597 -145.725241 -2.578442 -74.811539 -2.781394 -75.050119 -19.889760 -159.586917 
1.1987812499999999 -18.133159 -146.067406 -2.569721 -75.233467 -2.792309 -75.427416 -19.920675 -159.776528 
1.2062250000000001 -18.177009 -146.079459 -2.564228 -75.626484 -2.811034 -75.811950 -19.923614 -160.267334 
1.2136687500000001 -18.197884 -146.371516 -2.551235 -76.103131 -2.811276 -76.167740 -19.893157 -160.671338 
1.2211125000000000 -18.192512 -146.788457 -2.549857 -76.602506 -2.790896 -76.555567 -19.865137 -161.052614 
1.2285562500000000 -18.183509 -147.051580 -2.547936 -77.063023 -2.788013 -77.023091 -19.815250 -161.887127 
1.2360000000000000 -18.211540 -147.553373 -2.549717 -77.596333 -2.782651 -77.433828 -19.863910 -162.414930 
1.2434437500000000 -18.250380 -147.764665 -2.546892 -78.032137 -2.781256 -77.968321 -19.864697 -162.922741 
1.2508874999999999 -18.264664 -148.365534 -2.549429 -78.481272 -2.785950 -78.446684 -19.902955 -163.211113 
1.2583312499999999 -18.256998 -148.732008 -2.552061 -78.927443 -2.798400 -78.843403 -19.918732 -163.347005 
1.2657750000000001 -18.281705 -149.033160 -2.545360 -79.458673 -2.805677 -79.308682 -19.913619 -163.598613 
1.2732187500000001 -18.263508 -149.620919 -2.561311 -79.999908 -2.806104 -79.708548 -19.961227 -163.759901 
1.2806625000000000 -18.281012 -150.094536 -2.560173 -80.553889 -2.810611 -80.152306 -19.973989 -164.107285 
1.2881062500000000 -18.275074 -150.539859 -2.589953 -80.955600 -2.799600 -80.634889 -19.983718 -164.415401 
1.2955500000000000 -18.327113 -150.961509 -2.590828 -81.407715 -2.790413 -81.140560 -20.019090 -164.536626 
1.3029937500000000 -18.298274 -151.625873 -2.604490 -81.759093 -2.806678 -81.573386 -20.117738 -164.895475 
1.3104374999999999 -18.319265 -151.963968 -2.615292 -82.144907 -2.808986 -82.034933 -20.163161 -164.957402 
1.3178812499999999 -18.299529 -152.329841 -2.605651 -82.558515 -2.820403 -82.444369 -20.195919 -164.996436 
1.3253250000000001 -18.309273 -152.612655 -2.601465 -82.978274 -2.822605 -82.879185 -20.222682 -165.137048 
1.3327687500000001 -18.322969 -152.748370 -2.603004 -83.381003 -2.823386 -83.283233 -20.233911 -165.472546 
1.3402125000000000 -18.317855 -153.129709 -2.610059 -83.838960 -2.817781 -83.684381 -20.265225 -166.086181 
1.3476562500000000 -18.351369 -153.472953 -2.613069 -84.257202 -2.813974 -84.156382 -20.278397 -166.596526 
1.3551000000000000 -18.336800 -153.742454 -2.608487 -84.680092 -2.815965 -84.662837 -20.346461 -166.881781 
1.3625437499999999 -18.358775 -154.013522 -2.610198 -85.070249 -2.829597 -85.096981 -20.373114 -167.322953 
1.3699874999999999 -18.361407 -154.190159 -2.605045 -85.520747 -2.827931 -85.557096 -20.404189 -167.307271 
1.3774312500000001 -18.357023 -154.176009 -2.585942 -85.988710 -2.838987 -85.916110 -20.391191 -167.670821 
1.3848750000000001 -18.354071 -154.444290 -2.584274 -86.466107 -2.836728 -86.342323 -20.352067 -168.132090 
1.3923187500000000 -18.360668 -154.734053 -2.575370 -87.006865 -2.818049 -86.752416 -20.337590 -168.354059 
1.3997625000000000 -18.366003 -154.949525 -2.592600 -87.564801 -2.806973 -87.252432 -20.355656 -168.747675 
