!
! C:\Users\Aljaz\OneDrive - Univerza v Ljubljani\DOKTORAT\NOVI SA\Slabilec PE43711B\meritve\prototip2\20dB.S2P
!
! Touchstone 1.1 file saved by VNA.EXE V1.65 (www.ke5fx.com/gpib/readme.htm)
! 18. 04. 2022 18:11:41
!
!    Source: HP8510C.07.14: Aug 26  1998 
!  Min freq: 4.500000E+007 Hz
!  Max freq: 6.000000E+009 Hz
!    Points: 801
!    Params: S11 S21 S12 S22
!
!!!!!
# GHZ S DB R 50
0.0450000000000000 -25.727714 -28.855512 -21.135403 -0.590347 -21.265407 -0.659941 -17.392484 -172.959703 
0.0524437500000000 -25.859910 -27.283759 -21.131698 -1.513988 -21.239241 -1.600938 -17.470765 -175.116431 
0.0598875000000000 -25.944118 -26.821804 -21.140846 -2.191391 -21.248840 -2.135478 -17.489647 -176.783106 
0.0673312500000000 -25.967293 -26.507736 -21.146535 -2.816943 -21.237370 -2.932380 -17.508017 -178.201690 
0.0747750000000000 -25.966116 -26.620418 -21.136898 -3.432587 -21.245071 -3.384681 -17.526505 -179.575835 
0.0822187500000000 -25.999308 -26.498742 -21.133413 -3.980224 -21.251058 -4.024467 -17.541784 179.433432 
0.0896625000000000 -25.974537 -27.021066 -21.142093 -4.489138 -21.252880 -4.475970 -17.562090 178.345708 
0.0971062500000000 -25.938308 -27.456837 -21.141958 -5.124465 -21.237708 -5.039719 -17.562640 177.380801 
0.1045500000000000 -25.921337 -27.805949 -21.150038 -5.622954 -21.237368 -5.581194 -17.575326 176.419954 
0.1119937500000000 -25.907193 -28.547103 -21.143871 -6.162874 -21.242725 -6.149979 -17.580978 175.578474 
0.1194375000000000 -25.899296 -28.951392 -21.154891 -6.655579 -21.229408 -6.639670 -17.606318 174.726279 
0.1268812500000000 -25.896229 -30.059156 -21.155370 -7.128733 -21.238668 -7.060608 -17.604163 173.944089 
0.1343250000000000 -25.804706 -30.686609 -21.158086 -7.460800 -21.237125 -7.575159 -17.621455 173.122360 
0.1417687500000000 -25.796081 -31.216523 -21.159422 -8.061927 -21.236560 -8.119052 -17.629694 172.364441 
0.1492125000000000 -25.795888 -32.139267 -21.144116 -8.428065 -21.242151 -8.511690 -17.646888 171.662419 
0.1566562500000000 -25.783987 -32.770372 -21.148301 -8.957066 -21.254921 -8.976566 -17.653291 170.903529 
0.1641000000000000 -25.752915 -33.885805 -21.164134 -9.452054 -21.251018 -9.481410 -17.662482 170.131913 
0.1715437500000000 -25.713338 -34.811234 -21.170822 -9.878020 -21.252816 -9.921399 -17.674916 169.492336 
0.1789875000000000 -25.695419 -35.838216 -21.163084 -10.404751 -21.241773 -10.413329 -17.696879 168.703867 
0.1864312500000000 -25.687200 -36.567856 -21.154220 -10.838478 -21.259005 -10.861002 -17.706595 167.984974 
0.1938750000000000 -25.670514 -37.519439 -21.170403 -11.230967 -21.234742 -11.323272 -17.722857 167.266528 
0.2013187500000000 -25.638395 -38.706192 -21.162267 -11.758301 -21.241487 -11.785156 -17.721815 166.539577 
0.2087625000000000 -25.629475 -39.723972 -21.157329 -12.259578 -21.252073 -12.197199 -17.727556 165.847851 
0.2162062500000000 -25.599495 -40.742450 -21.168697 -12.672819 -21.254584 -12.707667 -17.739304 165.139121 
0.2236500000000000 -25.568496 -41.863223 -21.169814 -13.100331 -21.256860 -13.094582 -17.747255 164.445381 
0.2310937500000000 -25.539694 -42.943633 -21.177295 -13.639233 -21.261538 -13.556286 -17.747243 163.719420 
0.2385375000000000 -25.498702 -44.035047 -21.184592 -14.061151 -21.261098 -14.013566 -17.750900 163.062735 
0.2459812500000000 -25.445987 -45.199623 -21.182346 -14.445029 -21.254006 -14.444742 -17.746734 162.428396 
0.2534250000000000 -25.410012 -46.260612 -21.173932 -14.942862 -21.261000 -14.877206 -17.739881 161.816004 
0.2608687500000000 -25.369649 -47.591950 -21.179088 -15.476005 -21.290554 -15.454612 -17.749744 161.015093 
0.2683125000000000 -25.286689 -48.683882 -21.184384 -15.980149 -21.284324 -15.901191 -17.763203 160.440391 
0.2757562500000000 -25.203478 -49.897170 -21.180399 -16.314085 -21.282321 -16.393255 -17.753552 159.964412 
0.2832000000000000 -25.146115 -50.795421 -21.204236 -16.831750 -21.297678 -16.886657 -17.766892 159.308452 
0.2906437500000000 -25.112410 -51.722357 -21.194235 -17.142185 -21.300283 -17.314195 -17.775628 158.848309 
0.2980875000000000 -25.011049 -52.613280 -21.201740 -17.696762 -21.292099 -17.696267 -17.802974 158.324343 
0.3055312500000000 -24.941650 -53.647058 -21.204322 -18.060989 -21.303381 -18.101676 -17.796349 157.811555 
0.3129750000000000 -24.879240 -54.491734 -21.187661 -18.529249 -21.304188 -18.665449 -17.836752 157.330077 
0.3204187500000000 -24.788003 -55.313116 -21.189374 -19.025441 -21.304372 -19.046967 -17.850970 156.738437 
0.3278625000000000 -24.776455 -56.153915 -21.193436 -19.480928 -21.308271 -19.443419 -17.896498 156.283293 
0.3353062500000000 -24.695911 -56.885036 -21.199090 -19.912575 -21.299808 -19.998072 -17.933412 155.588987 
0.3427500000000000 -24.635767 -57.675593 -21.198554 -20.445921 -21.304081 -20.457655 -17.974502 155.082563 
0.3501937500000000 -24.587918 -58.437419 -21.220179 -20.829836 -21.312207 -20.819955 -18.000843 154.354357 
0.3576375000000000 -24.566673 -59.326361 -21.218161 -21.277460 -21.312211 -21.293944 -18.033489 153.680469 
0.3650812500000000 -24.496093 -60.154359 -21.229914 -21.691987 -21.309328 -21.750918 -18.075066 152.861661 
0.3725250000000000 -24.448108 -60.831502 -21.218050 -22.102605 -21.316170 -22.081467 -18.096850 152.297228 
0.3799687500000000 -24.434435 -61.728721 -21.235941 -22.504726 -21.317887 -22.589340 -18.131546 151.430762 
0.3874125000000000 -24.382410 -62.477326 -21.217026 -22.984651 -21.330241 -23.012948 -18.144620 150.758494 
0.3948562500000000 -24.312727 -63.492764 -21.226898 -23.401205 -21.327930 -23.436014 -18.155494 150.051448 
0.4023000000000000 -24.303056 -64.371026 -21.245348 -23.908447 -21.315992 -23.907233 -18.165269 149.306925 
0.4097437500000000 -24.267159 -65.102234 -21.239238 -24.282689 -21.337285 -24.341200 -18.165937 148.641417 
0.4171875000000000 -24.224569 -66.047799 -21.238785 -24.768977 -21.344713 -24.834843 -18.175652 147.990118 
0.4246312500000000 -24.189279 -66.940170 -21.246641 -25.171447 -21.343635 -25.206010 -18.181240 147.322813 
0.4320750000000000 -24.101858 -67.986086 -21.229620 -25.572906 -21.337401 -25.742963 -18.201657 146.757434 
0.4395187500000000 -24.072691 -68.758717 -21.237818 -25.982295 -21.349479 -26.144882 -18.212384 146.239369 
0.4469625000000000 -23.991464 -69.724036 -21.240817 -26.461314 -21.348847 -26.555917 -18.219489 145.631881 
0.4544062500000000 -23.926542 -70.516808 -21.246162 -26.891118 -21.353423 -27.017398 -18.243821 145.255040 
0.4618500000000000 -23.837114 -71.400023 -21.255108 -27.412142 -21.356063 -27.474613 -18.273354 144.822014 
0.4692937500000000 -23.784946 -72.148535 -21.258545 -27.885972 -21.362860 -27.824159 -18.303395 144.341939 
0.4767375000000000 -23.700335 -72.849907 -21.246526 -28.387562 -21.374110 -28.234689 -18.346940 143.829021 
0.4841812500000000 -23.597484 -73.508558 -21.254580 -28.712439 -21.364002 -28.722511 -18.408568 143.317174 
0.4916250000000000 -23.516472 -74.340842 -21.282240 -29.171728 -21.381647 -29.199462 -18.481046 142.864394 
0.4990687500000000 -23.443159 -74.920413 -21.275135 -29.636566 -21.385196 -29.606883 -18.534228 142.341352 
0.5065125000000000 -23.367277 -75.534137 -21.290725 -30.078284 -21.386094 -30.009142 -18.622318 141.758762 
0.5139562500000000 -23.264012 -76.132029 -21.294544 -30.527803 -21.396840 -30.463200 -18.684936 141.243670 
0.5214000000000000 -23.187789 -76.722812 -21.302646 -30.919774 -21.396956 -30.854578 -18.757466 140.531326 
0.5288437500000000 -23.120304 -77.366956 -21.321449 -31.240892 -21.399002 -31.324400 -18.825919 139.872956 
0.5362875000000000 -23.036967 -77.914774 -21.321023 -31.737531 -21.407560 -31.723682 -18.891221 139.317536 
0.5437312500000000 -22.944963 -78.648551 -21.333558 -32.004841 -21.422904 -32.111000 -18.949220 138.657399 
0.5511750000000000 -22.884260 -79.377160 -21.338608 -32.387298 -21.419195 -32.592189 -19.003509 138.066094 
0.5586187500000001 -22.819345 -80.148439 -21.333271 -32.848988 -21.431472 -33.027436 -19.030755 137.430831 
0.5660625000000000 -22.742374 -80.986549 -21.335368 -33.183188 -21.434720 -33.352551 -19.043698 136.892779 
0.5735062500000000 -22.705702 -81.869900 -21.334078 -33.562129 -21.442137 -33.703667 -19.052562 136.401169 
0.5809500000000000 -22.679457 -82.963190 -21.334841 -33.985551 -21.442653 -34.119504 -19.065691 135.970178 
0.5883937500000001 -22.622363 -83.836731 -21.328278 -34.461436 -21.453115 -34.494816 -19.053255 135.411613 
0.5958375000000000 -22.543965 -84.954888 -21.340786 -34.741285 -21.437532 -34.919762 -19.042135 134.934947 
0.6032812500000000 -22.525897 -85.968330 -21.330555 -35.251019 -21.435755 -35.330853 -19.038181 134.454896 
0.6107250000000000 -22.468015 -86.917465 -21.331760 -35.678958 -21.441915 -35.695756 -19.039417 134.025835 
0.6181687500000000 -22.408288 -87.951911 -21.333113 -36.040676 -21.442319 -36.175733 -19.039137 133.660512 
0.6256125000000000 -22.356943 -88.787160 -21.330495 -36.559107 -21.440994 -36.518488 -19.062503 133.126715 
0.6330562500000000 -22.266222 -89.687901 -21.346341 -37.070496 -21.428551 -36.994596 -19.083847 132.614112 
0.6405000000000000 -22.208091 -90.541120 -21.341351 -37.471861 -21.424175 -37.373589 -19.105051 132.165863 
0.6479437500000000 -22.170379 -91.313367 -21.337324 -37.931555 -21.423879 -37.781482 -19.132525 131.662450 
0.6553875000000000 -22.100662 -92.029708 -21.360880 -38.238206 -21.433252 -38.225418 -19.199465 131.001046 
0.6628312500000000 -22.042205 -92.694093 -21.363653 -38.601898 -21.418073 -38.645743 -19.241996 130.380563 
0.6702750000000000 -21.971472 -93.188503 -21.352132 -39.059052 -21.422157 -39.030916 -19.294023 129.842207 
0.6777187500000000 -21.930793 -93.851841 -21.341903 -39.508365 -21.424147 -39.604121 -19.341048 129.074300 
0.6851625000000000 -21.869923 -94.425524 -21.350175 -39.921953 -21.419786 -40.032626 -19.384228 128.243567 
0.6926062500000000 -21.830384 -94.895404 -21.355671 -40.259613 -21.435802 -40.585070 -19.425480 127.511467 
0.7000500000000000 -21.790258 -95.374381 -21.357538 -40.689987 -21.441800 -41.024747 -19.468549 126.638809 
0.7074937500000000 -21.762191 -95.989247 -21.345693 -41.115588 -21.446962 -41.459654 -19.503311 125.859222 
0.7149375000000000 -21.745792 -96.510168 -21.340882 -41.491840 -21.451802 -41.816316 -19.519541 125.067919 
0.7223812500000000 -21.706613 -96.992376 -21.325355 -42.008408 -21.469636 -42.211174 -19.553607 124.195647 
0.7298250000000000 -21.683924 -97.696333 -21.329199 -42.499338 -21.466108 -42.585947 -19.572391 123.443083 
0.7372687500000000 -21.655441 -98.327947 -21.317581 -42.976099 -21.460542 -42.985493 -19.582701 122.793929 
0.7447125000000000 -21.630104 -99.087777 -21.328510 -43.438415 -21.458184 -43.490805 -19.608621 122.109033 
0.7521562500000000 -21.593014 -99.727357 -21.336500 -43.976986 -21.468818 -43.876156 -19.624080 121.444053 
0.7596000000000001 -21.551021 -100.446945 -21.359130 -44.301471 -21.463390 -44.262849 -19.638541 120.901913 
0.7670437500000000 -21.513765 -101.177775 -21.363520 -44.735101 -21.473880 -44.755520 -19.673569 120.396596 
0.7744875000000000 -21.466332 -101.955962 -21.362645 -45.084976 -21.469198 -45.180288 -19.702327 119.902061 
0.7819312500000000 -21.395531 -102.540223 -21.360809 -45.505239 -21.476895 -45.546845 -19.751278 119.203759 
0.7893750000000001 -21.353319 -103.395692 -21.369749 -45.924687 -21.471882 -45.969505 -19.796288 118.813224 
0.7968187500000000 -21.269273 -103.964466 -21.364740 -46.318474 -21.472928 -46.427499 -19.847087 118.232539 
0.8042625000000000 -21.219552 -104.578547 -21.366083 -46.848839 -21.458380 -46.868592 -19.906175 117.658744 
0.8117062500000000 -21.169996 -105.078336 -21.363524 -47.313299 -21.474102 -47.266891 -19.972435 117.093163 
0.8191500000000000 -21.095111 -105.645014 -21.380089 -47.751128 -21.464864 -47.757986 -20.040705 116.448190 
0.8265937500000000 -21.040975 -106.016471 -21.389960 -48.110210 -21.472348 -48.183891 -20.105431 115.741844 
0.8340375000000000 -20.990791 -106.536636 -21.373037 -48.443207 -21.484940 -48.609162 -20.182447 115.023634 
0.8414812500000000 -20.927956 -106.848099 -21.384688 -48.860136 -21.482368 -49.105995 -20.232600 114.232145 
0.8489250000000000 -20.914903 -107.424288 -21.389499 -49.402326 -21.532740 -49.677283 -20.327474 113.131236 
0.8563687500000000 -20.849037 -107.880104 -21.347285 -49.944098 -21.513664 -50.089830 -20.375037 112.305284 
0.8638125000000000 -20.843782 -108.487504 -21.370960 -50.326491 -21.540447 -50.518891 -20.429376 111.761324 
0.8712562500000000 -20.776762 -108.917928 -21.380818 -50.780366 -21.539071 -50.870322 -20.472892 110.795917 
0.8787000000000000 -20.761405 -109.641468 -21.386737 -51.223665 -21.550551 -51.309180 -20.508781 109.938951 
0.8861437500000000 -20.752598 -110.041348 -21.386236 -51.498752 -21.576967 -51.692188 -20.548587 109.460566 
0.8935875000000000 -20.716181 -110.822458 -21.425766 -52.045725 -21.564262 -52.137181 -20.616554 108.708010 
0.9010312500000000 -20.672018 -111.106347 -21.383375 -52.360147 -21.555502 -52.400166 -20.604385 108.125220 
0.9084750000000000 -20.622124 -112.141058 -21.405133 -52.967203 -21.567191 -52.828524 -20.666085 107.730466 
0.9159187500000000 -20.581414 -112.711904 -21.416988 -53.281393 -21.572619 -53.224405 -20.749489 107.085389 
0.9233625000000000 -20.528483 -113.237017 -21.406293 -53.752519 -21.566747 -53.735325 -20.781865 106.568905 
0.9308062500000000 -20.470132 -113.973267 -21.413378 -54.179491 -21.581361 -54.018512 -20.852894 106.123252 
0.9382500000000000 -20.415769 -114.467676 -21.418786 -54.489544 -21.566063 -54.443154 -20.934800 105.730752 
0.9456937500000000 -20.372348 -115.018134 -21.410639 -55.069061 -21.569696 -54.929896 -21.008349 105.083530 
0.9531375000000000 -20.298374 -115.556417 -21.446980 -55.432706 -21.544870 -55.413346 -21.098982 104.311777 
0.9605812500000001 -20.211974 -116.088281 -21.432117 -55.865292 -21.568253 -55.903284 -21.211334 103.944828 
0.9680250000000000 -20.186648 -116.532096 -21.416313 -56.134399 -21.548020 -56.333113 -21.305648 103.396735 
0.9754687500000000 -20.104736 -116.991451 -21.418079 -56.602551 -21.583968 -56.753689 -21.410822 102.512634 
0.9829125000000000 -20.051879 -117.394995 -21.428906 -57.069559 -21.590981 -57.258624 -21.512445 101.680324 
0.9903562500000001 -20.021447 -117.755681 -21.430379 -57.470700 -21.606133 -57.590728 -21.614047 100.748839 
0.9978000000000000 -19.972459 -118.108628 -21.438289 -57.755116 -21.598071 -57.984591 -21.711604 99.732748 
1.0052437500000000 -19.928133 -118.513927 -21.434004 -58.313791 -21.585877 -58.352793 -21.773148 98.960365 
1.0126875000000000 -19.900953 -119.087137 -21.454127 -58.768140 -21.594308 -58.755667 -21.861392 97.820657 
1.0201312499999999 -19.886465 -119.355286 -21.442492 -59.226986 -21.602283 -59.235937 -21.923354 97.084759 
1.0275749999999999 -19.847681 -119.935344 -21.443861 -59.602372 -21.604244 -59.640426 -21.960363 96.243704 
1.0350187500000001 -19.841317 -120.417556 -21.430098 -60.129188 -21.622145 -60.137810 -22.009313 95.287945 
1.0424625000000001 -19.802017 -121.000761 -21.450803 -60.404735 -21.620036 -60.442961 -22.040327 94.410792 
1.0499062500000000 -19.788082 -121.546859 -21.446741 -60.952920 -21.619492 -60.726173 -22.121117 93.598957 
1.0573500000000000 -19.752984 -122.292943 -21.447928 -61.228798 -21.630083 -61.226865 -22.155275 92.883665 
1.0647937500000000 -19.723881 -122.900225 -21.452357 -61.671601 -21.627936 -61.630860 -22.154469 92.179665 
1.0722375000000000 -19.707358 -123.422802 -21.437053 -62.030060 -21.614050 -62.068246 -22.223995 91.474010 
1.0796812499999999 -19.654981 -124.083896 -21.444581 -62.630359 -21.639331 -62.436197 -22.282552 90.878386 
1.0871249999999999 -19.612078 -124.730715 -21.451479 -62.990174 -21.623709 -62.949455 -22.342699 90.300542 
1.0945687500000001 -19.552855 -125.220088 -21.462417 -63.535582 -21.641172 -63.328679 -22.441558 89.504938 
1.1020125000000001 -19.516993 -125.822476 -21.468591 -63.933846 -21.638868 -63.796164 -22.520535 88.758252 
1.1094562500000000 -19.444118 -126.356120 -21.462044 -64.265451 -21.624362 -64.080762 -22.606434 88.105392 
1.1169000000000000 -19.407059 -126.809064 -21.467877 -64.639914 -21.635233 -64.613793 -22.699273 87.374690 
1.1243437500000000 -19.371071 -127.285853 -21.472797 -65.019402 -21.632200 -64.961434 -22.790847 86.691945 
1.1317874999999999 -19.300953 -127.699174 -21.488745 -65.470378 -21.644232 -65.416152 -22.880829 85.790710 
1.1392312499999999 -19.263158 -128.127343 -21.456490 -65.873490 -21.652775 -65.912689 -23.014106 84.903281 
1.1466750000000001 -19.196062 -128.493958 -21.483062 -66.339447 -21.663179 -66.342280 -23.087691 83.872647 
1.1541187500000001 -19.164951 -128.956530 -21.490157 -66.760183 -21.646570 -66.620681 -23.190770 82.849146 
1.1615625000000001 -19.144380 -129.380545 -21.487933 -67.149862 -21.649742 -67.045710 -23.228301 81.752906 
1.1690062500000000 -19.098220 -129.749068 -21.481853 -67.613239 -21.642588 -67.535117 -23.308244 80.821659 
1.1764500000000000 -19.091188 -130.224220 -21.505074 -68.044145 -21.648471 -67.887491 -23.405824 79.922867 
1.1838937500000000 -19.048867 -130.492080 -21.488992 -68.352272 -21.661152 -68.344047 -23.497507 79.133118 
1.1913374999999999 -19.042655 -131.025527 -21.477597 -68.699457 -21.665121 -68.831334 -23.517732 77.930421 
1.1987812499999999 -19.004713 -131.406129 -21.467477 -69.357328 -21.662301 -69.204195 -23.599810 77.115970 
1.2062250000000001 -18.990036 -131.796740 -21.479108 -69.770918 -21.683880 -69.597982 -23.661707 76.316880 
1.2136687500000001 -18.941869 -132.354259 -21.492537 -70.218904 -21.692841 -69.958119 -23.739041 75.290314 
1.2211125000000000 -18.939556 -132.950493 -21.485652 -70.664547 -21.663459 -70.366298 -23.824863 74.477797 
1.2285562500000000 -18.887739 -133.449710 -21.486829 -71.235325 -21.683427 -70.699185 -23.922961 73.770215 
1.2360000000000000 -18.884131 -134.039021 -21.481254 -71.556854 -21.676486 -71.085529 -23.996201 72.913054 
1.2434437500000000 -18.827489 -134.482814 -21.502812 -72.072880 -21.671581 -71.594377 -24.131599 72.084428 
1.2508874999999999 -18.806372 -135.043106 -21.501502 -72.498425 -21.676711 -71.959910 -24.228437 71.004423 
1.2583312499999999 -18.763807 -135.548261 -21.517595 -72.873922 -21.676651 -72.550140 -24.369441 70.282473 
1.2657750000000001 -18.728913 -135.875858 -21.522485 -73.275061 -21.688360 -72.806710 -24.438821 69.093418 
1.2732187500000001 -18.668474 -136.493066 -21.531613 -73.670345 -21.698438 -73.261297 -24.582792 67.885945 
1.2806625000000000 -18.641658 -136.878547 -21.521173 -74.032072 -21.705508 -73.680110 -24.684558 66.871539 
1.2881062500000000 -18.629536 -137.228571 -21.545871 -74.416896 -21.681191 -74.072089 -24.806685 65.841059 
1.2955500000000000 -18.584319 -137.613891 -21.519850 -74.875043 -21.677480 -74.563737 -24.952211 64.349439 
1.3029937500000000 -18.549488 -138.017186 -21.533129 -75.213038 -21.690550 -74.960998 -25.025738 63.177807 
1.3104374999999999 -18.534016 -138.346527 -21.521384 -75.650495 -21.701790 -75.449818 -25.140406 61.889058 
1.3178812499999999 -18.481071 -138.801993 -21.531465 -76.063663 -21.688441 -75.834345 -25.230344 60.585070 
1.3253250000000001 -18.469032 -139.140916 -21.523967 -76.587951 -21.711110 -76.271027 -25.311402 59.244207 
1.3327687500000001 -18.447923 -139.571600 -21.530090 -77.022769 -21.700181 -76.573023 -25.437106 57.919883 
1.3402125000000000 -18.425230 -140.042225 -21.534847 -77.384627 -21.691854 -77.025292 -25.490360 56.988029 
1.3476562500000000 -18.401291 -140.438872 -21.540950 -77.872617 -21.702908 -77.431100 -25.541758 55.666821 
1.3551000000000000 -18.377767 -140.971759 -21.535458 -78.256289 -21.716504 -77.929054 -25.674960 54.370267 
1.3625437499999999 -18.351959 -141.424616 -21.539403 -78.831311 -21.698460 -78.280386 -25.749095 53.323300 
1.3699874999999999 -18.329372 -141.896959 -21.523015 -79.218748 -21.710938 -78.697896 -25.850294 52.037421 
1.3774312500000001 -18.295511 -142.310281 -21.543326 -79.652653 -21.704845 -79.115175 -25.949572 50.932214 
1.3848750000000001 -18.254473 -142.799724 -21.545908 -79.983855 -21.727737 -79.498620 -26.051868 49.781291 
