!
! C:\Users\Aljaz\OneDrive - Univerza v Ljubljani\DOKTORAT\NOVI SA\Slabilec PE43711B\meritve\prototip2\2dB.S2P
!
! Touchstone 1.1 file saved by VNA.EXE V1.65 (www.ke5fx.com/gpib/readme.htm)
! 18. 04. 2022 18:01:17
!
!    Source: HP8510C.07.14: Aug 26  1998 
!  Min freq: 4.500000E+007 Hz
!  Max freq: 6.000000E+009 Hz
!    Points: 801
!    Params: S11 S21 S12 S22
!
!!!!!
# GHZ S DB R 50
0.0450000000000000 -19.600710 -22.496062 -3.001613 -1.472475 -3.238637 -1.553854 -28.134535 -64.034671 
0.0524437500000000 -19.664035 -21.888090 -3.000067 -2.366816 -3.223091 -2.512117 -28.715212 -62.277830 
0.0598875000000000 -19.700486 -21.973545 -3.005466 -3.120472 -3.223043 -3.181942 -29.140098 -61.267513 
0.0673312500000000 -19.699119 -22.074670 -3.003510 -3.785640 -3.220478 -3.830761 -29.476791 -60.819143 
0.0747750000000000 -19.683747 -22.489039 -3.003545 -4.437172 -3.213513 -4.431706 -29.692377 -59.981027 
0.0822187500000000 -19.665155 -22.864464 -3.006514 -4.924776 -3.198166 -5.012096 -29.730343 -60.087456 
0.0896625000000000 -19.658387 -23.565845 -3.002458 -5.567524 -3.203977 -5.584293 -29.760702 -60.237605 
0.0971062500000000 -19.657786 -24.345876 -3.007818 -6.120153 -3.198199 -6.129236 -29.744913 -60.873036 
0.1045500000000000 -19.635296 -25.262138 -3.009764 -6.671410 -3.190679 -6.662493 -29.775945 -62.296988 
0.1119937500000000 -19.670973 -26.200836 -3.009962 -7.271930 -3.192802 -7.216165 -29.714965 -63.376618 
0.1194375000000000 -19.673059 -26.982072 -3.011010 -7.749238 -3.184791 -7.754034 -29.703150 -64.375196 
0.1268812500000000 -19.701402 -27.893975 -3.017178 -8.242093 -3.191939 -8.252591 -29.710802 -65.678592 
0.1343250000000000 -19.664359 -28.830142 -3.020053 -8.735435 -3.182545 -8.768985 -29.710185 -66.670616 
0.1417687500000000 -19.675753 -29.728686 -3.023981 -9.283577 -3.193007 -9.268022 -29.626322 -67.881399 
0.1492125000000000 -19.646354 -30.778776 -3.019829 -9.833890 -3.184488 -9.785840 -29.496747 -69.177907 
0.1566562500000000 -19.637808 -31.883830 -3.024045 -10.369532 -3.197681 -10.265295 -29.390618 -70.190577 
0.1641000000000000 -19.624974 -33.024130 -3.034992 -10.819212 -3.195098 -10.799185 -29.247267 -71.479874 
0.1715437500000000 -19.610406 -34.226211 -3.041506 -11.323075 -3.195667 -11.268317 -29.183744 -72.986779 
0.1789875000000000 -19.626271 -35.278965 -3.037056 -11.800763 -3.190437 -11.766438 -29.121522 -74.166582 
0.1864312500000000 -19.606749 -36.452947 -3.033203 -12.299953 -3.196410 -12.236974 -29.019646 -75.497304 
0.1938750000000000 -19.621322 -37.438207 -3.039956 -12.785018 -3.191893 -12.745173 -28.896318 -76.361622 
0.2013187500000000 -19.606396 -38.539108 -3.045677 -13.293125 -3.195545 -13.180925 -28.804328 -77.234715 
0.2087625000000000 -19.584943 -39.620156 -3.038835 -13.777507 -3.198005 -13.667924 -28.702328 -78.551730 
0.2162062500000000 -19.569118 -40.708905 -3.045527 -14.246401 -3.193788 -14.189384 -28.597216 -79.792733 
0.2236500000000000 -19.542507 -41.778531 -3.056282 -14.775447 -3.197189 -14.669880 -28.488073 -81.228454 
0.2310937500000000 -19.532736 -42.962382 -3.051365 -15.260784 -3.206238 -15.075442 -28.417205 -82.472732 
0.2385375000000000 -19.523244 -44.038798 -3.057271 -15.761662 -3.203852 -15.582446 -28.309037 -83.855512 
0.2459812500000000 -19.498743 -45.153176 -3.058338 -16.242203 -3.190576 -16.103881 -28.164828 -85.196401 
0.2534250000000000 -19.483324 -46.220422 -3.056265 -16.743768 -3.200710 -16.576259 -28.074877 -86.567372 
0.2608687500000000 -19.521626 -47.709892 -3.055160 -17.394205 -3.265799 -17.402487 -27.917417 -87.935761 
0.2683125000000000 -19.490866 -48.894545 -3.060547 -17.930010 -3.272063 -17.886131 -27.770490 -89.788795 
0.2757562500000000 -19.447925 -50.037648 -3.059808 -18.383829 -3.265133 -18.401937 -27.606109 -91.511228 
0.2832000000000000 -19.434004 -51.273671 -3.082833 -18.876527 -3.270336 -18.905501 -27.483779 -93.097763 
0.2906437500000000 -19.416602 -52.412341 -3.077956 -19.334974 -3.271770 -19.329493 -27.361583 -94.562630 
0.2980875000000000 -19.396127 -53.326241 -3.069286 -19.830171 -3.274720 -19.845023 -27.205943 -95.527622 
0.3055312500000000 -19.361319 -54.388436 -3.081949 -20.277069 -3.285469 -20.275531 -27.078936 -96.609020 
0.3129750000000000 -19.338510 -55.337514 -3.081077 -20.740749 -3.286546 -20.686909 -26.887663 -97.349980 
0.3204187500000000 -19.290735 -56.438985 -3.092465 -21.234475 -3.292549 -21.169559 -26.745288 -98.404941 
0.3278625000000000 -19.260110 -57.534194 -3.099906 -21.696554 -3.294631 -21.652423 -26.608694 -99.157802 
0.3353062500000000 -19.238118 -58.543859 -3.093571 -22.220984 -3.279555 -22.146229 -26.465495 -100.093940 
0.3427500000000000 -19.228146 -59.625812 -3.096023 -22.613911 -3.287082 -22.622028 -26.356830 -100.657611 
0.3501937500000000 -19.217431 -60.634411 -3.098261 -23.137907 -3.294216 -23.082511 -26.260566 -101.456668 
0.3576375000000000 -19.215383 -61.522615 -3.104738 -23.581000 -3.299668 -23.599075 -26.178299 -102.329648 
0.3650812500000000 -19.205818 -62.453646 -3.110251 -24.111069 -3.297394 -24.050725 -26.111702 -102.822283 
0.3725250000000000 -19.191650 -63.267517 -3.118127 -24.585065 -3.300291 -24.468716 -26.033685 -103.337031 
0.3799687500000000 -19.186270 -64.226224 -3.132322 -24.962203 -3.298898 -24.923150 -25.978433 -104.359625 
0.3874125000000000 -19.161635 -65.151673 -3.118177 -25.536002 -3.307701 -25.430891 -25.883643 -105.170203 
0.3948562500000000 -19.130977 -66.141312 -3.125003 -25.938639 -3.308319 -25.912691 -25.810611 -106.249873 
0.4023000000000000 -19.137593 -67.242673 -3.124658 -26.459720 -3.303467 -26.395768 -25.805313 -107.411387 
0.4097437500000000 -19.123322 -68.149062 -3.136745 -26.920751 -3.308147 -26.966756 -25.747373 -108.587657 
0.4171875000000000 -19.122569 -69.173416 -3.141686 -27.439689 -3.311225 -27.414560 -25.655647 -109.682304 
0.4246312500000000 -19.107306 -70.145454 -3.144515 -27.874685 -3.326638 -27.910469 -25.602870 -110.836662 
0.4320750000000000 -19.061343 -71.133893 -3.139775 -28.364671 -3.319932 -28.389791 -25.502935 -111.746731 
0.4395187500000000 -19.041585 -72.159873 -3.160431 -28.776513 -3.339557 -28.816868 -25.373337 -112.829920 
0.4469625000000000 -19.002318 -73.232633 -3.157000 -29.252952 -3.333769 -29.297912 -25.312262 -113.919939 
0.4544062500000000 -18.967899 -74.303328 -3.160252 -29.715857 -3.338860 -29.759535 -25.185204 -114.763355 
0.4618500000000000 -18.921621 -75.428591 -3.171682 -30.230146 -3.352002 -30.216079 -25.061993 -115.520734 
0.4692937500000000 -18.892925 -76.441632 -3.176273 -30.665927 -3.354174 -30.603286 -24.940994 -116.461467 
0.4767375000000000 -18.861410 -77.396961 -3.170497 -31.180606 -3.359143 -31.090450 -24.832592 -116.821655 
0.4841812500000000 -18.825587 -78.242616 -3.188291 -31.574097 -3.361437 -31.560775 -24.722345 -117.271302 
0.4916250000000000 -18.763104 -79.120561 -3.191602 -32.122612 -3.364843 -32.023128 -24.585310 -117.517963 
0.4990687500000000 -18.723070 -79.982731 -3.196818 -32.610898 -3.362593 -32.485811 -24.463062 -118.053784 
0.5065125000000000 -18.690365 -80.889971 -3.198656 -33.109043 -3.371909 -32.947897 -24.378975 -118.311417 
0.5139562500000000 -18.632717 -81.583632 -3.208106 -33.534302 -3.371694 -33.449119 -24.267334 -118.524079 
0.5214000000000000 -18.617911 -82.603071 -3.215016 -34.021503 -3.380364 -33.939840 -24.231560 -118.902904 
0.5288437500000000 -18.575583 -83.444709 -3.231196 -34.468153 -3.384169 -34.431142 -24.185012 -119.257908 
0.5362875000000000 -18.544083 -84.173170 -3.233669 -34.970194 -3.392129 -34.850400 -24.077346 -119.604211 
0.5437312500000000 -18.507675 -84.835566 -3.247706 -35.367809 -3.396499 -35.290646 -23.987608 -120.056372 
0.5511750000000000 -18.458524 -85.751775 -3.249524 -35.813959 -3.412684 -35.706890 -23.941841 -120.721219 
0.5586187500000001 -18.433887 -86.703949 -3.268901 -36.230969 -3.412022 -36.215689 -23.862182 -121.778598 
0.5660625000000000 -18.378097 -87.621982 -3.274935 -36.640463 -3.418955 -36.629367 -23.786336 -122.880121 
0.5735062500000000 -18.360498 -88.769308 -3.273627 -37.089614 -3.425746 -37.058222 -23.714937 -124.104267 
0.5809500000000000 -18.343855 -89.929558 -3.279173 -37.466734 -3.426443 -37.501848 -23.633487 -125.304892 
0.5883937500000001 -18.321802 -90.981953 -3.273318 -37.946073 -3.437187 -37.910981 -23.551386 -126.600473 
0.5958375000000000 -18.303137 -92.033729 -3.275566 -38.294693 -3.438044 -38.278466 -23.486042 -127.799818 
0.6032812500000000 -18.292165 -93.154533 -3.266731 -38.789079 -3.446850 -38.689859 -23.410526 -129.160504 
0.6107250000000000 -18.257070 -94.236726 -3.285137 -39.202310 -3.434130 -39.079500 -23.324941 -130.389931 
0.6181687500000000 -18.243325 -95.321161 -3.275075 -39.616581 -3.433287 -39.561583 -23.234674 -131.509079 
0.6256125000000000 -18.224065 -96.337243 -3.272725 -40.108401 -3.436659 -39.965191 -23.195396 -132.699662 
0.6330562500000000 -18.184923 -97.382167 -3.283193 -40.578595 -3.428495 -40.443125 -23.102020 -133.618219 
0.6405000000000000 -18.174875 -98.414439 -3.270818 -41.043779 -3.424549 -40.927058 -23.044876 -134.247307 
0.6479437500000000 -18.174267 -99.225862 -3.267361 -41.586793 -3.428761 -41.309437 -23.001811 -135.093890 
0.6553875000000000 -18.149078 -100.015756 -3.278486 -41.959910 -3.431388 -41.779035 -22.952625 -135.510236 
0.6628312500000000 -18.145773 -100.817910 -3.291742 -42.456161 -3.411934 -42.258449 -22.894475 -136.145292 
0.6702750000000000 -18.135689 -101.536803 -3.288855 -42.925013 -3.416255 -42.720153 -22.862353 -136.770849 
0.6777187500000000 -18.103497 -102.312318 -3.296849 -43.415807 -3.412684 -43.248874 -22.848990 -137.418637 
0.6851625000000000 -18.090731 -102.984364 -3.293531 -43.864550 -3.412526 -43.815914 -22.869019 -138.208994 
0.6926062500000000 -18.109430 -103.645225 -3.309313 -44.332179 -3.429884 -44.316421 -22.865385 -138.937753 
0.7000500000000000 -18.113260 -104.244003 -3.315174 -44.752796 -3.444934 -44.811576 -22.916642 -139.483615 
0.7074937500000000 -18.113695 -104.951817 -3.313668 -45.242628 -3.457301 -45.259559 -22.914818 -140.342977 
0.7149375000000000 -18.120575 -105.580740 -3.317686 -45.585131 -3.469372 -45.665490 -22.925016 -140.980008 
0.7223812500000000 -18.118767 -106.188603 -3.322044 -45.996880 -3.466892 -46.024704 -22.955935 -141.743397 
0.7298250000000000 -18.082051 -107.073091 -3.319965 -46.466059 -3.479018 -46.424851 -22.910771 -142.633837 
0.7372687500000000 -18.064319 -107.967026 -3.312389 -46.902185 -3.470682 -46.917814 -22.890788 -143.774927 
0.7447125000000000 -18.057775 -109.027427 -3.302210 -47.411167 -3.469058 -47.375853 -22.863477 -144.765105 
0.7521562500000000 -18.064347 -109.988778 -3.302243 -47.912613 -3.476289 -47.847847 -22.861646 -145.685450 
0.7596000000000001 -18.059001 -110.962959 -3.319821 -48.406679 -3.490037 -48.310361 -22.816237 -146.505688 
0.7670437500000000 -18.076633 -111.793932 -3.327972 -48.847857 -3.490450 -48.703937 -22.768319 -147.126600 
0.7744875000000000 -18.061906 -112.409909 -3.330646 -49.338317 -3.493331 -49.155414 -22.714896 -147.864615 
0.7819312500000000 -18.031505 -113.073443 -3.329424 -49.759877 -3.492790 -49.613061 -22.657403 -148.652460 
0.7893750000000001 -17.992345 -113.886227 -3.344077 -50.178306 -3.490964 -50.020091 -22.599081 -149.263758 
0.7968187500000000 -17.953556 -114.676484 -3.344935 -50.620547 -3.485435 -50.458281 -22.574959 -149.835406 
0.8042625000000000 -17.913492 -115.524903 -3.342733 -51.082985 -3.486390 -50.952640 -22.545761 -150.365962 
0.8117062500000000 -17.925346 -116.327956 -3.346288 -51.643262 -3.487814 -51.431181 -22.484809 -150.913745 
0.8191500000000000 -17.895528 -116.942492 -3.355691 -52.130657 -3.486030 -51.913343 -22.515878 -151.006653 
0.8265937500000000 -17.926729 -117.541336 -3.367540 -52.577668 -3.483898 -52.453224 -22.496973 -151.464413 
0.8340375000000000 -17.926951 -117.890206 -3.370654 -52.992460 -3.490527 -52.889672 -22.493738 -152.021573 
0.8414812500000000 -17.897070 -118.328537 -3.374020 -53.400849 -3.502009 -53.391788 -22.512618 -152.673904 
0.8489250000000000 -17.939145 -119.025299 -3.372345 -53.886003 -3.582924 -54.115357 -22.544617 -153.700917 
0.8563687500000000 -17.917354 -119.792225 -3.365370 -54.367695 -3.596657 -54.700659 -22.588194 -154.269806 
0.8638125000000000 -17.918868 -120.561990 -3.381509 -54.788731 -3.607527 -55.074161 -22.580940 -154.661241 
0.8712562500000000 -17.926250 -121.271089 -3.375157 -55.287067 -3.620438 -55.424801 -22.593611 -155.236386 
0.8787000000000000 -17.960446 -122.026082 -3.381563 -55.758772 -3.626724 -55.904244 -22.625528 -155.834546 
0.8861437500000000 -17.956454 -122.741873 -3.371737 -56.151211 -3.634307 -56.245088 -22.567272 -156.378698 
0.8935875000000000 -17.948452 -123.505313 -3.405932 -56.757841 -3.627374 -56.734059 -22.544958 -157.363457 
0.9010312500000000 -17.930092 -123.907405 -3.378389 -57.009007 -3.624734 -57.008513 -22.512046 -158.200761 
0.9084750000000000 -17.886533 -124.901619 -3.381411 -57.594130 -3.629999 -57.563639 -22.468859 -158.804227 
0.9159187500000000 -17.867625 -125.635263 -3.408122 -58.014647 -3.639425 -57.986164 -22.471913 -159.148131 
0.9233625000000000 -17.842131 -126.331840 -3.399063 -58.523115 -3.637055 -58.414957 -22.423886 -159.814239 
0.9308062500000000 -17.823912 -127.085609 -3.405856 -58.940818 -3.627910 -58.831346 -22.349970 -160.081016 
0.9382500000000000 -17.829922 -127.748068 -3.419498 -59.399875 -3.616459 -59.241779 -22.322284 -160.444331 
0.9456937500000000 -17.817246 -128.313329 -3.434105 -59.851589 -3.619049 -59.730392 -22.278026 -160.902897 
0.9531375000000000 -17.776756 -128.768426 -3.447560 -60.229316 -3.619212 -60.219918 -22.277433 -161.312611 
0.9605812500000001 -17.737046 -129.234074 -3.433746 -60.716923 -3.621942 -60.779694 -22.265803 -161.646694 
0.9680250000000000 -17.723977 -129.872327 -3.436397 -61.057901 -3.635152 -61.332285 -22.265800 -162.028889 
0.9754687500000000 -17.701131 -130.488128 -3.435601 -61.540424 -3.648122 -61.803062 -22.417907 -162.954799 
0.9829125000000000 -17.708816 -130.959125 -3.442816 -61.974907 -3.665698 -62.254256 -22.389619 -162.140211 
0.9903562500000001 -17.708625 -131.480314 -3.439345 -62.421749 -3.676183 -62.588385 -22.448380 -162.337454 
0.9978000000000000 -17.722146 -131.824987 -3.447714 -62.890662 -3.669587 -62.952938 -22.472991 -162.407639 
1.0052437500000000 -17.743717 -132.298069 -3.452489 -63.297644 -3.679481 -63.377614 -22.469340 -163.014500 
1.0126875000000000 -17.750007 -132.823807 -3.450598 -63.774653 -3.667338 -63.828560 -22.560076 -163.566407 
1.0201312499999999 -17.747839 -133.320716 -3.445101 -64.168591 -3.663234 -64.327941 -22.605978 -163.996244 
1.0275749999999999 -17.757355 -134.019836 -3.450342 -64.607675 -3.666669 -64.810233 -22.665490 -164.762599 
1.0350187500000001 -17.775198 -134.728446 -3.448038 -65.083180 -3.700705 -65.209715 -22.725748 -165.409459 
1.0424625000000001 -17.787404 -135.418088 -3.464924 -65.524780 -3.712857 -65.629714 -22.737015 -166.128663 
1.0499062500000000 -17.810898 -135.987429 -3.469885 -66.035923 -3.707699 -65.933037 -22.771439 -166.567662 
1.0573500000000000 -17.804170 -136.780274 -3.472218 -66.459327 -3.701721 -66.360506 -22.740393 -167.210213 
1.0647937500000000 -17.788543 -137.401704 -3.480216 -66.791808 -3.702990 -66.797540 -22.714145 -168.361980 
1.0722375000000000 -17.771792 -137.992045 -3.468257 -67.213511 -3.685946 -67.252045 -22.716926 -168.986026 
1.0796812499999999 -17.745040 -138.843890 -3.458302 -67.714608 -3.697237 -67.675767 -22.735235 -169.709079 
1.0871249999999999 -17.682328 -139.606577 -3.463817 -68.186016 -3.698725 -68.148390 -22.742639 -170.296733 
1.0945687500000001 -17.693999 -140.231343 -3.469612 -68.608161 -3.706538 -68.568735 -22.772570 -170.509992 
1.1020125000000001 -17.722153 -140.965192 -3.473365 -69.076717 -3.709508 -69.026758 -22.770708 -170.862458 
1.1094562500000000 -17.721020 -141.387723 -3.470371 -69.585857 -3.705221 -69.412917 -22.768050 -171.373364 
1.1169000000000000 -17.715820 -141.676873 -3.486941 -70.057289 -3.714836 -69.861095 -22.778393 -171.585157 
1.1243437500000000 -17.711967 -142.047106 -3.492121 -70.469781 -3.695998 -70.336271 -22.770149 -172.139909 
1.1317874999999999 -17.668712 -142.477654 -3.489837 -70.884950 -3.703407 -70.812964 -22.837854 -172.377724 
1.1392312499999999 -17.645768 -142.824097 -3.488749 -71.332048 -3.712773 -71.264911 -22.913925 -172.387381 
1.1466750000000001 -17.636684 -143.354548 -3.496292 -71.753599 -3.714528 -71.730415 -22.952947 -172.653317 
1.1541187500000001 -17.675184 -143.899088 -3.499888 -72.232701 -3.717625 -72.121547 -23.000154 -172.469830 
1.1615625000000001 -17.716045 -144.481854 -3.498138 -72.743812 -3.726788 -72.550174 -23.061275 -173.140308 
1.1690062500000000 -17.737701 -144.784831 -3.502590 -73.169913 -3.729122 -72.989694 -23.083829 -173.724868 
1.1764500000000000 -17.745160 -145.172199 -3.515282 -73.587680 -3.726925 -73.434514 -23.139708 -173.993454 
1.1838937500000000 -17.751644 -145.364188 -3.517904 -73.956653 -3.726839 -73.890821 -23.166456 -174.490446 
1.1913374999999999 -17.750373 -145.868721 -3.522705 -74.288440 -3.740571 -74.426652 -23.276239 -175.418450 
1.1987812499999999 -17.723982 -146.431679 -3.508482 -74.784848 -3.753151 -74.819772 -23.331146 -175.537337 
1.2062250000000001 -17.738260 -146.899588 -3.510205 -75.191242 -3.767213 -75.207963 -23.334374 -175.998966 
1.2136687500000001 -17.734236 -147.665321 -3.501837 -75.676256 -3.774365 -75.527600 -23.334862 -176.092009 
1.2211125000000000 -17.746636 -148.291871 -3.496424 -76.135641 -3.761121 -75.906211 -23.323211 -176.389485 
1.2285562500000000 -17.737976 -148.753707 -3.508130 -76.609684 -3.744274 -76.366429 -23.252520 -176.886812 
1.2360000000000000 -17.751731 -149.179180 -3.505519 -77.135277 -3.745831 -76.803864 -23.301748 -177.451579 
1.2434437500000000 -17.750766 -149.602447 -3.504020 -77.569424 -3.740202 -77.339623 -23.331680 -177.808742 
1.2508874999999999 -17.718128 -150.066456 -3.500587 -77.984005 -3.739231 -77.759677 -23.355944 -177.876642 
1.2583312499999999 -17.686527 -150.571462 -3.506145 -78.441558 -3.752024 -78.234234 -23.399671 -177.823867 
1.2657750000000001 -17.710667 -151.083696 -3.507895 -78.994604 -3.754862 -78.703279 -23.449385 -177.830893 
1.2732187500000001 -17.717786 -151.657128 -3.518124 -79.504511 -3.765513 -79.046625 -23.489614 -177.863310 
1.2806625000000000 -17.765960 -151.874816 -3.519957 -80.013895 -3.759915 -79.503710 -23.517219 -178.010613 
1.2881062500000000 -17.790309 -152.057717 -3.543057 -80.371263 -3.751878 -79.997945 -23.533717 -178.226904 
1.2955500000000000 -17.834234 -152.096442 -3.542925 -80.816473 -3.748167 -80.491209 -23.650232 -177.969907 
1.3029937500000000 -17.776313 -152.467856 -3.563050 -81.235207 -3.763513 -80.960636 -23.755180 -178.356307 
1.3104374999999999 -17.771324 -152.757329 -3.562119 -81.673138 -3.771691 -81.378208 -23.826650 -178.281571 
1.3178812499999999 -17.770349 -153.172552 -3.556552 -82.011036 -3.780109 -81.790420 -23.905178 -178.149404 
1.3253250000000001 -17.767390 -153.658703 -3.547733 -82.481150 -3.776183 -82.227782 -23.961159 -178.189189 
1.3327687500000001 -17.813711 -154.058115 -3.555558 -82.904372 -3.780095 -82.605867 -24.004278 -178.214852 
1.3402125000000000 -17.843657 -154.539224 -3.560793 -83.322020 -3.772699 -83.017626 -24.044931 -178.763790 
1.3476562500000000 -17.855036 -154.809510 -3.554631 -83.734822 -3.773331 -83.465709 -24.072523 -179.189578 
1.3551000000000000 -17.840361 -155.268545 -3.555225 -84.197711 -3.772732 -83.998484 -24.142706 -179.322110 
1.3625437499999999 -17.821546 -155.768459 -3.558765 -84.597626 -3.781951 -84.410417 -24.243246 -179.601002 
1.3699874999999999 -17.787867 -156.309301 -3.554724 -85.062762 -3.782476 -84.912260 -24.273500 -179.562077 
1.3774312500000001 -17.771496 -156.878020 -3.542832 -85.520638 -3.800667 -85.233210 -24.268033 -179.521266 
1.3848750000000001 -17.769080 -157.533979 -3.540040 -86.020184 -3.789107 -85.638429 -24.214150 -179.618318 
1.3923187500000000 -17.811566 -158.036438 -3.540459 -86.549417 -3.781187 -86.037983 -24.202594 -179.627693 
