!
! C:\Users\Aljaz\OneDrive - Univerza v Ljubljani\DOKTORAT\NOVI SA\Slabilec PE43711B\meritve\prototip2\30dB.S2P
!
! Touchstone 1.1 file saved by VNA.EXE V1.65 (www.ke5fx.com/gpib/readme.htm)
! 18. 04. 2022 18:10:23
!
!    Source: HP8510C.07.14: Aug 26  1998 
!  Min freq: 4.500000E+007 Hz
!  Max freq: 6.000000E+009 Hz
!    Points: 801
!    Params: S11 S21 S12 S22
!
!!!!!
# GHZ S DB R 50
0.0450000000000000 -31.669415 -58.874985 -31.185491 -0.324815 -31.299759 -0.563923 -16.726914 -173.635283 
0.0524437500000000 -32.311037 -56.186124 -31.168614 -1.138695 -31.298598 -1.454906 -16.780046 -175.708427 
0.0598875000000000 -32.692772 -54.678143 -31.182790 -1.932841 -31.327306 -1.979370 -16.790447 -177.334623 
0.0673312500000000 -32.976261 -53.328730 -31.160761 -2.469472 -31.322607 -2.646870 -16.817198 -178.793887 
0.0747750000000000 -33.157165 -52.211992 -31.195112 -3.068846 -31.310272 -3.029373 -16.826927 179.912007 
0.0822187500000000 -33.330079 -50.758928 -31.156724 -3.697999 -31.285803 -3.721314 -16.848516 178.953789 
0.0896625000000000 -33.403732 -50.750000 -31.186861 -4.151659 -31.301764 -4.231209 -16.870565 177.920223 
0.0971062500000000 -33.467652 -49.859684 -31.170039 -4.736545 -31.315789 -4.697865 -16.863955 176.890971 
0.1045500000000000 -33.456885 -49.406515 -31.169801 -5.167044 -31.265260 -5.111898 -16.880300 175.973768 
0.1119937500000000 -33.433773 -49.469388 -31.163720 -5.732994 -31.306087 -5.567712 -16.876443 175.063563 
0.1194375000000000 -33.548846 -49.735714 -31.168232 -6.153346 -31.302803 -6.171032 -16.903185 174.258330 
0.1268812500000000 -33.517613 -50.055104 -31.181021 -6.574766 -31.314401 -6.519117 -16.901906 173.437465 
0.1343250000000000 -33.416413 -50.016410 -31.164739 -6.910575 -31.299356 -7.047354 -16.916306 172.648411 
0.1417687500000000 -33.410543 -50.205556 -31.175482 -7.485476 -31.292931 -7.335177 -16.934872 171.885532 
0.1492125000000000 -33.378158 -50.749339 -31.164109 -7.718803 -31.291103 -7.952618 -16.936971 171.125587 
0.1566562500000000 -33.387780 -50.802902 -31.180411 -8.371121 -31.314484 -8.431158 -16.945830 170.393575 
0.1641000000000000 -33.311717 -51.516813 -31.169948 -8.762843 -31.274644 -8.734303 -16.964590 169.674771 
0.1715437500000000 -33.237334 -52.209502 -31.197996 -9.289493 -31.299935 -9.143939 -16.974688 168.930917 
0.1789875000000000 -33.142904 -53.556874 -31.181148 -9.475996 -31.291241 -9.614272 -16.980584 168.189282 
0.1864312500000000 -33.193898 -54.284764 -31.170572 -10.056195 -31.268200 -10.022798 -16.994724 167.407133 
0.1938750000000000 -33.084288 -55.001520 -31.209080 -10.499007 -31.294238 -10.446552 -17.009035 166.712101 
0.2013187500000000 -33.019719 -55.994437 -31.200900 -10.923156 -31.291299 -10.842813 -17.010228 166.008857 
0.2087625000000000 -32.933556 -57.148350 -31.218161 -11.352422 -31.273546 -11.315829 -17.022485 165.274433 
0.2162062500000000 -32.879634 -57.952509 -31.196271 -11.722183 -31.296454 -11.845775 -17.025922 164.512935 
0.2236500000000000 -32.789141 -59.287084 -31.214592 -11.958458 -31.297785 -12.046552 -17.037395 163.845828 
0.2310937500000000 -32.676608 -60.047736 -31.219111 -12.679122 -31.307649 -12.650591 -17.032152 163.117171 
0.2385375000000000 -32.592606 -61.205535 -31.196905 -13.000119 -31.313422 -12.873497 -17.033923 162.482688 
0.2459812500000000 -32.482457 -62.421936 -31.210658 -13.566038 -31.292107 -13.457044 -17.032427 161.813576 
0.2534250000000000 -32.345661 -63.076584 -31.220640 -13.882867 -31.278330 -13.797845 -17.043079 161.219862 
0.2608687500000000 -32.181032 -64.557471 -31.210807 -14.044917 -31.314695 -14.615980 -17.046465 160.292822 
0.2683125000000000 -32.085261 -65.519145 -31.222827 -14.868000 -31.318373 -14.792806 -17.048915 159.727337 
0.2757562500000000 -31.901727 -66.514462 -31.222775 -15.350031 -31.319924 -15.591728 -17.050959 159.257065 
0.2832000000000000 -31.734011 -67.303380 -31.206538 -15.654403 -31.334212 -15.628515 -17.062210 158.617635 
0.2906437500000000 -31.638996 -68.052878 -31.250710 -15.933336 -31.335263 -16.257065 -17.061900 158.088637 
0.2980875000000000 -31.436765 -68.521900 -31.231668 -16.577767 -31.297375 -16.416385 -17.088751 157.588397 
0.3055312500000000 -31.342986 -69.176496 -31.224504 -16.804618 -31.281830 -16.822964 -17.091944 157.006763 
0.3129750000000000 -31.209893 -69.554138 -31.218570 -17.391856 -31.360687 -17.219965 -17.135891 156.513728 
0.3204187500000000 -30.988071 -70.046497 -31.210699 -17.642207 -31.363307 -17.617294 -17.148064 155.869726 
0.3278625000000000 -30.952614 -70.743072 -31.200852 -18.038418 -31.366763 -18.106865 -17.180749 155.359931 
0.3353062500000000 -30.835973 -71.038019 -31.198429 -18.653866 -31.365787 -18.633175 -17.210589 154.699138 
0.3427500000000000 -30.729267 -71.690446 -31.228259 -19.345750 -31.349626 -18.853008 -17.241637 154.152161 
0.3501937500000000 -30.643201 -71.957532 -31.240360 -19.502720 -31.331022 -19.638783 -17.275713 153.453513 
0.3576375000000000 -30.585614 -72.751723 -31.257919 -19.912972 -31.358664 -19.734013 -17.309446 152.728603 
0.3650812500000000 -30.448157 -72.811933 -31.262399 -20.268387 -31.320465 -20.127299 -17.346881 151.956969 
0.3725250000000000 -30.376940 -73.486220 -31.240686 -20.736848 -31.366383 -20.689774 -17.370734 151.355395 
0.3799687500000000 -30.329246 -74.106134 -31.241399 -20.926311 -31.402314 -20.972933 -17.380199 150.529614 
0.3874125000000000 -30.232605 -74.410047 -31.227737 -21.532351 -31.398692 -21.427492 -17.400616 149.872448 
0.3948562500000000 -30.170226 -75.327386 -31.261614 -21.898256 -31.363434 -21.951944 -17.415487 149.131443 
0.4023000000000000 -30.093666 -76.204800 -31.244978 -22.552070 -31.380795 -22.416048 -17.416157 148.359756 
0.4097437500000000 -29.993629 -76.653484 -31.248442 -22.823201 -31.350989 -22.689125 -17.427432 147.717915 
0.4171875000000000 -29.944540 -77.498015 -31.263390 -22.979751 -31.336558 -23.229288 -17.437236 147.097492 
0.4246312500000000 -29.852110 -78.472861 -31.274291 -23.426125 -31.393861 -23.562463 -17.431963 146.382998 
0.4320750000000000 -29.690897 -79.204156 -31.249096 -23.850670 -31.363241 -24.015648 -17.455905 145.890676 
0.4395187500000000 -29.604816 -79.634316 -31.280729 -24.197516 -31.387661 -24.481195 -17.475769 145.264533 
0.4469625000000000 -29.455153 -80.705761 -31.275810 -24.756831 -31.427034 -24.797046 -17.494788 144.671017 
0.4544062500000000 -29.395952 -81.131775 -31.256405 -25.169136 -31.366788 -25.283367 -17.509735 144.219682 
0.4618500000000000 -29.214212 -81.674354 -31.283137 -25.460494 -31.404205 -25.679378 -17.536108 143.751906 
0.4692937500000000 -29.104939 -82.223034 -31.256705 -25.938121 -31.417769 -25.835412 -17.564692 143.247344 
0.4767375000000000 -28.905723 -82.627836 -31.240167 -26.458091 -31.398083 -26.568678 -17.599335 142.660250 
0.4841812500000000 -28.787551 -82.782530 -31.266840 -26.615115 -31.387817 -26.825250 -17.670246 142.176337 
0.4916250000000000 -28.623875 -83.324974 -31.301069 -27.016550 -31.391861 -27.369631 -17.733118 141.612315 
0.4990687500000000 -28.460720 -83.531302 -31.300336 -27.862100 -31.417661 -27.724138 -17.773281 140.984895 
0.5065125000000000 -28.354589 -83.848953 -31.326212 -27.982138 -31.393431 -28.000410 -17.855095 140.404731 
0.5139562500000000 -28.208251 -83.915354 -31.329634 -28.581846 -31.442388 -28.418336 -17.918909 139.906154 
0.5214000000000000 -28.086533 -84.075607 -31.333355 -28.951474 -31.461017 -28.743436 -17.990018 139.250297 
0.5288437500000000 -27.942079 -84.381925 -31.341317 -29.114346 -31.402220 -29.320481 -18.055397 138.492408 
0.5362875000000000 -27.781091 -84.773097 -31.359143 -29.560168 -31.451203 -29.770474 -18.105485 137.910250 
0.5437312500000000 -27.673067 -85.079386 -31.328724 -29.935703 -31.461029 -29.838193 -18.166803 137.275705 
0.5511750000000000 -27.547911 -85.751190 -31.352487 -30.208182 -31.444586 -30.391566 -18.207543 136.604545 
0.5586187500000001 -27.440987 -86.365702 -31.338547 -30.608016 -31.437186 -30.635089 -18.242203 136.033917 
0.5660625000000000 -27.351486 -87.074107 -31.330037 -30.809022 -31.434455 -31.058837 -18.251990 135.429686 
0.5735062500000000 -27.230099 -88.077793 -31.346311 -31.252332 -31.477380 -31.321015 -18.266604 134.907591 
0.5809500000000000 -27.165767 -89.017435 -31.357332 -31.763413 -31.482145 -31.650188 -18.265106 134.479800 
0.5883937500000001 -27.062931 -89.926071 -31.331658 -32.247499 -31.488448 -32.142118 -18.269657 133.847554 
0.5958375000000000 -26.971940 -91.038922 -31.343478 -32.373128 -31.466008 -32.407185 -18.250083 133.420438 
0.6032812500000000 -26.901404 -92.068629 -31.369222 -32.778854 -31.482634 -32.798156 -18.255190 132.930000 
0.6107250000000000 -26.794245 -93.203292 -31.348564 -33.015581 -31.454972 -33.199349 -18.248753 132.414418 
0.6181687500000000 -26.709497 -94.087298 -31.351268 -33.573046 -31.440614 -33.694588 -18.260013 131.967801 
0.6256125000000000 -26.618992 -95.003208 -31.343108 -33.991029 -31.471043 -34.248682 -18.274868 131.424455 
0.6330562500000000 -26.516864 -95.634830 -31.385748 -34.561975 -31.469772 -34.557951 -18.299031 130.917823 
0.6405000000000000 -26.399523 -96.440544 -31.369440 -34.916111 -31.458398 -34.637894 -18.318920 130.442275 
0.6479437500000000 -26.315848 -96.952248 -31.342342 -35.415289 -31.470049 -35.185329 -18.353469 129.838912 
0.6553875000000000 -26.231378 -97.534706 -31.374313 -35.672738 -31.477536 -35.554336 -18.410137 129.157248 
0.6628312500000000 -26.108696 -97.845018 -31.356681 -35.920440 -31.438605 -36.001596 -18.449284 128.589854 
0.6702750000000000 -26.037134 -98.231373 -31.383474 -36.272147 -31.458306 -36.263297 -18.495487 127.943013 
0.6777187500000000 -25.952051 -98.843433 -31.361979 -36.857355 -31.447757 -36.959716 -18.529688 127.147800 
0.6851625000000000 -25.848997 -99.139622 -31.345536 -37.215684 -31.446259 -37.495673 -18.575836 126.400544 
0.6926062500000000 -25.810329 -99.362370 -31.336282 -37.295940 -31.450441 -37.857431 -18.605212 125.583549 
0.7000500000000000 -25.742932 -99.637030 -31.391127 -37.813787 -31.457899 -38.175937 -18.651642 124.806056 
0.7074937500000000 -25.707550 -99.896968 -31.366947 -38.466194 -31.487914 -38.588709 -18.676382 123.930025 
0.7149375000000000 -25.684928 -100.255383 -31.343540 -38.795264 -31.489290 -38.829906 -18.704687 123.151663 
0.7223812500000000 -25.649026 -100.442514 -31.359748 -39.058086 -31.486018 -39.208338 -18.729200 122.356639 
0.7298250000000000 -25.593741 -101.118945 -31.370102 -39.834325 -31.492113 -39.650312 -18.750484 121.610728 
0.7372687500000000 -25.544982 -101.541239 -31.346903 -40.133154 -31.465593 -40.032644 -18.758856 120.873426 
0.7447125000000000 -25.541223 -102.231558 -31.367132 -40.466175 -31.466684 -40.524086 -18.782078 120.157706 
0.7521562500000000 -25.455384 -102.686079 -31.318324 -40.939412 -31.495993 -40.792756 -18.798636 119.562627 
0.7596000000000001 -25.389461 -103.291381 -31.386758 -41.220443 -31.486416 -41.355474 -18.808274 118.954295 
0.7670437500000000 -25.338752 -103.890197 -31.395578 -41.721166 -31.491651 -41.709358 -18.848764 118.329801 
0.7744875000000000 -25.259302 -104.597626 -31.400521 -41.973784 -31.508195 -42.144122 -18.882566 117.772681 
0.7819312500000000 -25.168806 -105.145980 -31.381106 -42.374935 -31.502481 -42.521170 -18.904282 117.138025 
0.7893750000000001 -25.083598 -105.714954 -31.376837 -42.949367 -31.484574 -42.870116 -18.955022 116.610121 
0.7968187500000000 -24.993413 -106.156117 -31.378980 -43.292749 -31.492328 -43.220957 -19.008866 116.067981 
0.8042625000000000 -24.881628 -106.565019 -31.391789 -43.730668 -31.498218 -43.630792 -19.057496 115.484578 
0.8117062500000000 -24.803243 -106.971292 -31.404085 -43.983126 -31.492715 -44.262907 -19.124753 114.860030 
0.8191500000000000 -24.701236 -107.275839 -31.380130 -44.511606 -31.489619 -44.374869 -19.175168 114.188314 
0.8265937500000000 -24.601430 -107.466976 -31.392612 -45.041585 -31.511490 -45.011633 -19.244691 113.481145 
0.8340375000000000 -24.536617 -107.659465 -31.414266 -45.300520 -31.504658 -45.045050 -19.307211 112.745452 
0.8414812500000000 -24.444341 -107.966276 -31.372136 -45.460756 -31.493906 -45.689305 -19.350953 111.980315 
0.8489250000000000 -24.432491 -107.988798 -31.409629 -45.794743 -31.534243 -46.150341 -19.440480 110.825640 
0.8563687500000000 -24.369095 -108.521247 -31.352515 -46.504953 -31.511546 -46.670959 -19.481486 110.130699 
0.8638125000000000 -24.313849 -108.778510 -31.384462 -46.964947 -31.565892 -47.242189 -19.534613 109.299727 
0.8712562500000000 -24.213979 -109.135563 -31.382028 -47.553649 -31.560785 -47.557007 -19.591398 108.494295 
0.8787000000000000 -24.210821 -109.617418 -31.365602 -47.931025 -31.553359 -47.908822 -19.621364 107.618402 
0.8861437500000000 -24.175738 -109.931312 -31.385706 -48.054071 -31.578808 -48.247542 -19.639423 107.003916 
0.8935875000000000 -24.131396 -110.601322 -31.450283 -48.698813 -31.573938 -48.589036 -19.714727 106.381187 
0.9010312500000000 -24.036813 -110.827215 -31.413045 -48.767975 -31.546808 -48.751911 -19.708527 105.720399 
0.9084750000000000 -24.009725 -111.637200 -31.377168 -49.567813 -31.614407 -49.124926 -19.760253 105.267239 
0.9159187500000000 -23.916979 -111.986819 -31.404863 -49.657363 -31.565855 -49.672750 -19.837079 104.473778 
0.9233625000000000 -23.838640 -112.594492 -31.402818 -50.069873 -31.644443 -50.130265 -19.870355 103.957385 
0.9308062500000000 -23.748222 -113.185334 -31.390850 -50.693749 -31.561167 -50.529135 -19.934228 103.591159 
0.9382500000000000 -23.685365 -113.782033 -31.418135 -51.063131 -31.617306 -51.148070 -20.001402 102.925964 
0.9456937500000000 -23.592497 -113.947052 -31.400574 -51.382991 -31.578116 -51.350223 -20.082343 102.268899 
0.9531375000000000 -23.460918 -114.323787 -31.475240 -51.454374 -31.565510 -51.815223 -20.160148 101.609457 
0.9605812500000001 -23.396245 -114.735195 -31.402641 -52.350684 -31.559858 -51.868213 -20.248028 101.109691 
0.9680250000000000 -23.303740 -115.012065 -31.408797 -52.516784 -31.574847 -52.710029 -20.331584 100.374709 
0.9754687500000000 -23.225416 -115.484527 -31.426773 -53.304408 -31.588310 -52.665794 -20.453224 99.477462 
0.9829125000000000 -23.145681 -115.535827 -31.446221 -53.132135 -31.617073 -53.116374 -20.510439 98.728364 
0.9903562500000001 -23.055733 -115.832720 -31.365467 -53.566467 -31.613364 -53.655681 -20.592379 97.827978 
0.9978000000000000 -23.006042 -115.883881 -31.407987 -54.077062 -31.614864 -53.975837 -20.694255 96.946768 
1.0052437500000000 -22.938914 -116.242861 -31.469991 -54.400702 -31.596896 -54.476333 -20.744367 95.968621 
1.0126875000000000 -22.908753 -116.629269 -31.451756 -54.541859 -31.594058 -54.779914 -20.823081 94.989931 
1.0201312499999999 -22.866366 -116.730927 -31.460137 -55.562650 -31.587190 -55.156339 -20.888194 94.158062 
1.0275749999999999 -22.829444 -117.076814 -31.442300 -55.919516 -31.592972 -55.742286 -20.926223 93.118862 
1.0350187500000001 -22.762087 -117.614298 -31.423754 -55.967777 -31.593790 -55.994411 -20.969078 92.302522 
1.0424625000000001 -22.752905 -117.993056 -31.424422 -56.288482 -31.630891 -56.468938 -20.993658 91.468045 
1.0499062500000000 -22.724070 -118.411155 -31.457730 -56.512277 -31.600135 -57.074548 -21.043096 90.746777 
1.0573500000000000 -22.679635 -119.240726 -31.424077 -57.115661 -31.678829 -57.039052 -21.085030 89.955426 
1.0647937500000000 -22.625137 -119.678133 -31.446249 -57.665770 -31.624869 -57.404977 -21.108189 89.173106 
1.0722375000000000 -22.602643 -120.049242 -31.417837 -57.769712 -31.647752 -57.963626 -21.182351 88.559830 
1.0796812499999999 -22.539495 -120.724738 -31.455088 -58.306034 -31.598269 -58.184168 -21.213652 87.727269 
1.0871249999999999 -22.441332 -121.432448 -31.441138 -58.966979 -31.626375 -58.624570 -21.261297 87.140499 
1.0945687500000001 -22.374243 -121.739237 -31.478280 -59.261082 -31.623242 -59.053396 -21.343057 86.339162 
1.1020125000000001 -22.316485 -122.395904 -31.485341 -59.882584 -31.628647 -59.398342 -21.414876 85.625364 
1.1094562500000000 -22.216284 -122.771497 -31.513319 -60.074759 -31.633013 -59.785152 -21.485922 84.842434 
1.1169000000000000 -22.167654 -123.126766 -31.503232 -60.769606 -31.639359 -60.389195 -21.586904 83.988386 
1.1243437500000000 -22.079325 -123.535263 -31.463257 -60.684804 -31.681177 -60.694679 -21.650403 83.255266 
1.1317874999999999 -21.994908 -123.960829 -31.523421 -61.337606 -31.651307 -60.809818 -21.734505 82.368852 
1.1392312499999999 -21.936438 -124.130229 -31.492959 -61.402801 -31.664157 -61.774357 -21.834291 81.467500 
1.1466750000000001 -21.860177 -124.356936 -31.501776 -62.061513 -31.638725 -61.793222 -21.891397 80.555102 
1.1541187500000001 -21.822823 -124.567953 -31.463622 -62.490147 -31.690209 -62.236085 -22.005033 79.571292 
1.1615625000000001 -21.761765 -124.763048 -31.488237 -62.398493 -31.677444 -62.391591 -22.025025 78.498485 
1.1690062500000000 -21.718476 -125.175987 -31.499350 -63.246691 -31.687686 -62.961010 -22.087992 77.521241 
1.1764500000000000 -21.684118 -125.536755 -31.454270 -63.434939 -31.647946 -63.351813 -22.172092 76.617257 
1.1838937500000000 -21.622653 -125.617308 -31.488281 -63.744040 -31.631780 -63.812587 -22.244093 75.739994 
1.1913374999999999 -21.601201 -126.060416 -31.481878 -64.350559 -31.685566 -64.090788 -22.283920 74.593525 
1.1987812499999999 -21.548216 -126.457176 -31.433808 -64.763950 -31.656586 -64.573062 -22.345212 73.698684 
1.2062250000000001 -21.524045 -126.702664 -31.500670 -64.986461 -31.707189 -65.146130 -22.393197 72.944472 
1.2136687500000001 -21.481203 -127.143615 -31.472545 -65.752747 -31.705948 -65.658732 -22.487117 72.069392 
1.2211125000000000 -21.447029 -127.511760 -31.517733 -66.062369 -31.662887 -65.672063 -22.549760 71.100627 
1.2285562500000000 -21.393799 -127.982114 -31.524538 -66.424992 -31.647467 -66.161801 -22.629553 70.392742 
1.2360000000000000 -21.357216 -128.404799 -31.481174 -66.788228 -31.657927 -66.464737 -22.689365 69.372482 
1.2434437500000000 -21.286955 -128.809839 -31.459414 -67.235953 -31.664572 -66.755782 -22.787489 68.477756 
1.2508874999999999 -21.242736 -129.269888 -31.485740 -67.941601 -31.667614 -67.596751 -22.885646 67.556391 
1.2583312499999999 -21.170088 -129.740571 -31.498170 -68.089931 -31.609885 -67.505714 -22.986121 66.667846 
1.2657750000000001 -21.123898 -130.015785 -31.489341 -68.565759 -31.684252 -68.144839 -23.085344 65.625976 
1.2732187500000001 -21.063192 -130.488760 -31.538839 -68.871249 -31.706485 -68.502429 -23.132600 64.501881 
1.2806625000000000 -21.014900 -130.825646 -31.529705 -69.238717 -31.730164 -68.920692 -23.240166 63.318556 
1.2881062500000000 -20.959623 -131.044243 -31.517885 -69.463939 -31.665531 -69.129154 -23.354554 62.402256 
1.2955500000000000 -20.909491 -131.417884 -31.509124 -69.972107 -31.689290 -69.804575 -23.486389 61.036575 
1.3029937500000000 -20.861107 -131.639549 -31.553295 -70.403857 -31.678186 -70.050194 -23.518033 59.787671 
1.3104374999999999 -20.815955 -131.889952 -31.518868 -70.883616 -31.666441 -70.731579 -23.609728 58.617923 
1.3178812499999999 -20.751677 -132.312804 -31.513284 -71.194304 -31.714632 -70.994568 -23.698543 57.316838 
1.3253250000000001 -20.733586 -132.584370 -31.522911 -71.427004 -31.698509 -71.446124 -23.758947 56.182381 
1.3327687500000001 -20.673914 -132.763060 -31.498571 -71.969561 -31.701440 -71.656775 -23.868440 54.909730 
1.3402125000000000 -20.647108 -133.243112 -31.551391 -72.190238 -31.688824 -72.262603 -23.919747 53.871815 
1.3476562500000000 -20.614230 -133.510280 -31.491105 -72.930158 -31.731446 -72.431454 -23.954746 52.700037 
1.3551000000000000 -20.574788 -133.944806 -31.531291 -73.466577 -31.689997 -72.726742 -24.068682 51.421435 
1.3625437499999999 -20.535781 -134.376976 -31.507150 -73.698034 -31.702502 -73.386738 -24.098290 50.306574 
1.3699874999999999 -20.505921 -134.867307 -31.535094 -74.311212 -31.704855 -73.894893 -24.192983 49.179916 
1.3774312500000001 -20.443320 -135.117103 -31.524611 -74.431122 -31.756316 -73.884634 -24.273219 47.996708 
1.3848750000000001 -20.390670 -135.483366 -31.561633 -74.860618 -31.721153 -74.625517 -24.357491 46.997627 
