!
! C:\Users\Aljaz\OneDrive - Univerza v Ljubljani\DOKTORAT\NOVI SA\Slabilec PE43711B\meritve\prototip2\4dB.S2P
!
! Touchstone 1.1 file saved by VNA.EXE V1.65 (www.ke5fx.com/gpib/readme.htm)
! 18. 04. 2022 18:03:50
!
!    Source: HP8510C.07.14: Aug 26  1998 
!  Min freq: 4.500000E+007 Hz
!  Max freq: 6.000000E+009 Hz
!    Points: 801
!    Params: S11 S21 S12 S22
!
!!!!!
# GHZ S DB R 50
0.0450000000000000 -20.637750 -21.873481 -5.035884 -1.314580 -5.240164 -1.390629 -25.457703 -148.763975 
0.0524437500000000 -20.672564 -21.234363 -5.029307 -2.215670 -5.235311 -2.288058 -25.794579 -152.313956 
0.0598875000000000 -20.674473 -21.221518 -5.043376 -2.932474 -5.234428 -3.032937 -25.988282 -155.285546 
0.0673312500000000 -20.713062 -21.435272 -5.048032 -3.601100 -5.238349 -3.632954 -26.099539 -157.524010 
0.0747750000000000 -20.694423 -21.784265 -5.046968 -4.293204 -5.227616 -4.242756 -26.228936 -159.580989 
0.0822187500000000 -20.705494 -22.028118 -5.041320 -4.763644 -5.216163 -4.831940 -26.293986 -160.723363 
0.0896625000000000 -20.684869 -22.737752 -5.044482 -5.377218 -5.215412 -5.388356 -26.341349 -161.828253 
0.0971062500000000 -20.668798 -23.355123 -5.055128 -5.937268 -5.213893 -5.941447 -26.371679 -162.923203 
0.1045500000000000 -20.647721 -24.208522 -5.050755 -6.491124 -5.206711 -6.493862 -26.386722 -163.649701 
0.1119937500000000 -20.650423 -25.129033 -5.041291 -7.069218 -5.207109 -7.039310 -26.352225 -164.417666 
0.1194375000000000 -20.658009 -25.904993 -5.055375 -7.572930 -5.203372 -7.581808 -26.358099 -165.273212 
0.1268812500000000 -20.657920 -26.939356 -5.066522 -8.072936 -5.214689 -8.067895 -26.330027 -166.041763 
0.1343250000000000 -20.640911 -27.801613 -5.053743 -8.604872 -5.199132 -8.635376 -26.341352 -166.637022 
0.1417687500000000 -20.639982 -28.634120 -5.058549 -9.132442 -5.210309 -9.072164 -26.330981 -167.183489 
0.1492125000000000 -20.634315 -29.785419 -5.065931 -9.587995 -5.210334 -9.582249 -26.320482 -167.484443 
0.1566562500000000 -20.611170 -30.732111 -5.062170 -10.168717 -5.213565 -10.038625 -26.281406 -167.795130 
0.1641000000000000 -20.618395 -31.815069 -5.064565 -10.671609 -5.214071 -10.589901 -26.263634 -168.162851 
0.1715437500000000 -20.596763 -32.937503 -5.077462 -11.141347 -5.212509 -11.084345 -26.224785 -168.597910 
0.1789875000000000 -20.591128 -33.945082 -5.078530 -11.568377 -5.203937 -11.608970 -26.228636 -168.944265 
0.1864312500000000 -20.592140 -35.042625 -5.060476 -12.135867 -5.216288 -12.058910 -26.217172 -169.455188 
0.1938750000000000 -20.587208 -36.109382 -5.072579 -12.576756 -5.204846 -12.554364 -26.209423 -169.771276 
0.2013187500000000 -20.566187 -37.164775 -5.073759 -13.093106 -5.208937 -13.011090 -26.202099 -170.099583 
0.2087625000000000 -20.561334 -38.141644 -5.066844 -13.597746 -5.216369 -13.484206 -26.181733 -170.613087 
0.2162062500000000 -20.543866 -39.243073 -5.072397 -14.078064 -5.215480 -13.991406 -26.137014 -170.832296 
0.2236500000000000 -20.525443 -40.315440 -5.084010 -14.576886 -5.210049 -14.495165 -26.104986 -171.223799 
0.2310937500000000 -20.485498 -41.367698 -5.089333 -15.070242 -5.223844 -14.914561 -26.064597 -171.780118 
0.2385375000000000 -20.475608 -42.501511 -5.096595 -15.526464 -5.222351 -15.414312 -26.008203 -172.010023 
0.2459812500000000 -20.456307 -43.603933 -5.094331 -16.018794 -5.213031 -15.940144 -25.953198 -172.358488 
0.2534250000000000 -20.429429 -44.707713 -5.095541 -16.518877 -5.219051 -16.409692 -25.891663 -172.703772 
0.2608687500000000 -20.436014 -45.565527 -5.089052 -17.159317 -5.273523 -17.146135 -25.865872 -173.112796 
0.2683125000000000 -20.400486 -46.838841 -5.094921 -17.655573 -5.273521 -17.650544 -25.781927 -173.342087 
0.2757562500000000 -20.347870 -48.016003 -5.097104 -18.122727 -5.277733 -18.108046 -25.691704 -173.279839 
0.2832000000000000 -20.308985 -49.045455 -5.111811 -18.639131 -5.277648 -18.669461 -25.620314 -173.719504 
0.2906437500000000 -20.300581 -50.189212 -5.107153 -19.041208 -5.280663 -19.107271 -25.542981 -173.833663 
0.2980875000000000 -20.253328 -51.118782 -5.109392 -19.523349 -5.282519 -19.557457 -25.495462 -173.681169 
0.3055312500000000 -20.214479 -52.279653 -5.116078 -19.987677 -5.290417 -20.020185 -25.447865 -174.043041 
0.3129750000000000 -20.203886 -53.216026 -5.111806 -20.501119 -5.289816 -20.467617 -25.436695 -173.814396 
0.3204187500000000 -20.170973 -54.146183 -5.128336 -20.943488 -5.297658 -20.958274 -25.432728 -174.051404 
0.3278625000000000 -20.167164 -54.960157 -5.116436 -21.433910 -5.300610 -21.362674 -25.402807 -173.852906 
0.3353062500000000 -20.129251 -55.826932 -5.126627 -21.922103 -5.291978 -21.890386 -25.383717 -173.899139 
0.3427500000000000 -20.101104 -56.733722 -5.131222 -22.350084 -5.296485 -22.346884 -25.388625 -174.050992 
0.3501937500000000 -20.080545 -57.578380 -5.126956 -22.885380 -5.294787 -22.850976 -25.382294 -174.261521 
0.3576375000000000 -20.070783 -58.512461 -5.141582 -23.335120 -5.302911 -23.291808 -25.378254 -174.659843 
0.3650812500000000 -20.048244 -59.513056 -5.142958 -23.835720 -5.301748 -23.773069 -25.450425 -174.966602 
0.3725250000000000 -20.031716 -60.501360 -5.144573 -24.307893 -5.307621 -24.236260 -25.444780 -175.427628 
0.3799687500000000 -20.043775 -61.463872 -5.158123 -24.706801 -5.311914 -24.672153 -25.436015 -175.686393 
0.3874125000000000 -20.026424 -62.368171 -5.152264 -25.195061 -5.320870 -25.172530 -25.427009 -176.114500 
0.3948562500000000 -19.994249 -63.423226 -5.152034 -25.651556 -5.312080 -25.617990 -25.383923 -176.723946 
0.4023000000000000 -19.984511 -64.368751 -5.158937 -26.166378 -5.305934 -26.144446 -25.348567 -177.227500 
0.4097437500000000 -19.946486 -65.476402 -5.165482 -26.578515 -5.317200 -26.603998 -25.293062 -177.923170 
0.4171875000000000 -19.933377 -66.482151 -5.174958 -27.125503 -5.314800 -27.138209 -25.257445 -178.422368 
0.4246312500000000 -19.906907 -67.630802 -5.167211 -27.548906 -5.339874 -27.598305 -25.208724 -178.845363 
0.4320750000000000 -19.863117 -68.773111 -5.168263 -28.021954 -5.336005 -28.065550 -25.179541 -179.081396 
0.4395187500000000 -19.839009 -69.736251 -5.181749 -28.429785 -5.344705 -28.535324 -25.100715 -179.526184 
0.4469625000000000 -19.796912 -70.813537 -5.182126 -28.921523 -5.343366 -28.991768 -25.056085 -179.833749 
0.4544062500000000 -19.768801 -71.733976 -5.187318 -29.404393 -5.344612 -29.454149 -24.999643 -179.858137 
0.4618500000000000 -19.706298 -72.570723 -5.191038 -29.935896 -5.354656 -29.939119 -24.964061 -179.835501 
0.4692937500000000 -19.682256 -73.497136 -5.204185 -30.328274 -5.354123 -30.354697 -24.942073 -179.810817 
0.4767375000000000 -19.613494 -74.348659 -5.198665 -30.865008 -5.363760 -30.794988 -24.949143 -179.942040 
0.4841812500000000 -19.561563 -75.079696 -5.207005 -31.306993 -5.369730 -31.286219 -24.942952 -179.814654 
0.4916250000000000 -19.519825 -76.039000 -5.219634 -31.810673 -5.376640 -31.711949 -24.971235 -179.389860 
0.4990687500000000 -19.475891 -76.735324 -5.213025 -32.315633 -5.367826 -32.167159 -24.993663 -179.442653 
0.5065125000000000 -19.440390 -77.593217 -5.227013 -32.743279 -5.375933 -32.670163 -25.026695 -179.267032 
0.5139562500000000 -19.396758 -78.211002 -5.234657 -33.196556 -5.379283 -33.129260 -25.064807 -179.218771 
0.5214000000000000 -19.354942 -79.025950 -5.242235 -33.677654 -5.378875 -33.635119 -25.135903 -179.153124 
0.5288437500000000 -19.310787 -79.780570 -5.256117 -34.120844 -5.380534 -34.131570 -25.173888 -179.244586 
0.5362875000000000 -19.249272 -80.512629 -5.257347 -34.574422 -5.401163 -34.543574 -25.214068 -179.300843 
0.5437312500000000 -19.191599 -81.362396 -5.282635 -34.994915 -5.404686 -34.989881 -25.227871 -179.421437 
0.5511750000000000 -19.155502 -82.320040 -5.276471 -35.420132 -5.413844 -35.393435 -25.239252 -179.556523 
0.5586187500000001 -19.111712 -83.353217 -5.293714 -35.815851 -5.423783 -35.876025 -25.181247 -179.900781 
0.5660625000000000 -19.077285 -84.292924 -5.285911 -36.255481 -5.424233 -36.312555 -25.117366 179.799080 
0.5735062500000000 -19.042340 -85.334061 -5.289542 -36.706913 -5.433231 -36.718241 -25.034096 179.131771 
0.5809500000000000 -19.017227 -86.343677 -5.287188 -37.064984 -5.435185 -37.155291 -24.949761 178.763331 
0.5883937500000001 -18.981124 -87.371137 -5.288800 -37.533708 -5.441594 -37.566097 -24.853764 178.044754 
0.5958375000000000 -18.951131 -88.300964 -5.286665 -37.916984 -5.442761 -37.919608 -24.744573 177.462984 
0.6032812500000000 -18.935051 -89.367744 -5.285883 -38.378774 -5.449314 -38.336351 -24.628836 177.004434 
0.6107250000000000 -18.907583 -90.383544 -5.291900 -38.877511 -5.439321 -38.783932 -24.525568 176.654720 
0.6181687500000000 -18.889854 -91.277261 -5.281257 -39.280032 -5.439598 -39.210474 -24.433310 176.135542 
0.6256125000000000 -18.884268 -92.128353 -5.287700 -39.758656 -5.440551 -39.668824 -24.368623 175.638853 
0.6330562500000000 -18.843788 -92.991771 -5.286428 -40.236170 -5.432187 -40.129851 -24.307128 175.262881 
0.6405000000000000 -18.818856 -93.881460 -5.286722 -40.706734 -5.427779 -40.600405 -24.273430 174.954770 
0.6479437500000000 -18.801189 -94.696444 -5.284803 -41.204211 -5.429634 -41.003676 -24.260028 174.614913 
0.6553875000000000 -18.783719 -95.495816 -5.299985 -41.620575 -5.432882 -41.432961 -24.273341 174.263613 
0.6628312500000000 -18.756713 -96.314672 -5.312080 -42.052973 -5.419885 -41.907529 -24.264219 174.113522 
0.6702750000000000 -18.746799 -97.143792 -5.306506 -42.502933 -5.420519 -42.411013 -24.268587 173.645208 
0.6777187500000000 -18.725123 -97.990241 -5.307295 -43.014466 -5.417416 -42.897945 -24.297139 173.140639 
0.6851625000000000 -18.705610 -98.723974 -5.299836 -43.449942 -5.411711 -43.455212 -24.337809 172.523877 
0.6926062500000000 -18.676229 -99.595298 -5.314973 -43.930684 -5.428269 -43.945523 -24.358109 171.753755 
0.7000500000000000 -18.662041 -100.323277 -5.317375 -44.289614 -5.439332 -44.454184 -24.418494 170.940160 
0.7074937500000000 -18.646519 -101.096463 -5.316587 -44.766268 -5.451112 -44.883052 -24.457853 170.374993 
0.7149375000000000 -18.640106 -102.003780 -5.315060 -45.180111 -5.464712 -45.300374 -24.470922 169.755180 
0.7223812500000000 -18.651300 -102.655460 -5.309955 -45.604961 -5.469842 -45.683516 -24.496760 169.043262 
0.7298250000000000 -18.623374 -103.466209 -5.307694 -46.077528 -5.469483 -46.126807 -24.480012 168.215136 
0.7372687500000000 -18.603041 -104.052940 -5.305860 -46.554561 -5.465364 -46.588018 -24.432746 167.486793 
0.7447125000000000 -18.589364 -104.857327 -5.308489 -47.053056 -5.464667 -47.060143 -24.415781 166.657832 
0.7521562500000000 -18.545962 -105.377050 -5.303526 -47.580540 -5.475273 -47.518205 -24.404653 166.070261 
0.7596000000000001 -18.521693 -106.141395 -5.327861 -48.052986 -5.476836 -48.003512 -24.350997 165.519789 
0.7670437500000000 -18.494698 -106.960304 -5.336192 -48.473691 -5.484436 -48.397311 -24.341807 165.138795 
0.7744875000000000 -18.467624 -107.602348 -5.339710 -48.945929 -5.489074 -48.799991 -24.295916 164.911015 
0.7819312500000000 -18.437051 -108.325261 -5.334900 -49.336662 -5.484619 -49.235022 -24.293609 164.381909 
0.7893750000000001 -18.434014 -109.156980 -5.342666 -49.800584 -5.486586 -49.667470 -24.283871 164.292060 
0.7968187500000000 -18.410692 -109.713458 -5.333982 -50.280891 -5.481066 -50.080815 -24.283271 164.002990 
0.8042625000000000 -18.399061 -110.374777 -5.342674 -50.711274 -5.475488 -50.646704 -24.305637 163.656124 
0.8117062500000000 -18.401779 -111.026803 -5.339315 -51.230870 -5.482575 -51.089424 -24.306944 163.590008 
0.8191500000000000 -18.365616 -111.662200 -5.353974 -51.668962 -5.476234 -51.592062 -24.390506 163.211216 
0.8265937500000000 -18.351641 -112.315729 -5.362563 -52.172074 -5.485150 -52.087095 -24.437587 162.940128 
0.8340375000000000 -18.315604 -113.029791 -5.365298 -52.489938 -5.487117 -52.534178 -24.504138 162.474061 
0.8414812500000000 -18.302115 -113.765561 -5.365503 -52.949468 -5.492965 -53.050132 -24.524680 161.951964 
0.8489250000000000 -18.369312 -114.269284 -5.358415 -53.520574 -5.556816 -53.747415 -24.594713 161.084679 
0.8563687500000000 -18.347238 -115.114371 -5.362604 -53.988592 -5.575083 -54.283317 -24.676151 160.435342 
0.8638125000000000 -18.333430 -115.626684 -5.357903 -54.458368 -5.589560 -54.689018 -24.727368 160.236843 
0.8712562500000000 -18.299951 -116.159975 -5.365807 -54.955640 -5.604748 -55.054266 -24.778509 159.220234 
0.8787000000000000 -18.285199 -116.865931 -5.377131 -55.384020 -5.611159 -55.501706 -24.818340 158.530444 
0.8861437500000000 -18.243184 -117.623077 -5.365455 -55.814333 -5.614786 -55.871178 -24.801298 158.272308 
0.8935875000000000 -18.222341 -118.210166 -5.393358 -56.397004 -5.602837 -56.364011 -24.783710 157.887425 
0.9010312500000000 -18.195628 -118.547533 -5.380242 -56.637441 -5.597180 -56.618471 -24.758109 157.084574 
0.9084750000000000 -18.161791 -119.418648 -5.374652 -57.298616 -5.610254 -57.147226 -24.738969 157.047789 
0.9159187500000000 -18.126167 -119.945024 -5.399731 -57.636554 -5.617827 -57.618427 -24.795869 156.607241 
0.9233625000000000 -18.097273 -120.440446 -5.395147 -58.114832 -5.615789 -58.007534 -24.774945 156.474933 
0.9308062500000000 -18.084855 -121.014259 -5.399421 -58.544888 -5.620860 -58.397314 -24.773167 156.391217 
0.9382500000000000 -18.066663 -121.765794 -5.409981 -58.957981 -5.598723 -58.859425 -24.786056 156.500910 
0.9456937500000000 -18.064124 -122.254545 -5.415732 -59.493278 -5.607337 -59.301310 -24.831030 156.477572 
0.9531375000000000 -18.047610 -122.914889 -5.429608 -59.827401 -5.591379 -59.796034 -24.885843 156.202263 
0.9605812500000001 -18.012001 -123.644270 -5.417496 -60.362963 -5.601622 -60.391106 -24.923807 155.998787 
0.9680250000000000 -18.029768 -124.277137 -5.425790 -60.691969 -5.610119 -60.864563 -25.004654 155.608503 
0.9754687500000000 -18.009274 -124.896197 -5.422724 -61.183200 -5.624129 -61.315018 -25.100908 154.791761 
0.9829125000000000 -18.011190 -125.370558 -5.420871 -61.621103 -5.638102 -61.772794 -25.261249 155.257872 
0.9903562500000001 -17.989449 -126.013609 -5.427748 -62.041257 -5.648927 -62.163432 -25.417603 154.989023 
0.9978000000000000 -17.988675 -126.463474 -5.438193 -62.477697 -5.644972 -62.572215 -25.518386 154.706316 
1.0052437500000000 -17.964362 -127.100216 -5.437244 -62.893145 -5.649085 -62.976422 -25.573211 154.200893 
1.0126875000000000 -17.958946 -127.730110 -5.438517 -63.405695 -5.647432 -63.415479 -25.704422 153.595182 
1.0201312499999999 -17.937860 -128.197310 -5.434313 -63.839158 -5.643205 -63.872207 -25.779453 152.926317 
1.0275749999999999 -17.934003 -128.780356 -5.427350 -64.293855 -5.649653 -64.382068 -25.838226 152.031631 
1.0350187500000001 -17.898050 -129.283128 -5.437387 -64.736572 -5.672067 -64.822569 -25.941145 151.254197 
1.0424625000000001 -17.874252 -129.900439 -5.451666 -65.232520 -5.683777 -65.187148 -25.940855 150.384591 
1.0499062500000000 -17.852980 -130.450767 -5.444163 -65.584620 -5.681108 -65.572606 -26.006467 149.885400 
1.0573500000000000 -17.851235 -131.151086 -5.455465 -66.111037 -5.677739 -65.969753 -25.996572 149.514344 
1.0647937500000000 -17.834074 -131.847697 -5.449814 -66.461936 -5.682083 -66.363299 -25.994757 148.604221 
1.0722375000000000 -17.857150 -132.272194 -5.448191 -66.908671 -5.669123 -66.808692 -25.994996 148.286133 
1.0796812499999999 -17.876902 -132.893509 -5.441022 -67.420400 -5.675696 -67.290169 -26.028732 147.328137 
1.0871249999999999 -17.827880 -133.472523 -5.444087 -67.882590 -5.677359 -67.738532 -26.032398 147.333415 
1.0945687500000001 -17.816469 -133.918168 -5.457389 -68.302664 -5.679104 -68.156448 -26.112147 146.980763 
1.1020125000000001 -17.805661 -134.495794 -5.457894 -68.799640 -5.694300 -68.587310 -26.211225 146.742448 
1.1094562500000000 -17.784714 -135.111373 -5.460763 -69.224260 -5.676460 -69.042485 -26.277755 146.393605 
1.1169000000000000 -17.778659 -135.688143 -5.478593 -69.697169 -5.690402 -69.460892 -26.362703 146.374245 
1.1243437500000000 -17.765526 -136.328888 -5.475080 -70.097423 -5.677333 -69.916086 -26.403001 145.984960 
1.1317874999999999 -17.737343 -137.014502 -5.478206 -70.515676 -5.679443 -70.395364 -26.530107 145.671599 
1.1392312499999999 -17.731604 -137.492034 -5.470110 -71.000394 -5.691244 -70.860191 -26.684365 145.464501 
1.1466750000000001 -17.704029 -137.893929 -5.472071 -71.405174 -5.698093 -71.282672 -26.788400 145.017175 
1.1541187500000001 -17.684317 -138.422073 -5.488852 -71.853184 -5.703332 -71.731384 -27.006446 145.091625 
1.1615625000000001 -17.665408 -138.890450 -5.492744 -72.339332 -5.704364 -72.154744 -27.088494 144.036230 
1.1690062500000000 -17.629429 -139.393293 -5.490757 -72.791801 -5.710292 -72.595349 -27.177724 143.456720 
1.1764500000000000 -17.624962 -140.063495 -5.490897 -73.211259 -5.699830 -73.022648 -27.278461 143.146272 
1.1838937500000000 -17.608690 -140.373353 -5.488883 -73.651111 -5.710701 -73.501148 -27.348609 142.656403 
1.1913374999999999 -17.626131 -140.917122 -5.495196 -74.019338 -5.715991 -74.062253 -27.464842 141.417589 
1.1987812499999999 -17.611261 -141.292996 -5.476791 -74.497699 -5.727885 -74.484212 -27.611516 140.855207 
1.2062250000000001 -17.635827 -141.504005 -5.483273 -74.966304 -5.738490 -74.835140 -27.669836 140.919220 
1.2136687500000001 -17.620445 -141.845001 -5.474745 -75.487439 -5.746904 -75.153385 -27.745364 140.972990 
1.2211125000000000 -17.630816 -142.333403 -5.482535 -75.942234 -5.736395 -75.544294 -27.823837 140.578101 
1.2285562500000000 -17.588644 -142.630706 -5.488960 -76.375430 -5.722824 -76.003095 -27.800962 140.656798 
1.2360000000000000 -17.622267 -143.215866 -5.486884 -76.872270 -5.716216 -76.420740 -27.927637 140.163924 
1.2434437500000000 -17.626767 -143.641026 -5.491867 -77.310230 -5.715126 -76.932508 -27.987978 140.180561 
1.2508874999999999 -17.621374 -144.179259 -5.499930 -77.733404 -5.719887 -77.389485 -28.131293 139.836717 
1.2583312499999999 -17.612072 -144.635832 -5.501215 -78.199734 -5.730652 -77.854932 -28.292798 140.154440 
1.2657750000000001 -17.633827 -145.053251 -5.502609 -78.722372 -5.735811 -78.311087 -28.475515 140.034800 
1.2732187500000001 -17.600905 -145.653653 -5.513263 -79.185611 -5.735194 -78.715955 -28.662464 139.669434 
1.2806625000000000 -17.600281 -146.230836 -5.514991 -79.660036 -5.740656 -79.146958 -28.836586 140.226544 
1.2881062500000000 -17.590811 -146.709578 -5.531495 -79.986081 -5.732093 -79.598326 -28.959624 140.106506 
1.2955500000000000 -17.595566 -147.222746 -5.530574 -80.476821 -5.729725 -80.106231 -29.251856 139.940712 
1.3029937500000000 -17.567204 -147.921787 -5.540022 -80.835227 -5.740005 -80.585543 -29.413115 139.277311 
1.3104374999999999 -17.560787 -148.344709 -5.536476 -81.304386 -5.746296 -81.011172 -29.700001 138.990418 
1.3178812499999999 -17.544917 -148.783642 -5.533668 -81.695016 -5.750433 -81.432186 -29.925389 139.187802 
1.3253250000000001 -17.528126 -149.132693 -5.523738 -82.174892 -5.743491 -81.819122 -30.144812 139.001169 
1.3327687500000001 -17.517464 -149.432536 -5.529594 -82.639695 -5.758371 -82.226434 -30.356584 138.869118 
1.3402125000000000 -17.504939 -149.885930 -5.530599 -83.091850 -5.748260 -82.625289 -30.424850 138.477966 
1.3476562500000000 -17.501202 -150.293548 -5.533224 -83.552466 -5.752996 -83.092856 -30.546881 137.947271 
1.3551000000000000 -17.483809 -150.655882 -5.532559 -83.968673 -5.745812 -83.593205 -30.742104 137.913047 
1.3625437499999999 -17.483319 -150.951908 -5.534372 -84.412787 -5.753439 -84.058271 -30.981846 137.642637 
1.3699874999999999 -17.471520 -151.328922 -5.539739 -84.897832 -5.759840 -84.514298 -31.142218 137.919324 
1.3774312500000001 -17.465616 -151.510068 -5.532760 -85.329981 -5.769499 -84.869858 -31.359781 138.009176 
1.3848750000000001 -17.448115 -151.811366 -5.536131 -85.832384 -5.765442 -85.271040 -31.393456 138.719229 
1.3923187500000000 -17.457558 -152.202866 -5.537674 -86.319054 -5.757333 -85.670250 -31.590622 139.410853 
1.3997625000000000 -17.452577 -152.558664 -5.548194 -86.812271 -5.742811 -86.135913 -31.743360 139.552189 
