!
! C:\Users\Aljaz\OneDrive - Univerza v Ljubljani\DOKTORAT\NOVI SA\Slabilec PE43711B\meritve\prototip2\8dB.S2P
!
! Touchstone 1.1 file saved by VNA.EXE V1.65 (www.ke5fx.com/gpib/readme.htm)
! 18. 04. 2022 18:04:51
!
!    Source: HP8510C.07.14: Aug 26  1998 
!  Min freq: 4.500000E+007 Hz
!  Max freq: 6.000000E+009 Hz
!    Points: 801
!    Params: S11 S21 S12 S22
!
!!!!!
# GHZ S DB R 50
0.0450000000000000 -21.848977 -21.542298 -9.078934 -1.156297 -9.265559 -1.191589 -20.162447 -167.793415 
0.0524437500000000 -21.878896 -20.846009 -9.078042 -2.071502 -9.260174 -2.079836 -20.273222 -170.442013 
0.0598875000000000 -21.882210 -20.857236 -9.088887 -2.739341 -9.261595 -2.812192 -20.299872 -172.393991 
0.0673312500000000 -21.933670 -20.899296 -9.078637 -3.438289 -9.257973 -3.436360 -20.353575 -174.091205 
0.0747750000000000 -21.914960 -21.339950 -9.072534 -4.088264 -9.254771 -4.032656 -20.359638 -175.599021 
0.0822187500000000 -21.910181 -21.561708 -9.081396 -4.598816 -9.254660 -4.645848 -20.400980 -176.812170 
0.0896625000000000 -21.890849 -22.308013 -9.080022 -5.199615 -9.256310 -5.143424 -20.427723 -177.898702 
0.0971062500000000 -21.876293 -22.759045 -9.082764 -5.766033 -9.242235 -5.743360 -20.433101 -178.931647 
0.1045500000000000 -21.870786 -23.533912 -9.090616 -6.317103 -9.235659 -6.253238 -20.440170 -179.889632 
0.1119937500000000 -21.857978 -24.397583 -9.086049 -6.859876 -9.241058 -6.810482 -20.437348 179.248357 
0.1194375000000000 -21.857357 -25.111086 -9.087144 -7.364883 -9.225621 -7.323256 -20.469262 178.396435 
0.1268812500000000 -21.876416 -26.108897 -9.098252 -7.814329 -9.240462 -7.816273 -20.452964 177.625274 
0.1343250000000000 -21.818020 -26.953074 -9.089292 -8.354369 -9.230262 -8.361617 -20.465830 176.892186 
0.1417687500000000 -21.835940 -27.804061 -9.088982 -8.882804 -9.247765 -8.801678 -20.484415 176.167788 
0.1492125000000000 -21.811985 -28.735529 -9.107045 -9.336002 -9.242250 -9.319451 -20.485133 175.560350 
0.1566562500000000 -21.792058 -29.589268 -9.100986 -9.885670 -9.243600 -9.845187 -20.494673 174.870509 
0.1641000000000000 -21.797587 -30.666856 -9.098242 -10.355894 -9.243982 -10.308933 -20.507972 174.322610 
0.1715437500000000 -21.776001 -31.685325 -9.106276 -10.845207 -9.241568 -10.795670 -20.512462 173.568917 
0.1789875000000000 -21.746999 -32.776818 -9.105153 -11.298681 -9.238076 -11.297027 -20.529279 172.964592 
0.1864312500000000 -21.759345 -33.735348 -9.097042 -11.809358 -9.243727 -11.785553 -20.533679 172.232114 
0.1938750000000000 -21.749245 -34.774109 -9.112802 -12.254803 -9.241779 -12.259498 -20.548117 171.595972 
0.2013187500000000 -21.718818 -35.828776 -9.108387 -12.777507 -9.242535 -12.717346 -20.559058 170.960361 
0.2087625000000000 -21.714187 -36.787891 -9.105267 -13.297639 -9.244895 -13.181172 -20.557551 170.326569 
0.2162062500000000 -21.695340 -37.819996 -9.103961 -13.759849 -9.242327 -13.666913 -20.578866 169.685748 
0.2236500000000000 -21.678397 -38.923178 -9.124746 -14.252062 -9.244166 -14.155477 -20.575391 169.007924 
0.2310937500000000 -21.641608 -39.922540 -9.107472 -14.772010 -9.255382 -14.561830 -20.569125 168.349559 
0.2385375000000000 -21.628745 -41.025957 -9.127169 -15.194594 -9.253193 -15.043519 -20.554695 167.764328 
0.2459812500000000 -21.585304 -42.176547 -9.132033 -15.670484 -9.246891 -15.560608 -20.559553 167.220117 
0.2534250000000000 -21.566809 -43.138484 -9.131612 -16.145724 -9.240794 -16.046998 -20.544818 166.656876 
0.2608687500000000 -21.561074 -44.304467 -9.119839 -16.813621 -9.298619 -16.811359 -20.559231 165.878388 
0.2683125000000000 -21.522474 -45.393182 -9.140536 -17.213757 -9.302366 -17.261797 -20.553731 165.435480 
0.2757562500000000 -21.467167 -46.551027 -9.128073 -17.741436 -9.306006 -17.745639 -20.539769 165.031277 
0.2832000000000000 -21.432867 -47.579969 -9.141248 -18.219534 -9.305125 -18.259008 -20.536515 164.492442 
0.2906437500000000 -21.404598 -48.574066 -9.151603 -18.601457 -9.309993 -18.662665 -20.533328 164.116856 
0.2980875000000000 -21.353611 -49.550803 -9.139897 -19.091402 -9.308436 -19.134145 -20.534849 163.806833 
0.3055312500000000 -21.299830 -50.538951 -9.145378 -19.526064 -9.321000 -19.561295 -20.543455 163.365833 
0.3129750000000000 -21.248902 -51.362261 -9.139358 -20.036160 -9.319312 -20.030057 -20.577489 162.988635 
0.3204187500000000 -21.217537 -52.309830 -9.148155 -20.500900 -9.320268 -20.536596 -20.603126 162.406705 
0.3278625000000000 -21.208368 -53.101465 -9.145826 -20.945218 -9.323627 -20.968835 -20.625562 162.206830 
0.3353062500000000 -21.151238 -53.909696 -9.156641 -21.516288 -9.311785 -21.445702 -20.666386 161.673262 
0.3427500000000000 -21.141062 -54.701079 -9.154887 -21.938352 -9.320644 -21.900632 -20.695951 161.236314 
0.3501937500000000 -21.103222 -55.442649 -9.156757 -22.406616 -9.327801 -22.408663 -20.730354 160.600452 
0.3576375000000000 -21.088049 -56.387572 -9.171827 -22.853403 -9.328886 -22.863571 -20.771761 159.970973 
0.3650812500000000 -21.063575 -57.408308 -9.172268 -23.308162 -9.330645 -23.319242 -20.810272 159.402113 
0.3725250000000000 -21.058972 -58.264717 -9.179001 -23.741582 -9.332380 -23.729066 -20.843215 158.778676 
0.3799687500000000 -21.050434 -59.165264 -9.188950 -24.194906 -9.331984 -24.201368 -20.852905 158.004266 
0.3874125000000000 -21.041189 -60.149370 -9.187391 -24.710262 -9.339558 -24.648805 -20.877974 157.383112 
0.3948562500000000 -21.015569 -61.245820 -9.182021 -25.168443 -9.335592 -25.125190 -20.902908 156.758741 
0.4023000000000000 -21.005125 -62.269456 -9.186278 -25.672243 -9.329585 -25.579549 -20.892702 156.047593 
0.4097437500000000 -20.964673 -63.178265 -9.192819 -26.073825 -9.344455 -26.082366 -20.890614 155.480087 
0.4171875000000000 -20.945629 -64.111779 -9.198947 -26.560537 -9.340073 -26.568483 -20.883408 154.869963 
0.4246312500000000 -20.907062 -65.321107 -9.201974 -26.974466 -9.355933 -27.049526 -20.892507 154.235486 
0.4320750000000000 -20.854740 -66.390371 -9.190900 -27.452709 -9.347855 -27.538864 -20.892010 153.819476 
0.4395187500000000 -20.823229 -67.275328 -9.205106 -27.860409 -9.357420 -27.980956 -20.891384 153.413291 
0.4469625000000000 -20.772947 -68.288208 -9.201294 -28.335940 -9.366162 -28.417033 -20.902592 152.846058 
0.4544062500000000 -20.731625 -69.204898 -9.200872 -28.831238 -9.368183 -28.901797 -20.919384 152.452620 
0.4618500000000000 -20.660080 -70.077133 -9.215912 -29.348542 -9.371346 -29.360831 -20.931602 152.339143 
0.4692937500000000 -20.602667 -70.951638 -9.217640 -29.758664 -9.379668 -29.743919 -20.975023 151.972677 
0.4767375000000000 -20.537901 -71.714325 -9.221553 -30.269717 -9.388948 -30.189471 -21.026456 151.531479 
0.4841812500000000 -20.488242 -72.434400 -9.231912 -30.726787 -9.396165 -30.632921 -21.088159 151.179763 
0.4916250000000000 -20.432601 -73.213623 -9.234877 -31.196030 -9.398896 -31.115510 -21.155963 150.832388 
0.4990687500000000 -20.383542 -74.046448 -9.243853 -31.662622 -9.393834 -31.557167 -21.224040 150.444580 
0.5065125000000000 -20.321779 -74.736922 -9.246863 -32.167681 -9.400854 -32.001558 -21.306700 150.145144 
0.5139562500000000 -20.277520 -75.353491 -9.268069 -32.586970 -9.404298 -32.473572 -21.397034 149.782925 
0.5214000000000000 -20.253803 -76.072377 -9.264396 -33.027811 -9.409840 -32.932790 -21.473136 149.232991 
0.5288437500000000 -20.195296 -76.777016 -9.290440 -33.410948 -9.416391 -33.452039 -21.542899 148.661513 
0.5362875000000000 -20.131842 -77.443991 -9.282454 -33.899029 -9.416105 -33.851380 -21.611886 148.175638 
0.5437312500000000 -20.080571 -78.270406 -9.302110 -34.266760 -9.429155 -34.287464 -21.705615 147.792177 
0.5511750000000000 -20.007393 -79.186438 -9.298997 -34.639336 -9.433920 -34.708091 -21.737633 147.240714 
0.5586187500000001 -19.982040 -80.131763 -9.311858 -35.093498 -9.436188 -35.202149 -21.760272 146.700428 
0.5660625000000000 -19.937131 -81.045308 -9.304201 -35.505050 -9.443549 -35.599166 -21.775451 146.254898 
0.5735062500000000 -19.881934 -82.007116 -9.306543 -35.946871 -9.450611 -35.978149 -21.751206 145.859035 
0.5809500000000000 -19.847306 -82.992189 -9.310714 -36.346367 -9.449305 -36.451091 -21.751091 145.516402 
0.5883937500000001 -19.819093 -84.010375 -9.305727 -36.789252 -9.454809 -36.837182 -21.721696 145.030468 
0.5958375000000000 -19.747263 -84.887450 -9.299571 -37.186668 -9.454957 -37.228217 -21.672140 144.571670 
0.6032812500000000 -19.743275 -85.909542 -9.295154 -37.665263 -9.461226 -37.622933 -21.656074 144.214522 
0.6107250000000000 -19.698321 -86.817008 -9.305529 -38.142028 -9.451907 -38.061885 -21.626281 143.760052 
0.6181687500000000 -19.667334 -87.651801 -9.294878 -38.551522 -9.458839 -38.448447 -21.601336 143.567428 
0.6256125000000000 -19.646187 -88.507856 -9.299049 -39.038191 -9.446943 -38.924356 -21.606688 143.082242 
0.6330562500000000 -19.597451 -89.323902 -9.309436 -39.466546 -9.451346 -39.369571 -21.612382 142.661165 
0.6405000000000000 -19.574610 -90.222687 -9.312922 -39.970408 -9.442731 -39.861338 -21.627081 142.294475 
0.6479437500000000 -19.552386 -90.942490 -9.299974 -40.419541 -9.450582 -40.247178 -21.653983 141.912125 
0.6553875000000000 -19.510589 -91.745968 -9.321372 -40.819833 -9.444003 -40.673872 -21.726899 141.368928 
0.6628312500000000 -19.491455 -92.573451 -9.326646 -41.270644 -9.432627 -41.112834 -21.774170 140.946196 
0.6702750000000000 -19.467929 -93.307549 -9.323365 -41.715945 -9.431413 -41.561075 -21.805061 140.372870 
0.6777187500000000 -19.429692 -94.205776 -9.323940 -42.159451 -9.431379 -42.085559 -21.867081 139.688217 
0.6851625000000000 -19.412429 -94.984341 -9.322354 -42.603453 -9.429501 -42.631399 -21.910703 138.881455 
0.6926062500000000 -19.389431 -95.707755 -9.329970 -43.044153 -9.438640 -43.120365 -21.952840 138.185898 
0.7000500000000000 -19.353171 -96.491871 -9.328648 -43.438195 -9.456306 -43.639171 -21.993144 137.297601 
0.7074937500000000 -19.335452 -97.273934 -9.325010 -43.882126 -9.462181 -44.060053 -22.048151 136.470458 
0.7149375000000000 -19.316259 -98.091531 -9.324850 -44.263836 -9.481944 -44.468650 -22.076125 135.667365 
0.7223812500000000 -19.290085 -98.708336 -9.310145 -44.758039 -9.485091 -44.883012 -22.101566 134.845471 
0.7298250000000000 -19.262923 -99.447468 -9.316855 -45.241236 -9.483760 -45.263422 -22.119765 134.220771 
0.7372687500000000 -19.230281 -100.026634 -9.316680 -45.708374 -9.473903 -45.747074 -22.118777 133.423813 
0.7447125000000000 -19.197878 -100.813566 -9.318725 -46.242711 -9.482277 -46.184359 -22.129911 132.857632 
0.7521562500000000 -19.154940 -101.339487 -9.324286 -46.713902 -9.486901 -46.630156 -22.135341 132.198587 
0.7596000000000001 -19.116540 -102.064972 -9.337092 -47.184917 -9.488181 -47.131060 -22.145232 131.661421 
0.7670437500000000 -19.079686 -102.765920 -9.344182 -47.625783 -9.496622 -47.510711 -22.168921 131.251780 
0.7744875000000000 -19.049128 -103.458477 -9.343453 -48.052033 -9.499568 -47.954980 -22.200608 130.831890 
0.7819312500000000 -19.009167 -104.122316 -9.348936 -48.439097 -9.503602 -48.391838 -22.234046 130.320599 
0.7893750000000001 -18.994847 -104.808265 -9.346518 -48.886935 -9.500600 -48.823407 -22.260090 130.000693 
0.7968187500000000 -18.974425 -105.404342 -9.346190 -49.393974 -9.493398 -49.210308 -22.338827 129.543652 
0.8042625000000000 -18.933520 -106.055063 -9.340158 -49.841736 -9.490667 -49.747106 -22.389261 128.968788 
0.8117062500000000 -18.932750 -106.676103 -9.356533 -50.306516 -9.489767 -50.198106 -22.458404 128.692423 
0.8191500000000000 -18.891368 -107.260152 -9.362608 -50.759220 -9.491226 -50.680502 -22.526903 128.032423 
0.8265937500000000 -18.865319 -107.929106 -9.366935 -51.235423 -9.494218 -51.134893 -22.630317 127.478215 
0.8340375000000000 -18.833406 -108.591457 -9.370885 -51.589589 -9.497191 -51.623395 -22.696408 126.863931 
0.8414812500000000 -18.796938 -109.355694 -9.374421 -51.993481 -9.500232 -52.135091 -22.757342 126.009712 
0.8489250000000000 -18.835524 -109.997639 -9.367809 -52.550680 -9.563029 -52.794644 -22.841810 125.145259 
0.8563687500000000 -18.797033 -110.682553 -9.355868 -53.084413 -9.577191 -53.277576 -22.905601 124.167366 
0.8638125000000000 -18.768599 -111.288211 -9.369775 -53.512701 -9.595930 -53.674794 -22.996098 123.536440 
0.8712562500000000 -18.731137 -111.967996 -9.370426 -54.010056 -9.601735 -54.094563 -23.035271 122.672924 
0.8787000000000000 -18.723048 -112.601002 -9.382304 -54.502132 -9.608562 -54.546803 -23.075315 121.897109 
0.8861437500000000 -18.670044 -113.182331 -9.368362 -54.857395 -9.620524 -54.905654 -23.128502 121.381293 
0.8935875000000000 -18.640948 -113.774610 -9.403615 -55.389247 -9.603857 -55.423459 -23.179180 120.913224 
0.9010312500000000 -18.597402 -114.258955 -9.379801 -55.665947 -9.607928 -55.616557 -23.180148 120.367500 
0.9084750000000000 -18.555831 -115.047638 -9.380455 -56.293513 -9.616310 -56.150734 -23.220697 120.011389 
0.9159187500000000 -18.522620 -115.571385 -9.405410 -56.691587 -9.619127 -56.599076 -23.318961 119.431644 
0.9233625000000000 -18.489901 -116.059848 -9.399711 -57.135018 -9.617580 -57.013621 -23.348506 119.007630 
0.9308062500000000 -18.453801 -116.692667 -9.400301 -57.585998 -9.616313 -57.406056 -23.420674 118.954042 
0.9382500000000000 -18.428428 -117.318760 -9.414175 -57.983111 -9.611169 -57.831517 -23.526901 118.565032 
0.9456937500000000 -18.424639 -117.776707 -9.422660 -58.456387 -9.606195 -58.303534 -23.587929 118.039647 
0.9531375000000000 -18.382758 -118.379659 -9.435360 -58.817645 -9.609228 -58.786941 -23.703256 117.606360 
0.9605812500000001 -18.338135 -119.037593 -9.419523 -59.287697 -9.604689 -59.291767 -23.842870 117.238281 
0.9680250000000000 -18.348197 -119.667547 -9.418699 -59.732025 -9.609504 -59.830901 -23.906996 116.689197 
0.9754687500000000 -18.312718 -120.311243 -9.417157 -60.173993 -9.626604 -60.297171 -24.042202 115.873853 
0.9829125000000000 -18.295388 -120.805414 -9.413754 -60.647458 -9.645421 -60.753871 -24.210993 115.261008 
0.9903562500000001 -18.260468 -121.340528 -9.419706 -61.084300 -9.647609 -61.140588 -24.344659 114.307037 
0.9978000000000000 -18.238036 -121.897752 -9.428122 -61.449245 -9.642308 -61.513628 -24.457986 113.557245 
1.0052437500000000 -18.205569 -122.472154 -9.426831 -61.930103 -9.652147 -61.936882 -24.541067 112.804059 
1.0126875000000000 -18.186560 -123.115932 -9.430991 -62.381105 -9.651662 -62.380137 -24.673787 111.668985 
1.0201312499999999 -18.156989 -123.646932 -9.424316 -62.870263 -9.641184 -62.864306 -24.751758 110.834119 
1.0275749999999999 -18.148296 -124.166173 -9.428933 -63.324972 -9.645021 -63.342378 -24.838928 109.698867 
1.0350187500000001 -18.124210 -124.743717 -9.427760 -63.756758 -9.674649 -63.741021 -24.866024 108.733279 
1.0424625000000001 -18.073935 -125.251093 -9.449613 -64.199726 -9.685857 -64.140906 -24.899554 108.018824 
1.0499062500000000 -18.057301 -125.757297 -9.448816 -64.584961 -9.676053 -64.473669 -24.999576 107.145586 
1.0573500000000000 -18.020087 -126.487053 -9.447689 -65.038593 -9.684323 -64.919481 -25.009748 106.548302 
1.0647937500000000 -18.003428 -127.130062 -9.447973 -65.489057 -9.676671 -65.336480 -25.043148 105.938420 
1.0722375000000000 -18.001819 -127.624603 -9.440732 -65.931705 -9.677801 -65.719424 -25.100602 105.362889 
1.0796812499999999 -17.996522 -128.251090 -9.437587 -66.391394 -9.674373 -66.204886 -25.155655 104.561699 
1.0871249999999999 -17.963824 -128.805613 -9.447134 -66.923359 -9.683030 -66.642156 -25.235165 104.049319 
1.0945687500000001 -17.943963 -129.279698 -9.458910 -67.341375 -9.681053 -67.079609 -25.335597 103.463050 
1.1020125000000001 -17.919085 -129.830016 -9.455968 -67.756877 -9.692928 -67.529584 -25.428158 102.940910 
1.1094562500000000 -17.887844 -130.428785 -9.468809 -68.215969 -9.686911 -67.960883 -25.541369 102.295266 
1.1169000000000000 -17.868709 -131.065754 -9.477948 -68.623053 -9.686774 -68.417964 -25.701248 101.669801 
1.1243437500000000 -17.836815 -131.615003 -9.472395 -69.047477 -9.678388 -68.854607 -25.774850 100.957831 
1.1317874999999999 -17.816905 -132.219831 -9.473617 -69.406196 -9.684870 -69.294792 -25.926163 100.103535 
1.1392312499999999 -17.788776 -132.816465 -9.472771 -69.877294 -9.689109 -69.773950 -26.093896 99.414494 
1.1466750000000001 -17.747631 -133.314789 -9.469004 -70.359301 -9.688972 -70.200126 -26.215325 98.358015 
1.1541187500000001 -17.729963 -133.796769 -9.480917 -70.817248 -9.700857 -70.611382 -26.395630 97.532054 
1.1615625000000001 -17.702154 -134.360600 -9.483032 -71.258608 -9.705465 -70.991215 -26.458221 96.190677 
1.1690062500000000 -17.655691 -134.902067 -9.475139 -71.709897 -9.708064 -71.456845 -26.549228 95.200946 
1.1764500000000000 -17.630808 -135.431794 -9.482524 -72.102115 -9.696644 -71.917954 -26.698256 94.290508 
1.1838937500000000 -17.594091 -135.792015 -9.478543 -72.534148 -9.711576 -72.371892 -26.791346 93.489326 
1.1913374999999999 -17.600325 -136.247556 -9.482808 -72.931752 -9.708903 -72.906903 -26.846700 91.824751 
1.1987812499999999 -17.569096 -136.739737 -9.472120 -73.418126 -9.727174 -73.359783 -26.967100 91.177296 
1.2062250000000001 -17.575366 -137.045115 -9.471764 -73.909526 -9.735732 -73.692485 -27.077269 90.436911 
1.2136687500000001 -17.548474 -137.429510 -9.472627 -74.435222 -9.748472 -73.972699 -27.199456 89.647017 
1.2211125000000000 -17.540194 -137.878280 -9.485130 -74.863478 -9.741628 -74.384519 -27.350930 88.952956 
1.2285562500000000 -17.512669 -138.328296 -9.487058 -75.326606 -9.727177 -74.805744 -27.426611 88.601939 
1.2360000000000000 -17.530790 -138.836350 -9.492359 -75.818282 -9.724904 -75.289434 -27.565526 87.500356 
1.2434437500000000 -17.518144 -139.304637 -9.497861 -76.223232 -9.722184 -75.733861 -27.735120 86.845870 
1.2508874999999999 -17.507815 -139.849968 -9.500492 -76.651279 -9.727218 -76.175593 -27.936937 86.072629 
1.2583312499999999 -17.491180 -140.411397 -9.508318 -77.137953 -9.726654 -76.650564 -28.106751 85.036037 
1.2657750000000001 -17.494099 -140.796104 -9.512740 -77.602735 -9.732892 -77.122536 -28.291384 83.996496 
1.2732187500000001 -17.469011 -141.511085 -9.518650 -78.043712 -9.738255 -77.474688 -28.446189 82.712618 
1.2806625000000000 -17.468153 -141.962731 -9.519209 -78.459734 -9.743811 -77.958297 -28.664114 81.733704 
1.2881062500000000 -17.448937 -142.521013 -9.531469 -78.835962 -9.731260 -78.414081 -28.861688 80.707612 
1.2955500000000000 -17.421686 -143.013148 -9.521662 -79.301744 -9.728046 -78.880300 -29.066644 78.805108 
1.3029937500000000 -17.391139 -143.698569 -9.529961 -79.682978 -9.744684 -79.337129 -29.214728 77.182852 
1.3104374999999999 -17.374829 -144.119192 -9.532898 -80.105245 -9.743863 -79.766707 -29.421012 75.464266 
1.3178812499999999 -17.336751 -144.598811 -9.521856 -80.566498 -9.755563 -80.219506 -29.631573 74.051415 
1.3253250000000001 -17.322079 -145.044548 -9.519912 -81.027104 -9.751738 -80.602610 -29.767585 72.273151 
1.3327687500000001 -17.303195 -145.484204 -9.533279 -81.479723 -9.752635 -81.026261 -29.947359 70.858448 
1.3402125000000000 -17.267716 -145.912923 -9.529199 -81.968045 -9.751095 -81.400286 -30.097337 69.802060 
1.3476562500000000 -17.253572 -146.242758 -9.534541 -82.378342 -9.748218 -81.918894 -30.182041 68.563944 
1.3551000000000000 -17.228265 -146.780482 -9.526099 -82.824010 -9.753991 -82.371965 -30.374524 66.730109 
1.3625437499999999 -17.215594 -147.158597 -9.533692 -83.300721 -9.760538 -82.808265 -30.492834 65.210803 
1.3699874999999999 -17.202318 -147.527239 -9.541568 -83.782891 -9.761990 -83.286703 -30.710638 63.851763 
1.3774312500000001 -17.177973 -147.838428 -9.535221 -84.238043 -9.771950 -83.623231 -30.905592 62.374817 
1.3848750000000001 -17.155108 -148.213348 -9.548336 -84.696035 -9.771551 -84.024402 -31.075806 61.263588 
1.3923187500000000 -17.164281 -148.603543 -9.558049 -85.088410 -9.759691 -84.400193 -31.413584 60.026619 
1.3997625000000000 -17.151289 -149.095382 -9.564938 -85.614815 -9.751671 -84.901897 -31.602254 57.967082 
1.4072062500000000 -17.150671 -149.570060 -9.560585 -86.014935 -9.737898 -85.386504 -31.888109 56.319457 
