!
! C:\Users\Aljaz\OneDrive - Univerza v Ljubljani\DOKTORAT\NOVI TG\PIN AGC ATT\meritve_BAP64Q\Vctrl_0V.S2P
!
! Touchstone 1.1 file saved by VNA.EXE V1.65 (www.ke5fx.com/gpib/readme.htm)
! 22. 10. 2022 12:15:23
!
!    Source: HP8510C.07.14: Aug 26  1998 
!  Min freq: 1.000000E+009 Hz
!  Max freq: 5.000000E+009 Hz
!    Points: 801
!    Params: S11 S21 S12 S22
!
!!!!!
# GHZ S DB R 50
1.0000000000000000 -4.128349 -116.654352 -31.354214 60.493090 -31.838756 -0.933181 -4.713088 -59.849883 
1.0049999999999999 -4.047340 -122.221581 -31.366388 54.742087 -31.818470 -7.288322 -4.628001 -65.332427 
1.0100000000000000 -3.985170 -127.612448 -31.365260 48.688529 -31.677218 -13.190834 -4.563587 -70.571938 
1.0149999999999999 -3.951727 -132.988535 -31.353866 42.761891 -31.714076 -19.253690 -4.539041 -75.747062 
1.0200000000000000 -3.911688 -138.299372 -31.267810 37.827286 -31.752401 -24.215788 -4.515109 -80.946656 
1.0249999999999999 -3.897829 -143.580371 -31.170972 32.055059 -31.539605 -32.025942 -4.514717 -86.036098 
1.0300000000000000 -3.916276 -148.825844 -31.366394 26.292824 -31.557350 -36.700382 -4.543122 -91.162395 
1.0349999999999999 -3.942530 -154.093637 -31.268010 19.471980 -31.524846 -43.151642 -4.593864 -96.252702 
1.0400000000000000 -3.978820 -159.553963 -31.203388 14.415563 -31.443752 -48.557250 -4.650928 -101.505001 
1.0449999999999999 -4.006424 -164.851173 -31.062365 9.027657 -31.420925 -53.631949 -4.736101 -106.774076 
1.0500000000000000 -4.054009 -170.328173 -31.083515 2.226226 -31.384846 -60.811155 -4.823203 -112.148786 
1.0549999999999999 -4.100140 -175.903594 -31.115456 -3.310396 -31.273850 -65.614336 -4.931201 -117.558398 
1.0600000000000001 -4.159277 178.438957 -30.895124 -9.201258 -31.230599 -71.186041 -5.003064 -123.159942 
1.0649999999999999 -4.199734 172.623851 -30.897948 -14.589263 -31.344461 -76.491163 -5.098049 -128.857725 
1.0700000000000001 -4.232539 166.661040 -30.901781 -20.659036 -31.156062 -82.963115 -5.149309 -134.722637 
1.0750000000000000 -4.274542 160.741947 -30.952053 -26.492629 -31.040161 -88.464989 -5.212823 -140.676073 
1.0800000000000001 -4.286514 154.709544 -30.591061 -32.631210 -31.001244 -93.185525 -5.253567 -146.886206 
1.0850000000000000 -4.299345 148.613670 -30.781602 -38.045951 -30.899328 -99.957919 -5.285323 -153.128870 
1.0900000000000001 -4.292329 142.415859 -30.510276 -44.427274 -30.899936 -106.015432 -5.290910 -159.450723 
1.0950000000000000 -4.286689 136.348983 -30.629433 -49.764838 -30.885185 -112.140360 -5.294286 -165.725820 
1.1000000000000001 -4.268426 130.310962 -30.647169 -54.735001 -30.850331 -117.090035 -5.283682 -172.136590 
1.1050000000000000 -4.246462 124.365360 -30.592078 -62.136864 -30.739651 -123.885227 -5.254137 -178.344494 
1.1100000000000001 -4.212418 118.445009 -30.522799 -68.308325 -30.746972 -130.588226 -5.222117 175.657566 
1.1150000000000000 -4.183424 112.715445 -30.408309 -74.434981 -30.690927 -135.076729 -5.163782 169.555721 
1.1200000000000001 -4.138582 107.046629 -30.470040 -79.398728 -30.638499 -141.490355 -5.115133 163.764621 
1.1250000000000000 -4.104687 101.449654 -30.423059 -85.427094 -30.666775 -147.391000 -5.064952 158.119475 
1.1299999999999999 -4.074030 95.876902 -30.594291 -90.923323 -30.549874 -153.534558 -5.019049 152.513732 
1.1350000000000000 -4.064761 90.449509 -30.392163 -96.392701 -30.639199 -159.045815 -4.978440 146.929321 
1.1399999999999999 -4.054230 84.957308 -30.524927 -103.490884 -30.500986 -164.727232 -4.928333 141.527539 
1.1450000000000000 -4.055707 79.638022 -30.277698 -108.711959 -30.698085 -169.751432 -4.921018 136.221285 
1.1499999999999999 -4.091626 74.300041 -30.315124 -114.323238 -30.591839 -176.294196 -4.901640 130.907411 
1.1550000000000000 -4.121448 68.820648 -30.155805 -121.260023 -30.666045 178.193767 -4.908171 125.589895 
1.1599999999999999 -4.179799 63.374218 -30.217089 -126.063058 -30.588692 172.864438 -4.939182 120.235106 
1.1650000000000000 -4.264365 57.871060 -30.052418 -132.030115 -30.615175 166.247163 -4.966763 114.944100 
1.1699999999999999 -4.329820 52.268543 -30.258933 -137.776723 -30.451738 161.381434 -5.012473 109.648173 
1.1750000000000000 -4.412498 46.683174 -30.105905 -143.215816 -30.511326 154.723470 -5.068038 104.306826 
1.1799999999999999 -4.501002 40.951729 -30.085776 -149.797321 -30.369835 149.664908 -5.134320 98.871009 
1.1850000000000001 -4.609029 35.120598 -30.023614 -155.460837 -30.360657 144.418769 -5.193296 93.375241 
1.1899999999999999 -4.667199 29.190338 -30.023200 -159.923939 -30.331920 138.158625 -5.246564 87.728182 
1.1950000000000001 -4.736279 23.351472 -30.015005 -166.829853 -30.312965 132.301050 -5.282570 82.037074 
1.2000000000000000 -4.783467 17.169841 -29.862565 -171.808318 -30.302430 127.730158 -5.311394 76.069284 
1.2050000000000001 -4.813013 10.917826 -30.122489 -177.145824 -30.225742 119.717607 -5.350663 70.110109 
1.2100000000000000 -4.837496 4.649855 -29.799634 176.867941 -30.064889 115.737429 -5.371473 63.944368 
1.2150000000000001 -4.819416 -1.553345 -29.752090 169.994358 -30.160526 109.460836 -5.365970 57.819462 
1.2200000000000000 -4.794217 -7.911095 -29.625643 164.059143 -30.056187 103.051718 -5.356670 51.654899 
1.2250000000000001 -4.752514 -14.250262 -29.677377 158.413464 -29.983056 97.700860 -5.339899 45.474434 
1.2300000000000000 -4.701319 -20.394297 -29.540015 151.903027 -29.974122 91.978143 -5.309531 39.293367 
1.2350000000000001 -4.638216 -26.494356 -29.700399 145.753875 -29.966263 85.979371 -5.269573 33.303552 
1.2400000000000000 -4.569030 -32.525092 -29.575300 139.346410 -30.004162 80.175880 -5.227553 27.282367 
1.2450000000000001 -4.499853 -38.335694 -29.564280 134.173763 -29.987190 73.928756 -5.176529 21.436662 
1.2500000000000000 -4.427880 -44.004660 -29.390659 128.578301 -29.967786 68.607134 -5.109529 15.618837 
1.2549999999999999 -4.367984 -49.638603 -29.439373 121.212403 -29.959152 61.979607 -5.070868 10.061186 
1.2600000000000000 -4.318319 -55.061674 -29.347764 116.204481 -29.965711 57.084212 -5.027473 4.499420 
1.2649999999999999 -4.266556 -60.471330 -29.429246 110.895794 -29.951083 51.621680 -5.000768 -0.880067 
1.2700000000000000 -4.235333 -65.708510 -29.324887 104.699291 -29.851635 46.089498 -4.967841 -6.170504 
1.2749999999999999 -4.226143 -71.057755 -29.467846 99.143294 -30.010507 39.755732 -4.945858 -11.403254 
1.2800000000000000 -4.230487 -76.336465 -29.384887 92.792465 -29.885045 34.382936 -4.953295 -16.546090 
1.2849999999999999 -4.240513 -81.487128 -29.358601 87.215980 -29.736794 29.030012 -4.960903 -21.760021 
1.2900000000000000 -4.274367 -86.794943 -29.314234 81.599825 -29.846089 23.484354 -4.956571 -26.984290 
1.2949999999999999 -4.312354 -92.140660 -29.297336 76.206481 -29.897327 17.670828 -4.977585 -32.106306 
1.3000000000000000 -4.380720 -97.549871 -29.264517 70.629190 -29.738378 12.176720 -5.006411 -37.334475 
1.3049999999999999 -4.441616 -103.124649 -29.083597 65.303051 -29.785653 6.572149 -5.025210 -42.674136 
1.3100000000000001 -4.524041 -108.729100 -29.245540 58.475220 -29.715054 0.722393 -5.057105 -48.091069 
1.3149999999999999 -4.612570 -114.611058 -29.061931 52.640602 -29.613156 -5.525091 -5.089619 -53.576847 
1.3200000000000001 -4.681868 -120.537582 -28.887669 46.337367 -29.637532 -10.472648 -5.113968 -59.307471 
1.3250000000000000 -4.768359 -126.532323 -28.968572 40.133278 -29.500896 -16.162320 -5.146713 -65.017687 
1.3300000000000001 -4.850449 -132.692375 -28.839263 35.324679 -29.408350 -21.998031 -5.177322 -70.875592 
1.3350000000000000 -4.904475 -139.013268 -28.879456 28.522945 -29.417876 -27.563086 -5.199620 -76.878987 
1.3400000000000001 -4.960123 -145.317961 -28.810009 22.832194 -29.284016 -34.062542 -5.207477 -82.851280 
1.3450000000000000 -4.974399 -151.688430 -28.752703 17.247762 -29.333063 -39.813980 -5.207631 -88.863022 
1.3500000000000001 -4.997756 -158.196285 -28.822621 10.438727 -29.245574 -45.338296 -5.180717 -94.840894 
1.3550000000000000 -4.978856 -164.443178 -28.791924 5.100777 -29.111829 -51.338971 -5.177338 -100.793351 
1.3600000000000001 -4.957966 -170.722845 -28.774582 -0.933393 -29.304496 -57.457495 -5.149799 -106.731064 
1.3650000000000000 -4.901160 -176.933572 -28.691986 -6.341841 -29.188736 -62.283396 -5.125904 -112.550701 
1.3700000000000001 -4.856647 176.955383 -28.652761 -12.747072 -29.168465 -69.015013 -5.086642 -118.272470 
1.3750000000000000 -4.789455 170.951797 -28.618589 -19.148979 -29.207828 -74.358356 -5.060099 -123.944935 
1.3799999999999999 -4.727333 164.982207 -28.640202 -24.934066 -29.084735 -80.744255 -5.028945 -129.427690 
1.3850000000000000 -4.682627 159.276939 -28.576364 -31.127256 -29.177118 -86.502298 -5.011978 -134.928447 
1.3899999999999999 -4.645286 153.545748 -28.646011 -36.406528 -29.098842 -91.885081 -5.003372 -140.250983 
1.3950000000000000 -4.604402 148.053351 -28.642360 -42.290284 -29.120915 -97.507746 -4.982823 -145.327418 
1.3999999999999999 -4.586595 142.538606 -28.732138 -47.472581 -29.107485 -103.566564 -5.000895 -150.574490 
1.4050000000000000 -4.569665 137.108553 -28.699140 -53.533836 -29.078955 -108.883146 -5.014085 -155.616616 
1.4099999999999999 -4.575135 131.794967 -28.746828 -58.684807 -29.056764 -114.441895 -5.037920 -160.686073 
1.4150000000000000 -4.591996 126.412128 -28.662981 -64.537416 -29.042522 -120.348006 -5.073582 -165.709729 
1.4199999999999999 -4.614913 121.143320 -28.593678 -69.890835 -29.051375 -125.493198 -5.105912 -170.696021 
1.4250000000000000 -4.658164 115.647903 -28.570435 -76.146480 -28.989077 -131.183038 -5.148065 -175.945031 
1.4299999999999999 -4.727187 110.149408 -28.431698 -81.478216 -28.873596 -136.400693 -5.203054 178.949578 
1.4350000000000001 -4.803814 104.468303 -28.359452 -88.088463 -28.926972 -142.357669 -5.242903 173.601192 
1.4399999999999999 -4.867301 98.904012 -28.388665 -93.239863 -28.816103 -147.649889 -5.290966 168.134525 
1.4450000000000001 -4.967698 93.006280 -28.413951 -99.603375 -28.678076 -153.810580 -5.345789 162.499279 
1.4500000000000000 -5.062471 87.142603 -28.420713 -105.747900 -28.752749 -160.261404 -5.389094 156.625065 
1.4550000000000001 -5.147203 81.099711 -28.385377 -111.328218 -28.625876 -165.282563 -5.433936 150.761098 
1.4600000000000000 -5.231549 74.929732 -28.267180 -116.956235 -28.625790 -171.886590 -5.484205 144.680737 
1.4650000000000001 -5.303988 68.756499 -28.243597 -122.498256 -28.637766 -177.931612 -5.510169 138.521867 
1.4700000000000000 -5.344208 62.508976 -28.129468 -128.817326 -28.591981 176.559678 -5.543427 132.410407 
1.4750000000000001 -5.365825 56.174560 -28.101033 -133.938527 -28.603147 171.164130 -5.560238 126.168436 
1.4800000000000000 -5.372300 49.813573 -28.149784 -140.271311 -28.516356 164.871357 -5.561423 120.114133 
1.4850000000000001 -5.333649 43.517027 -28.135988 -147.040778 -28.455762 159.187644 -5.550382 114.102755 
1.4900000000000000 -5.306168 37.198114 -28.152083 -151.885618 -28.431473 153.518810 -5.531343 108.106724 
1.4950000000000001 -5.233943 30.972798 -28.122296 -157.764329 -28.363006 147.810448 -5.502158 102.276531 
1.5000000000000000 -5.163459 24.789305 -28.171590 -164.481889 -28.398703 141.638897 -5.436813 96.682135 
1.5049999999999999 -5.113004 18.665057 -28.092638 -169.966143 -28.403935 136.532394 -5.407520 91.098257 
1.5100000000000000 -5.031616 12.766086 -27.915608 -175.130697 -28.415343 130.094062 -5.346945 85.724401 
1.5149999999999999 -4.978065 7.017688 -28.018177 178.167650 -28.433538 124.864606 -5.316976 80.425816 
1.5200000000000000 -4.927629 1.326059 -28.049886 172.432547 -28.417545 119.263303 -5.277568 75.286337 
1.5249999999999999 -4.877679 -4.197888 -27.969433 167.854227 -28.471252 113.246535 -5.248606 70.141279 
1.5300000000000000 -4.844528 -9.561240 -28.053579 161.640161 -28.461919 107.827063 -5.227693 65.126771 
1.5349999999999999 -4.833683 -14.774614 -27.956883 156.545330 -28.426680 103.221534 -5.236176 60.227575 
1.5400000000000000 -4.823554 -20.078901 -27.945925 150.629017 -28.330017 96.721824 -5.235606 55.336063 
1.5449999999999999 -4.824901 -25.403868 -27.959058 144.817734 -28.266572 90.888854 -5.269394 50.387438 
1.5500000000000000 -4.844916 -30.509609 -27.834071 138.996612 -28.188867 85.346319 -5.287032 45.302245 
1.5549999999999999 -4.880740 -35.904367 -27.825131 133.841375 -28.172400 80.509143 -5.339888 40.268640 
1.5600000000000001 -4.921236 -41.299989 -27.759861 128.154376 -27.982241 75.017590 -5.376392 34.984304 
1.5649999999999999 -4.989395 -46.827359 -27.603765 122.117970 -28.058374 68.958130 -5.439057 29.644680 
1.5700000000000001 -5.053301 -52.481859 -27.555755 116.561559 -28.007957 63.554136 -5.511044 24.055575 
1.5750000000000000 -5.146675 -58.371054 -27.515356 110.502562 -27.840290 57.169562 -5.588856 18.296057 
1.5800000000000001 -5.221468 -64.270882 -27.483493 104.710656 -27.837736 51.121392 -5.667703 12.389320 
1.5850000000000000 -5.320181 -70.295825 -27.440226 98.345211 -27.818533 45.667239 -5.777920 6.406658 
1.5900000000000001 -5.406188 -76.527207 -27.367285 92.259289 -27.802952 39.399103 -5.855105 0.253899 
1.5950000000000000 -5.477862 -82.802861 -27.361653 86.332342 -27.808803 33.720595 -5.938731 -5.951882 
1.6000000000000001 -5.533752 -89.232881 -27.332278 79.462795 -27.783427 28.008073 -6.004534 -12.077690 
1.6050000000000000 -5.565718 -95.650826 -27.376129 74.131809 -27.800953 22.228366 -6.047661 -18.327901 
1.6100000000000001 -5.560472 -102.265478 -27.433399 68.318453 -27.778251 16.217383 -6.076299 -24.593235 
1.6150000000000000 -5.538675 -108.715329 -27.277938 62.759373 -27.753630 10.266418 -6.098253 -30.637296 
1.6200000000000001 -5.501624 -115.446071 -27.208274 56.717913 -27.680631 4.266595 -6.073533 -36.717546 
1.6250000000000000 -5.453896 -121.920646 -27.226091 51.014307 -27.628176 -1.249365 -6.052030 -42.750945 
1.6299999999999999 -5.385085 -128.288482 -27.209997 44.693392 -27.641717 -7.194286 -6.018269 -48.771480 
1.6350000000000000 -5.320794 -134.478703 -27.255361 39.019059 -27.608525 -12.632126 -5.975877 -54.510042 
1.6399999999999999 -5.247545 -140.688648 -27.160806 32.902045 -27.613409 -18.970486 -5.927922 -60.248895 
1.6450000000000000 -5.186040 -146.608174 -27.095905 27.611650 -27.531310 -24.158968 -5.878976 -65.734293 
1.6499999999999999 -5.135495 -152.310594 -27.101563 21.515038 -27.619147 -30.100410 -5.843157 -71.199912 
1.6550000000000000 -5.085407 -157.892463 -27.202725 16.059258 -27.628297 -36.117672 -5.828251 -76.506724 
1.6599999999999999 -5.047097 -163.363643 -27.115316 9.474137 -27.518275 -41.749783 -5.820506 -81.766473 
1.6650000000000000 -5.012634 -168.631437 -27.123658 3.416734 -27.546867 -47.304528 -5.824135 -86.945524 
1.6699999999999999 -4.984735 -173.764358 -27.207439 -1.553714 -27.604558 -52.506891 -5.835518 -92.157210 
1.6750000000000000 -4.965036 -178.946999 -27.183345 -7.122225 -27.414985 -58.600966 -5.858912 -97.341728 
1.6799999999999999 -4.981698 175.925654 -26.957345 -12.336042 -27.484310 -63.739204 -5.897101 -102.590320 
1.6850000000000001 -4.987134 170.556056 -26.994053 -18.087809 -27.436171 -69.458405 -5.951925 -107.997722 
1.6899999999999999 -5.015819 165.346493 -26.951554 -23.772029 -27.380526 -74.672918 -6.014718 -113.410362 
1.6950000000000001 -5.056553 159.898174 -26.786307 -29.614309 -27.271988 -80.610306 -6.079346 -118.997672 
1.7000000000000000 -5.124827 154.303263 -26.713784 -35.823044 -27.288651 -86.020883 -6.162842 -124.716963 
1.7050000000000001 -5.190971 148.522747 -26.713925 -41.019572 -27.201031 -92.639973 -6.239390 -130.682398 
1.7100000000000000 -5.272014 142.712698 -26.688330 -47.716462 -27.019499 -98.381512 -6.311492 -136.654617 
1.7150000000000001 -5.360833 136.740981 -26.696391 -53.962202 -27.033224 -104.466306 -6.398701 -142.842637 
1.7200000000000000 -5.448105 130.624908 -26.583879 -59.833367 -27.042685 -110.996030 -6.452071 -149.119757 
1.7250000000000001 -5.518740 124.454039 -26.600491 -65.183412 -27.048053 -116.094165 -6.512209 -155.514087 
1.7300000000000000 -5.579820 118.129093 -26.589040 -71.954676 -26.947641 -121.970577 -6.571121 -161.902021 
1.7350000000000001 -5.621983 111.779388 -26.591739 -77.891221 -26.966089 -127.939314 -6.593374 -168.231108 
1.7400000000000000 -5.627007 105.273294 -26.587765 -83.762864 -26.913580 -134.033917 -6.586352 -174.731739 
1.7450000000000001 -5.628185 98.764966 -26.523574 -89.365418 -26.944185 -140.160200 -6.593911 178.868022 
1.7500000000000000 -5.592152 92.264140 -26.496432 -95.468460 -26.919478 -145.568384 -6.568708 172.630578 
1.7549999999999999 -5.559164 85.821298 -26.387635 -101.706999 -26.874105 -151.567932 -6.544538 166.480427 
1.7600000000000000 -5.516060 79.497711 -26.483275 -107.277977 -26.819136 -157.791898 -6.502355 160.445138 
1.7649999999999999 -5.466001 73.247021 -26.500759 -113.251365 -26.890298 -163.817011 -6.464597 154.414336 
1.7700000000000000 -5.416304 67.145146 -26.490589 -119.061777 -26.824479 -169.526601 -6.406787 148.632138 
1.7749999999999999 -5.350682 61.371327 -26.430843 -125.673262 -26.935286 -175.244632 -6.367663 142.807993 
1.7800000000000000 -5.301725 55.670628 -26.577210 -130.840659 -26.973815 178.970613 -6.331553 137.177728 
1.7849999999999999 -5.263344 50.216380 -26.615101 -136.322445 -26.942066 173.624381 -6.320783 131.557633 
1.7900000000000000 -5.221590 44.918805 -26.586313 -141.921646 -27.075807 168.236545 -6.295523 126.021272 
1.7949999999999999 -5.174773 39.782618 -26.616508 -147.508518 -27.041698 162.720332 -6.282697 120.682822 
1.8000000000000000 -5.138994 34.644399 -26.551888 -152.647278 -26.923370 157.792400 -6.273555 115.193079 
1.8049999999999999 -5.101181 29.526375 -26.513636 -158.503584 -26.913488 152.448031 -6.281825 109.700616 
1.8100000000000001 -5.079143 24.337487 -26.444214 -163.822593 -26.808360 146.489145 -6.274573 104.217459 
1.8149999999999999 -5.049589 19.102472 -26.398431 -169.750282 -26.729542 141.356858 -6.256892 98.624581 
1.8200000000000001 -5.042546 13.687639 -26.255623 -175.332954 -26.571084 135.141607 -6.264449 92.901915 
1.8250000000000000 -5.055445 8.075225 -26.093092 178.818583 -26.580940 129.286780 -6.254791 87.119300 
1.8300000000000001 -5.085585 2.409215 -26.009241 172.531142 -26.457118 123.171194 -6.231451 81.192408 
1.8350000000000000 -5.136800 -3.603324 -25.967555 166.377356 -26.347429 117.108050 -6.211836 75.165182 
1.8400000000000001 -5.198590 -9.582089 -25.957494 160.012074 -26.349355 110.906482 -6.200669 68.965686 
1.8450000000000000 -5.276008 -15.812246 -25.926749 154.008362 -26.243187 104.830306 -6.196476 62.709580 
1.8500000000000001 -5.345696 -22.218394 -25.931087 147.235135 -26.324066 98.427462 -6.195093 56.534567 
1.8550000000000000 -5.428290 -28.576311 -25.925966 141.725106 -26.395535 92.163923 -6.194074 50.319134 
1.8600000000000001 -5.501407 -35.046938 -25.871256 135.685157 -26.333901 86.335744 -6.179119 44.250772 
1.8650000000000000 -5.553329 -41.442958 -25.968239 129.448688 -26.348393 80.788423 -6.168751 38.342029 
1.8700000000000001 -5.567606 -47.999834 -26.038844 123.420352 -26.438678 74.279223 -6.145074 32.559486 
1.8750000000000000 -5.571078 -54.292082 -26.065152 117.833537 -26.444647 68.979786 -6.124846 26.914856 
1.8799999999999999 -5.553048 -60.675184 -26.072613 111.492326 -26.502870 63.257229 -6.107567 21.409168 
1.8850000000000000 -5.513392 -66.966648 -26.104733 105.676503 -26.577511 57.539357 -6.065990 16.034724 
1.8899999999999999 -5.468743 -73.159304 -26.083375 100.216236 -26.539774 51.952240 -6.037975 10.689718 
1.8950000000000000 -5.414805 -79.229282 -26.066967 94.650327 -26.565726 46.477913 -6.002231 5.448602 
1.8999999999999999 -5.355448 -85.050747 -26.136476 88.992121 -26.525907 41.208370 -5.987719 0.236903 
1.9050000000000000 -5.291551 -90.755664 -26.182231 83.031034 -26.451688 35.709898 -5.988637 -4.972985 
1.9099999999999999 -5.219009 -96.284909 -26.122001 78.085942 -26.586763 29.886665 -6.004283 -10.158113 
1.9150000000000000 -5.165590 -101.796603 -26.020712 71.865711 -26.586574 24.535470 -6.008347 -15.294937 
1.9199999999999999 -5.100850 -107.002353 -26.071705 66.405623 -26.436751 19.353670 -6.036429 -20.494953 
