!
! C:\Users\Aljaz\OneDrive - Univerza v Ljubljani\DOKTORAT\NOVI TG\PIN AGC ATT\meritve_BAP64Q\Vctrl_5V.S2P
!
! Touchstone 1.1 file saved by VNA.EXE V1.65 (www.ke5fx.com/gpib/readme.htm)
! 22. 10. 2022 12:13:37
!
!    Source: HP8510C.07.14: Aug 26  1998 
!  Min freq: 1.000000E+009 Hz
!  Max freq: 5.000000E+009 Hz
!    Points: 801
!    Params: S11 S21 S12 S22
!
!!!!!
# GHZ S DB R 50
1.0000000000000000 -12.598601 161.902879 -2.694192 -36.238967 -3.034394 -99.521025 -12.866316 -151.761374 
1.0049999999999999 -12.702004 157.152707 -2.687148 -42.435072 -2.996770 -105.523849 -13.180490 -157.085698 
1.0100000000000000 -12.891261 152.375893 -2.678906 -48.440585 -2.985618 -111.584376 -13.478059 -161.802535 
1.0149999999999999 -13.145216 147.280276 -2.687785 -54.450686 -2.993060 -117.485552 -13.800928 -166.926110 
1.0200000000000000 -13.420970 142.220475 -2.690696 -60.295323 -2.997726 -123.363396 -14.131186 -172.233840 
1.0249999999999999 -13.709408 136.909063 -2.685714 -66.263412 -3.000991 -129.196425 -14.427462 -178.190827 
1.0300000000000000 -14.053386 131.506300 -2.686137 -72.128547 -3.003941 -135.000000 -14.704958 175.402115 
1.0349999999999999 -14.355652 125.546435 -2.691696 -78.000976 -3.006561 -140.665029 -14.977949 168.143802 
1.0400000000000000 -14.609310 119.503812 -2.704736 -83.850416 -2.991002 -146.417370 -15.294027 160.355574 
1.0449999999999999 -14.834312 113.003518 -2.702136 -89.718378 -2.980395 -152.232506 -15.549853 152.125460 
1.0500000000000000 -14.977697 105.928220 -2.711441 -95.479523 -2.977181 -158.037116 -15.759004 143.614063 
1.0549999999999999 -15.138364 98.927687 -2.711965 -101.412551 -2.966946 -163.801799 -15.974242 135.735042 
1.0600000000000001 -15.250658 90.969106 -2.707329 -107.360291 -2.955842 -169.652516 -16.063672 127.844883 
1.0649999999999999 -15.329775 83.644589 -2.712216 -113.214274 -2.947378 -175.500372 -16.072842 120.650850 
1.0700000000000001 -15.403956 76.115542 -2.708606 -119.111211 -2.938293 178.467080 -15.943763 114.059329 
1.0750000000000000 -15.475402 69.430583 -2.714510 -125.048409 -2.948989 172.729712 -15.738576 107.459078 
1.0800000000000001 -15.502445 63.169359 -2.712715 -130.939784 -2.954603 166.784946 -15.490395 101.402257 
1.0850000000000000 -15.474681 57.584569 -2.712869 -136.943489 -2.956563 160.954208 -15.226802 95.552177 
1.0900000000000001 -15.383749 52.379878 -2.723576 -142.842043 -2.974112 155.103606 -14.961675 89.696541 
1.0950000000000000 -15.289707 47.338725 -2.734381 -148.758937 -2.974392 149.315827 -14.758908 83.999891 
1.1000000000000001 -15.168872 42.443468 -2.751793 -154.695270 -2.976581 143.466085 -14.635774 78.709015 
1.1050000000000000 -15.056118 37.534946 -2.761605 -160.472257 -2.983574 137.643560 -14.557076 73.668606 
1.1100000000000001 -14.939203 32.258703 -2.756419 -166.320808 -2.983031 131.838248 -14.579241 68.933570 
1.1150000000000000 -14.927225 26.781986 -2.764361 -172.175511 -2.993862 125.923575 -14.605335 64.393045 
1.1200000000000001 -14.989223 21.428467 -2.771337 -177.981213 -2.996772 120.041930 -14.668224 60.073463 
1.1250000000000000 -15.148253 15.745501 -2.761049 176.142929 -3.001897 114.234387 -14.741516 55.655419 
1.1299999999999999 -15.397163 10.076989 -2.753921 170.195079 -3.018776 108.411465 -14.857032 51.182721 
1.1350000000000000 -15.745396 4.308305 -2.753832 164.366913 -3.016980 102.509754 -14.964173 46.187562 
1.1399999999999999 -16.139595 -1.177243 -2.761543 158.424382 -3.028093 96.703029 -15.186921 41.116443 
1.1450000000000000 -16.538704 -6.596845 -2.758395 152.550801 -3.026511 90.802708 -15.399889 35.143002 
1.1499999999999999 -16.893650 -12.629623 -2.768229 146.632756 -3.033744 84.997504 -15.692861 29.376015 
1.1550000000000000 -17.216669 -19.217571 -2.782919 140.731105 -3.064107 79.166817 -16.010143 23.377349 
1.1599999999999999 -17.538845 -26.370667 -2.791730 134.923271 -3.066165 73.309339 -16.327075 16.398588 
1.1650000000000000 -17.800366 -34.078761 -2.788614 128.936127 -3.080619 67.479662 -16.577055 10.217337 
1.1699999999999999 -18.005530 -43.118963 -2.800150 123.191330 -3.084599 61.666807 -16.861150 3.056174 
1.1750000000000000 -18.199957 -52.129846 -2.796615 117.365692 -3.105799 55.834248 -17.028463 -3.859095 
1.1799999999999999 -18.366232 -61.283453 -2.802150 111.341881 -3.124462 49.981095 -17.087593 -11.030993 
1.1850000000000001 -18.451233 -70.297335 -2.800516 105.541554 -3.126085 44.274352 -17.092730 -18.423099 
1.1899999999999999 -18.510661 -78.537318 -2.798031 99.573796 -3.141104 38.457118 -17.014942 -25.957811 
1.1950000000000001 -18.435143 -85.748572 -2.795203 93.659543 -3.143277 32.630073 -16.930170 -33.307770 
1.2000000000000000 -18.329624 -91.641210 -2.813663 87.705234 -3.166762 26.891580 -16.864394 -40.224719 
1.2050000000000001 -18.177253 -96.857767 -2.811560 81.861694 -3.181735 20.991161 -16.838421 -46.643379 
1.2100000000000000 -17.837780 -101.319954 -2.830545 75.976677 -3.193611 15.228313 -16.809377 -52.356558 
1.2150000000000001 -17.525447 -105.741281 -2.832529 70.096999 -3.203385 9.458585 -16.745540 -57.516126 
1.2200000000000000 -17.149240 -109.801006 -2.835943 64.245723 -3.222792 3.595616 -16.701585 -61.843434 
1.2250000000000001 -16.823854 -114.569682 -2.835701 58.304699 -3.241708 -2.179468 -16.570059 -65.675986 
1.2300000000000000 -16.523224 -119.119192 -2.848636 52.513102 -3.266051 -7.912205 -16.439412 -69.342425 
1.2350000000000001 -16.376449 -123.785937 -2.840203 46.659983 -3.283645 -13.601142 -16.337600 -73.054112 
1.2400000000000000 -16.340316 -128.335479 -2.836104 40.823172 -3.291495 -19.367073 -16.219423 -77.111607 
1.2450000000000001 -16.399170 -132.776722 -2.832704 34.933268 -3.300567 -25.074968 -16.200048 -81.470352 
1.2500000000000000 -16.500467 -137.323817 -2.824155 29.131244 -3.303282 -30.776902 -16.215844 -86.415216 
1.2549999999999999 -16.692288 -141.812748 -2.808394 23.203986 -3.303315 -36.499550 -16.321829 -91.130649 
1.2600000000000000 -16.934384 -146.126365 -2.806137 17.246390 -3.302076 -42.210558 -16.591859 -96.298788 
1.2649999999999999 -17.236973 -151.054121 -2.804098 11.363448 -3.301584 -47.926879 -16.877427 -101.261468 
1.2700000000000000 -17.570402 -156.832430 -2.802643 5.445369 -3.294518 -53.714703 -17.213451 -106.332253 
1.2749999999999999 -18.007555 -162.955395 -2.794684 -0.484848 -3.285499 -59.506375 -17.639276 -111.090371 
1.2800000000000000 -18.437375 -170.489652 -2.782463 -6.379564 -3.289798 -65.318496 -17.989980 -115.909713 
1.2849999999999999 -19.091444 -178.836482 -2.779944 -12.322991 -3.289378 -71.067624 -18.375941 -121.489205 
1.2900000000000000 -19.704871 172.145967 -2.768869 -18.190057 -3.287197 -76.839296 -18.680007 -127.705046 
1.2949999999999999 -20.367498 162.474320 -2.761508 -24.178661 -3.293967 -82.675653 -18.971532 -134.629309 
1.3000000000000000 -21.004465 152.119187 -2.747565 -30.207909 -3.288397 -88.434664 -19.215636 -142.170728 
1.3049999999999999 -21.570708 141.500933 -2.761756 -36.152816 -3.289207 -94.304113 -19.448695 -150.123326 
1.3100000000000001 -21.886117 131.729838 -2.755995 -42.088244 -3.283143 -100.157865 -19.677900 -158.125067 
1.3149999999999999 -21.998970 122.678197 -2.769789 -48.059449 -3.292192 -105.913115 -19.880794 -165.821010 
1.3200000000000001 -21.742118 114.628321 -2.770181 -54.062467 -3.299667 -111.651868 -19.970447 -173.005747 
1.3250000000000000 -21.419911 107.316557 -2.774912 -59.993024 -3.300094 -117.500382 -19.979386 -179.182293 
1.3300000000000001 -20.940175 100.408100 -2.784289 -65.909573 -3.302284 -123.322663 -19.869431 175.020186 
1.3350000000000000 -20.348738 94.673893 -2.787314 -71.840953 -3.310847 -129.119562 -19.723216 169.055861 
1.3400000000000001 -19.813627 88.692797 -2.793436 -77.711861 -3.305487 -134.857090 -19.553198 163.760304 
1.3450000000000000 -19.450892 83.434358 -2.799132 -83.714976 -3.312903 -140.674382 -19.323738 158.620616 
1.3500000000000001 -19.060927 78.578117 -2.800206 -89.543808 -3.313955 -146.436355 -19.120863 153.165519 
1.3550000000000000 -18.833119 74.013127 -2.814519 -95.438271 -3.320188 -152.239547 -19.074545 147.787394 
1.3600000000000001 -18.717362 69.724014 -2.826803 -101.415813 -3.320841 -158.022029 -19.121870 142.751201 
1.3650000000000000 -18.566531 65.940226 -2.838823 -107.392210 -3.327644 -163.779806 -19.280012 138.223783 
1.3700000000000001 -18.529080 62.523080 -2.849942 -113.271585 -3.339882 -169.610386 -19.534014 133.842752 
1.3750000000000000 -18.467758 58.533168 -2.851275 -119.158834 -3.328440 -175.393354 -19.829717 130.019886 
1.3799999999999999 -18.462163 54.480412 -2.859586 -125.039602 -3.330985 178.835047 -20.177538 126.471026 
1.3850000000000000 -18.513083 49.280840 -2.870756 -130.840953 -3.337090 173.029762 -20.425741 122.600066 
1.3899999999999999 -18.722917 43.266636 -2.891728 -136.744065 -3.339300 167.283161 -20.773534 118.683303 
1.3950000000000000 -19.015682 36.667724 -2.887935 -142.599540 -3.349893 161.495121 -21.133983 113.311082 
1.3999999999999999 -19.424355 29.246327 -2.897008 -148.469887 -3.357816 155.810165 -21.544226 107.508533 
1.4050000000000000 -20.049689 20.868640 -2.891117 -154.407983 -3.352687 149.930012 -22.076939 99.602886 
1.4099999999999999 -20.730271 11.964083 -2.901337 -160.287700 -3.345924 144.136649 -22.760116 90.840938 
1.4150000000000000 -21.452842 2.292265 -2.914452 -166.268637 -3.345150 138.409362 -23.458309 81.365439 
1.4199999999999999 -22.206509 -8.253635 -2.918201 -172.113838 -3.349452 132.491969 -24.159850 71.362540 
1.4250000000000000 -22.828477 -18.301897 -2.929379 -178.064240 -3.351089 126.634325 -24.822799 60.985161 
1.4299999999999999 -23.212804 -28.712727 -2.928843 176.077401 -3.358537 120.826913 -25.208497 50.879778 
1.4350000000000001 -23.384334 -38.467795 -2.959114 170.080594 -3.357590 115.021401 -25.489020 40.631622 
1.4399999999999999 -23.289404 -47.897009 -2.977676 164.173379 -3.371699 109.206954 -25.251492 32.611424 
1.4450000000000001 -23.043770 -56.129206 -2.974688 158.354071 -3.387326 103.369172 -24.727638 25.020985 
1.4500000000000000 -22.586319 -63.390188 -2.997739 152.445473 -3.388973 97.603349 -24.140664 17.432367 
1.4550000000000001 -22.246006 -70.002871 -3.022994 146.633433 -3.399895 91.818430 -23.417129 10.320785 
1.4600000000000000 -21.866617 -75.461661 -3.025613 140.779612 -3.409089 86.007164 -22.788757 3.337443 
1.4650000000000001 -21.383176 -79.291235 -3.033120 134.929875 -3.417575 80.192584 -22.392489 -2.623478 
1.4700000000000000 -21.038863 -83.227277 -3.050956 129.113381 -3.424268 74.445766 -22.206422 -8.863349 
1.4750000000000001 -20.656322 -86.195017 -3.053366 123.278591 -3.435445 68.696248 -22.118696 -13.838696 
1.4800000000000000 -20.288663 -88.804631 -3.064223 117.447502 -3.436262 62.891383 -22.203378 -17.672454 
1.4850000000000001 -19.953676 -91.698171 -3.079394 111.699120 -3.442522 57.167020 -22.373921 -20.552009 
1.4900000000000000 -19.668138 -94.795789 -3.073663 105.799981 -3.441558 51.358049 -22.626303 -22.688337 
1.4950000000000001 -19.421468 -98.720038 -3.075592 99.993984 -3.448817 45.510347 -22.716765 -23.629037 
1.5000000000000000 -19.316207 -103.130746 -3.078943 94.143507 -3.463702 39.853269 -22.867584 -25.300332 
1.5049999999999999 -19.313040 -107.988559 -3.090219 88.372614 -3.456722 34.101608 -22.922083 -28.367482 
1.5100000000000000 -19.538792 -113.599469 -3.078253 82.572356 -3.461296 28.326512 -23.060596 -32.216293 
1.5149999999999999 -19.937977 -119.360238 -3.074393 76.751631 -3.455202 22.600845 -23.392257 -38.492837 
1.5200000000000000 -20.473046 -125.369990 -3.069757 70.918637 -3.442602 16.841141 -23.930701 -45.442258 
1.5249999999999999 -21.177623 -132.175866 -3.064311 65.015272 -3.436660 11.030806 -24.690388 -54.318006 
1.5300000000000000 -22.032817 -139.202779 -3.067137 59.225776 -3.428038 5.245875 -25.579517 -65.301753 
1.5349999999999999 -22.875314 -146.558934 -3.066537 53.330703 -3.435592 -0.620667 -26.712380 -77.690171 
1.5400000000000000 -23.735214 -155.436890 -3.062801 47.481148 -3.440395 -6.415655 -27.527491 -91.981385 
1.5449999999999999 -24.530200 -165.639140 -3.048074 41.501333 -3.433799 -12.193401 -28.207595 -107.113684 
1.5500000000000000 -25.003403 -177.532145 -3.052307 35.642819 -3.451225 -18.022783 -28.026598 -121.705629 
1.5549999999999999 -25.430450 170.296633 -3.046518 29.779375 -3.463783 -23.900588 -27.647380 -135.426819 
1.5600000000000001 -25.552990 157.009726 -3.051332 23.880754 -3.461495 -29.646347 -26.883371 -146.417721 
1.5649999999999999 -25.457885 145.841763 -3.060598 17.969329 -3.467384 -35.457084 -25.765943 -156.138368 
1.5700000000000001 -25.097491 135.769901 -3.073041 12.107628 -3.483786 -41.274848 -24.781033 -164.254246 
1.5750000000000000 -24.700285 128.129389 -3.071787 6.210664 -3.470443 -47.069030 -23.935655 -170.528633 
1.5800000000000001 -24.354589 122.709753 -3.086394 0.326788 -3.489139 -52.834315 -23.181768 -176.391024 
1.5850000000000000 -23.830863 119.416413 -3.085409 -5.505834 -3.494173 -58.627325 -22.654401 178.611354 
1.5900000000000001 -23.112114 116.872754 -3.097749 -11.410357 -3.497373 -64.428035 -22.279208 174.287709 
1.5950000000000000 -22.416995 115.138276 -3.091405 -17.330647 -3.509471 -70.175991 -22.012336 170.717522 
1.6000000000000001 -21.768468 112.912930 -3.101299 -23.173654 -3.517255 -76.004448 -21.832982 168.527558 
1.6050000000000000 -21.099375 110.150744 -3.102234 -29.025715 -3.510630 -81.820629 -21.746814 166.078485 
1.6100000000000001 -20.556422 106.567333 -3.108279 -34.926871 -3.528114 -87.576689 -21.703601 163.656082 
1.6150000000000000 -20.257453 102.834302 -3.109920 -40.792028 -3.523264 -93.367543 -21.629245 161.450826 
1.6200000000000001 -20.053070 98.493037 -3.113194 -46.691758 -3.520729 -99.167861 -21.591931 158.465258 
1.6250000000000000 -20.166549 94.809159 -3.113606 -52.561552 -3.530785 -104.880004 -21.654123 155.153388 
1.6299999999999999 -20.364377 90.948230 -3.131151 -58.533109 -3.536318 -110.781740 -21.861167 151.153969 
1.6350000000000000 -20.810253 88.137766 -3.127976 -64.280174 -3.540096 -116.600317 -22.026097 146.943737 
1.6399999999999999 -21.273101 85.259685 -3.142318 -70.312909 -3.549442 -122.415095 -22.317785 141.990092 
1.6450000000000000 -21.768246 82.501137 -3.144621 -76.112370 -3.549914 -128.237773 -22.552691 136.244194 
1.6499999999999999 -22.322917 79.268068 -3.147161 -82.031185 -3.550626 -133.947684 -22.745134 129.735132 
1.6550000000000000 -22.869891 75.254117 -3.149441 -87.903917 -3.565775 -139.782988 -22.829855 122.098286 
1.6599999999999999 -23.565748 69.219881 -3.149657 -93.706430 -3.563188 -145.584857 -22.895186 113.436901 
1.6650000000000000 -24.491666 62.243853 -3.155758 -99.669020 -3.575722 -151.404492 -22.724513 102.655650 
1.6699999999999999 -25.540720 52.801260 -3.149618 -105.626473 -3.576801 -157.265823 -22.491278 92.064842 
1.6750000000000000 -26.653535 41.417028 -3.162717 -111.528966 -3.578528 -163.064584 -22.181947 81.178853 
1.6799999999999999 -27.910607 27.278302 -3.176657 -117.437577 -3.592648 -168.960771 -21.841790 70.627710 
1.6850000000000001 -29.170231 11.455917 -3.196964 -123.388757 -3.604907 -174.675153 -21.531139 60.806131 
1.6899999999999999 -29.890915 -4.803882 -3.209689 -129.157306 -3.613957 179.493694 -21.245538 52.409107 
1.6950000000000001 -30.324371 -19.197875 -3.218183 -135.112825 -3.632642 173.720824 -21.051483 45.416910 
1.7000000000000000 -30.055647 -26.595388 -3.242540 -140.908240 -3.652675 167.904682 -20.811717 40.563292 
1.7050000000000001 -29.812089 -33.492152 -3.243863 -146.786897 -3.654570 162.207639 -20.648960 36.545817 
1.7100000000000000 -28.829340 -35.911572 -3.259293 -152.579118 -3.663355 156.441908 -20.398963 33.584709 
1.7150000000000001 -27.646849 -36.524626 -3.279481 -158.310372 -3.678473 150.726477 -20.028834 30.844911 
1.7200000000000000 -26.529753 -38.225823 -3.280276 -164.146402 -3.686113 145.049579 -19.674232 28.252419 
1.7250000000000001 -25.467511 -40.002240 -3.287204 -169.948834 -3.687933 139.373914 -19.360569 25.226414 
1.7300000000000000 -24.642631 -42.469772 -3.297280 -175.791833 -3.693506 133.540455 -19.140921 21.805824 
1.7350000000000001 -24.004624 -44.672825 -3.292924 178.405736 -3.698284 127.830850 -19.035133 18.085492 
1.7400000000000000 -23.446485 -47.051603 -3.299458 172.616870 -3.705447 122.122940 -19.043461 14.871014 
1.7450000000000001 -23.088768 -48.225034 -3.316952 166.780162 -3.688114 116.340278 -19.136574 11.666577 
1.7500000000000000 -22.843183 -50.108437 -3.318840 160.924944 -3.711781 110.517453 -19.286606 8.935049 
1.7549999999999999 -22.732963 -50.659402 -3.319710 155.196581 -3.716569 104.740147 -19.423977 6.812960 
1.7600000000000000 -22.560020 -51.702744 -3.336223 149.499440 -3.712651 99.043149 -19.462082 4.291561 
1.7649999999999999 -22.388989 -53.567789 -3.326174 143.545020 -3.720042 93.302328 -19.423921 1.450345 
1.7700000000000000 -22.346825 -56.255922 -3.330424 137.858510 -3.712342 87.688384 -19.225328 -2.699874 
1.7749999999999999 -22.458038 -59.626221 -3.306569 132.078687 -3.710994 81.891127 -19.117333 -8.182322 
1.7800000000000000 -22.751345 -64.949940 -3.302926 126.170653 -3.697901 76.065674 -19.035460 -14.909623 
1.7849999999999999 -23.323310 -70.464517 -3.303604 120.335604 -3.696952 70.314129 -19.012921 -23.191924 
1.7900000000000000 -24.187645 -77.361964 -3.288719 114.445220 -3.697301 64.463133 -19.145407 -31.641504 
1.7949999999999999 -25.285935 -85.270888 -3.281237 108.574519 -3.683460 58.665054 -19.347890 -40.686184 
1.8000000000000000 -26.681391 -93.079228 -3.283944 102.590254 -3.682819 52.800396 -19.668873 -49.804905 
1.8049999999999999 -28.206263 -103.149905 -3.297839 96.719841 -3.677200 46.959254 -19.989030 -58.131370 
1.8100000000000001 -29.833037 -113.870754 -3.294840 90.712902 -3.691271 41.032076 -20.437921 -65.410130 
1.8149999999999999 -31.112625 -127.534934 -3.295917 84.923332 -3.698254 35.111086 -20.695466 -72.030797 
1.8200000000000001 -32.020213 -141.787286 -3.312829 78.983819 -3.712219 29.303284 -21.057171 -76.734319 
1.8250000000000000 -32.103135 -155.070342 -3.328104 73.150157 -3.714104 23.526041 -21.222439 -81.072499 
1.8300000000000001 -31.597342 -166.665418 -3.327319 67.269855 -3.725041 17.770143 -21.246582 -84.189742 
1.8350000000000000 -30.764015 -172.356608 -3.333456 61.462661 -3.733620 11.938210 -21.197674 -87.668682 
1.8400000000000001 -29.632829 -177.222790 -3.329046 55.661772 -3.746245 6.240328 -21.126406 -90.766422 
1.8450000000000000 -28.453883 179.271118 -3.342634 49.763494 -3.745655 0.425225 -21.078334 -94.322222 
1.8500000000000001 -27.226638 178.397631 -3.343936 43.958801 -3.766279 -5.308483 -21.030290 -97.368601 
1.8550000000000000 -26.230116 177.018516 -3.330872 38.070767 -3.763532 -10.978317 -20.995414 -100.275910 
1.8600000000000001 -25.051453 175.200965 -3.333931 32.265481 -3.766695 -16.731030 -20.977210 -103.413343 
1.8650000000000000 -23.996772 173.057526 -3.336860 26.528306 -3.770458 -22.435920 -20.950009 -106.635020 
1.8700000000000001 -23.020641 170.270067 -3.329732 20.671347 -3.756957 -28.143976 -20.937469 -110.192998 
1.8750000000000000 -22.402372 166.476128 -3.318290 14.843452 -3.756513 -33.950894 -20.916257 -114.958350 
1.8799999999999999 -21.847773 161.844637 -3.315771 8.973024 -3.756123 -39.716733 -20.951230 -120.878022 
1.8850000000000000 -21.735734 157.201303 -3.306700 3.164074 -3.749269 -45.465481 -21.039468 -127.772572 
1.8899999999999999 -21.741846 151.626163 -3.309643 -2.790960 -3.752073 -51.249335 -21.191475 -135.217159 
1.8950000000000000 -22.054469 146.513441 -3.301490 -8.645067 -3.744530 -57.062994 -21.463671 -144.207316 
1.8999999999999999 -22.584090 141.281588 -3.306102 -14.544457 -3.740107 -62.862406 -21.746894 -153.362040 
1.9050000000000000 -23.419476 136.318638 -3.307461 -20.457514 -3.746226 -68.699884 -22.039749 -163.381771 
1.9099999999999999 -24.449481 132.327920 -3.313688 -26.363503 -3.741766 -74.555663 -22.266656 -173.122743 
1.9150000000000000 -25.666370 127.403293 -3.314576 -32.251601 -3.743207 -80.313864 -22.377702 176.615481 
1.9199999999999999 -27.122968 123.321180 -3.327825 -38.146276 -3.747109 -86.150654 -22.400053 167.234303 
