!
! C:\Users\Aljaz\OneDrive - Univerza v Ljubljani\DOKTORAT\NOVI TG\PIN AGC ATT\meritve_BAP64Q\Vctrl_12V.S2P
!
! Touchstone 1.1 file saved by VNA.EXE V1.65 (www.ke5fx.com/gpib/readme.htm)
! 22. 10. 2022 12:12:38
!
!    Source: HP8510C.07.14: Aug 26  1998 
!  Min freq: 1.000000E+009 Hz
!  Max freq: 5.000000E+009 Hz
!    Points: 801
!    Params: S11 S21 S12 S22
!
!!!!!
# GHZ S DB R 50
1.0000000000000000 -12.164113 171.419946 -1.105614 -37.058953 -1.446340 -100.410695 -12.304318 -142.621847 
1.0049999999999999 -12.253245 166.754244 -1.090856 -43.178692 -1.416926 -106.532646 -12.608244 -147.689139 
1.0100000000000000 -12.428556 162.006174 -1.081236 -49.258014 -1.397460 -112.417334 -12.900071 -152.216824 
1.0149999999999999 -12.636288 157.237107 -1.099496 -55.213477 -1.400857 -118.400252 -13.202995 -156.883825 
1.0200000000000000 -12.890098 152.290658 -1.094215 -61.097194 -1.403588 -124.239562 -13.464305 -161.942862 
1.0249999999999999 -13.189345 147.239827 -1.094048 -66.942293 -1.402840 -130.073690 -13.741107 -167.422975 
1.0300000000000000 -13.449848 142.298871 -1.095163 -72.864168 -1.409282 -135.858002 -14.037164 -173.834027 
1.0349999999999999 -13.735330 136.821540 -1.107360 -78.744991 -1.416020 -141.586728 -14.351453 179.235751 
1.0400000000000000 -13.985518 131.313476 -1.111321 -84.628721 -1.403354 -147.342817 -14.654534 171.619337 
1.0449999999999999 -14.162824 125.003363 -1.122993 -90.449715 -1.393326 -153.098031 -15.055907 163.710021 
1.0500000000000000 -14.369240 118.392255 -1.122284 -96.360188 -1.387800 -158.947169 -15.405084 155.899440 
1.0549999999999999 -14.527460 111.147327 -1.117808 -102.213232 -1.387743 -164.718792 -15.725453 148.112739 
1.0600000000000001 -14.727516 103.996379 -1.111844 -107.953556 -1.355815 -170.526253 -15.951025 140.525914 
1.0649999999999999 -14.863010 96.618088 -1.114231 -113.912233 -1.353889 -176.458467 -16.029738 133.722965 
1.0700000000000001 -14.967335 89.448983 -1.112655 -119.816372 -1.349571 177.705719 -15.960140 127.012675 
1.0750000000000000 -15.114091 82.865711 -1.104983 -125.841229 -1.345316 171.781556 -15.774371 120.722271 
1.0800000000000001 -15.175341 76.910991 -1.105757 -131.653168 -1.362664 165.871975 -15.547396 114.145366 
1.0850000000000000 -15.162557 71.335365 -1.115787 -137.677760 -1.362302 160.053240 -15.234087 107.885511 
1.0900000000000001 -15.064579 66.235921 -1.130219 -143.594132 -1.371943 154.222532 -14.998988 101.561545 
1.0950000000000000 -14.923006 61.601903 -1.138874 -149.435907 -1.369627 148.419725 -14.793428 95.433039 
1.1000000000000001 -14.699248 56.323096 -1.156425 -155.347910 -1.385812 142.500439 -14.664762 89.652334 
1.1050000000000000 -14.517162 51.050409 -1.151980 -161.194445 -1.390117 136.751613 -14.618113 84.432417 
1.1100000000000001 -14.379100 45.517854 -1.162567 -167.032350 -1.386008 130.899399 -14.623093 79.638731 
1.1150000000000000 -14.315616 39.723254 -1.164614 -172.859609 -1.393994 125.082334 -14.624688 75.338510 
1.1200000000000001 -14.403230 33.970145 -1.170726 -178.725369 -1.401698 119.200490 -14.642827 71.032389 
1.1250000000000000 -14.543326 28.237266 -1.164600 175.400408 -1.408891 113.296611 -14.720228 66.729224 
1.1299999999999999 -14.804521 22.576231 -1.159758 169.575402 -1.413405 107.481059 -14.750249 62.372052 
1.1350000000000000 -15.166962 17.351620 -1.157189 163.657807 -1.425182 101.644497 -14.885957 57.546122 
1.1399999999999999 -15.546819 12.588431 -1.151809 157.725527 -1.424046 95.750975 -15.022248 52.449888 
1.1450000000000000 -15.885424 7.690873 -1.161780 151.892829 -1.455008 89.931775 -15.265112 46.865868 
1.1499999999999999 -16.252195 2.283448 -1.166673 145.948286 -1.454799 84.122576 -15.555442 40.957154 
1.1550000000000000 -16.552112 -3.585122 -1.178741 140.052117 -1.457378 78.271527 -15.928815 35.340509 
1.1599999999999999 -16.826203 -10.320597 -1.181517 134.168454 -1.464244 72.443375 -16.289383 29.371739 
1.1650000000000000 -17.220266 -17.703172 -1.196981 128.280880 -1.469717 66.669800 -16.621286 23.069069 
1.1699999999999999 -17.514436 -25.888821 -1.193690 122.446417 -1.486046 60.757983 -16.952769 16.766445 
1.1750000000000000 -17.887620 -34.702078 -1.197106 116.637749 -1.501004 54.985162 -17.154018 10.209628 
1.1799999999999999 -18.245738 -43.686514 -1.207156 110.775687 -1.519708 49.204194 -17.282613 3.128205 
1.1850000000000001 -18.598142 -52.035296 -1.208447 104.886760 -1.521605 43.346927 -17.362240 -4.638240 
1.1899999999999999 -18.801433 -60.212141 -1.206977 98.983700 -1.538564 37.611357 -17.390507 -12.453318 
1.1950000000000001 -18.927818 -66.711108 -1.196828 93.114154 -1.550562 31.777166 -17.375447 -19.922923 
1.2000000000000000 -18.828740 -72.561656 -1.199151 87.222702 -1.567121 26.027447 -17.435697 -26.981223 
1.2050000000000001 -18.588620 -77.417994 -1.204365 81.244677 -1.576978 20.186239 -17.437440 -33.738819 
1.2100000000000000 -18.189812 -82.162507 -1.205490 75.338644 -1.584693 14.412879 -17.499065 -39.659312 
1.2150000000000001 -17.660333 -86.903169 -1.218778 69.444658 -1.603797 8.557806 -17.455712 -44.481112 
1.2200000000000000 -17.168764 -91.915652 -1.224468 63.602415 -1.611904 2.817727 -17.355548 -48.200054 
1.2250000000000001 -16.705760 -97.207750 -1.215217 57.770353 -1.619505 -2.993190 -17.209880 -51.808581 
1.2300000000000000 -16.399382 -102.825151 -1.224676 51.843904 -1.646679 -8.814293 -16.995386 -55.264164 
1.2350000000000001 -16.175048 -108.123475 -1.227928 45.965615 -1.657475 -14.525884 -16.710145 -59.049592 
1.2400000000000000 -16.056931 -113.375027 -1.222502 40.138024 -1.668679 -20.226950 -16.463301 -63.244994 
1.2450000000000001 -16.093730 -117.785813 -1.210602 34.306654 -1.682781 -26.045869 -16.352603 -68.041225 
1.2500000000000000 -16.170088 -122.239707 -1.213449 28.353868 -1.689342 -31.719232 -16.337978 -72.954389 
1.2549999999999999 -16.290673 -126.415292 -1.207230 22.496528 -1.697600 -37.386083 -16.443879 -78.094594 
1.2600000000000000 -16.444265 -130.990001 -1.197649 16.625811 -1.695582 -43.196199 -16.712464 -82.831903 
1.2649999999999999 -16.670746 -135.584647 -1.198001 10.667126 -1.688918 -48.895587 -17.029462 -87.710864 
1.2700000000000000 -16.983351 -141.283019 -1.188430 4.765138 -1.691978 -54.605566 -17.408457 -91.920607 
1.2749999999999999 -17.360957 -147.121909 -1.180995 -1.097814 -1.692675 -60.396637 -17.807661 -95.735619 
1.2800000000000000 -17.961670 -154.165459 -1.173107 -7.046571 -1.685844 -66.198971 -18.187799 -100.226777 
1.2849999999999999 -18.675659 -161.826167 -1.162996 -12.937530 -1.680985 -71.933431 -18.504925 -104.757899 
1.2900000000000000 -19.535639 -169.638078 -1.167904 -18.875180 -1.691412 -77.761762 -18.815410 -110.199152 
1.2949999999999999 -20.458641 -178.211670 -1.149404 -24.795631 -1.680947 -83.578498 -19.134808 -116.153621 
1.3000000000000000 -21.518137 173.682516 -1.153517 -30.788418 -1.679513 -89.325338 -19.443223 -123.518364 
1.3049999999999999 -22.494361 164.870823 -1.141602 -36.749452 -1.684829 -95.135621 -19.860240 -131.036608 
1.3100000000000001 -23.195589 157.051014 -1.136769 -42.792528 -1.673437 -100.935732 -20.222124 -138.806482 
1.3149999999999999 -23.568334 149.114818 -1.152210 -48.642030 -1.670793 -106.771917 -20.600298 -145.785072 
1.3200000000000001 -23.594259 141.878700 -1.152877 -54.672151 -1.676749 -112.588703 -20.790376 -152.458542 
1.3250000000000000 -23.159711 133.730232 -1.150566 -60.591358 -1.678809 -118.312825 -20.884789 -158.406658 
1.3300000000000001 -22.697332 125.443057 -1.169749 -66.530311 -1.677958 -124.146591 -20.877577 -164.244591 
1.3350000000000000 -22.015111 117.434132 -1.167893 -72.449338 -1.677344 -129.988881 -20.618141 -169.710060 
1.3400000000000001 -21.424797 110.817672 -1.169715 -78.325963 -1.686651 -135.731193 -20.354446 -175.453222 
1.3450000000000000 -20.856147 103.891747 -1.171211 -84.261733 -1.691203 -141.512385 -20.090281 178.462701 
1.3500000000000001 -20.421339 97.595707 -1.184065 -90.180352 -1.692364 -147.339456 -19.879774 172.576865 
1.3550000000000000 -20.112499 92.762120 -1.190063 -96.016875 -1.696365 -153.081318 -19.736005 166.880157 
1.3600000000000001 -19.856811 88.585206 -1.200420 -102.064752 -1.696858 -158.847564 -19.765814 161.338994 
1.3650000000000000 -19.618765 85.063514 -1.214296 -107.956111 -1.709420 -164.666650 -19.898927 157.144653 
1.3700000000000001 -19.306057 81.128496 -1.226344 -113.847990 -1.707954 -170.417653 -20.146611 153.522431 
1.3750000000000000 -19.102904 77.197307 -1.224409 -119.724154 -1.704422 -176.286831 -20.391637 151.090639 
1.3799999999999999 -19.029313 72.589891 -1.247167 -125.655469 -1.715154 177.946003 -20.637717 148.310517 
1.3850000000000000 -18.959368 67.230401 -1.247984 -131.522056 -1.716276 172.184457 -20.745928 145.685038 
1.3899999999999999 -19.144133 60.882299 -1.261028 -137.349463 -1.730899 166.410965 -20.942787 142.459630 
1.3950000000000000 -19.518603 53.763281 -1.270408 -143.300921 -1.736898 160.691815 -21.216652 137.600141 
1.3999999999999999 -20.165668 46.228796 -1.272838 -149.114013 -1.735992 154.869455 -21.526405 132.333982 
1.4050000000000000 -21.032702 38.150038 -1.277260 -155.034866 -1.733109 149.087130 -22.196613 126.109938 
1.4099999999999999 -22.169992 29.323053 -1.279561 -160.920499 -1.730384 143.328560 -23.061070 119.965274 
1.4150000000000000 -23.462008 21.975539 -1.291780 -166.803280 -1.736957 137.521168 -24.055947 112.151336 
1.4199999999999999 -24.935359 12.464574 -1.292084 -172.685983 -1.738866 131.687290 -25.310261 105.965589 
1.4250000000000000 -26.238543 3.718508 -1.314194 -178.553567 -1.723447 125.904780 -26.648856 99.060210 
1.4299999999999999 -27.443226 -6.875294 -1.322096 175.510103 -1.738993 120.068388 -27.760318 92.363928 
1.4350000000000001 -28.264213 -17.060285 -1.325086 169.571644 -1.742060 114.203969 -28.428329 85.224631 
1.4399999999999999 -28.662631 -27.717833 -1.340819 163.692213 -1.753074 108.454570 -28.456716 76.788305 
1.4450000000000001 -28.386626 -37.986111 -1.350351 157.856071 -1.752539 102.637177 -28.144807 66.369670 
1.4500000000000000 -28.017142 -47.739440 -1.370432 151.993630 -1.767040 96.764050 -27.519070 54.505194 
1.4550000000000001 -27.324367 -54.478263 -1.383542 146.070508 -1.765113 90.994190 -26.726097 43.712524 
1.4600000000000000 -26.694177 -59.357456 -1.400063 140.214945 -1.774549 85.243664 -26.079680 32.488239 
1.4650000000000001 -25.973766 -63.917164 -1.403711 134.468101 -1.798209 79.403334 -25.636639 22.796322 
1.4700000000000000 -25.201688 -66.336006 -1.411208 128.532593 -1.792759 73.634478 -25.412596 15.063874 
1.4750000000000001 -24.409546 -68.327387 -1.422852 122.734855 -1.788878 67.845518 -25.411538 9.921926 
1.4800000000000000 -23.549509 -70.476040 -1.429555 116.935640 -1.794540 62.036899 -25.529478 7.531857 
1.4850000000000001 -22.736865 -72.833410 -1.433672 111.056911 -1.801650 56.285469 -25.573519 7.256343 
1.4900000000000000 -22.093819 -76.476461 -1.442220 105.238460 -1.807441 50.528809 -25.392516 8.187034 
1.4950000000000001 -21.623868 -81.022852 -1.438166 99.449768 -1.817061 44.727184 -25.123311 9.167430 
1.5000000000000000 -21.322347 -86.125998 -1.445444 93.593598 -1.816436 38.982937 -24.587876 9.022057 
1.5049999999999999 -21.356627 -91.602282 -1.444129 87.783909 -1.822434 33.273142 -24.179724 5.712002 
1.5100000000000000 -21.622381 -97.540677 -1.449734 82.030020 -1.829644 27.527513 -24.036225 0.963593 
1.5149999999999999 -22.233227 -103.342478 -1.435286 76.146360 -1.827108 21.782577 -24.413357 -3.870143 
1.5200000000000000 -23.126229 -109.020396 -1.438737 70.380598 -1.816908 16.064413 -25.074986 -10.359192 
1.5249999999999999 -24.330473 -114.408966 -1.441633 64.510472 -1.822501 10.297710 -26.161558 -16.494338 
1.5300000000000000 -25.704572 -119.471183 -1.424087 58.664572 -1.815886 4.450443 -27.842836 -22.630444 
1.5349999999999999 -27.428763 -124.859996 -1.424656 52.809123 -1.816346 -1.383782 -30.180184 -27.375322 
1.5400000000000000 -29.400772 -131.021467 -1.419019 46.927870 -1.807967 -7.141037 -32.992830 -33.774609 
1.5449999999999999 -31.769825 -140.344963 -1.411350 40.998222 -1.817982 -12.966501 -36.597897 -39.964927 
1.5500000000000000 -34.444396 -152.199992 -1.417201 35.207700 -1.816308 -18.803659 -41.254499 -53.388943 
1.5549999999999999 -37.281369 -178.425501 -1.420122 29.299203 -1.821763 -24.619401 -45.898146 -102.211782 
1.5600000000000001 -38.503033 147.974148 -1.412776 23.408496 -1.828358 -30.374506 -41.704397 -153.376224 
1.5649999999999999 -37.328386 117.833571 -1.429844 17.500115 -1.834930 -36.214592 -36.838876 -167.924865 
1.5700000000000001 -36.122177 101.798172 -1.428300 11.575095 -1.832176 -41.952706 -33.698851 -174.521292 
1.5750000000000000 -35.603335 93.031655 -1.425289 5.668977 -1.835345 -47.786900 -31.290903 177.725970 
1.5800000000000001 -34.645792 97.190140 -1.429009 -0.154590 -1.830320 -53.579975 -29.638407 173.295198 
1.5850000000000000 -33.816978 103.772849 -1.434502 -6.046141 -1.855982 -59.372649 -28.658511 169.493850 
1.5900000000000001 -32.521158 115.423523 -1.437892 -11.959004 -1.852797 -65.112549 -28.104803 166.157151 
1.5950000000000000 -30.237302 120.981729 -1.456058 -17.773895 -1.853293 -70.968893 -27.957708 166.318215 
1.6000000000000001 -28.250249 123.961977 -1.451770 -23.644173 -1.856242 -76.792952 -27.737703 165.888181 
1.6050000000000000 -26.702391 121.118229 -1.449823 -29.501930 -1.861799 -82.504146 -27.670476 168.538201 
1.6100000000000001 -25.395634 117.824947 -1.441962 -35.437132 -1.868468 -88.369307 -27.437878 169.473763 
1.6150000000000000 -24.687175 113.368436 -1.460938 -41.206941 -1.868190 -94.157757 -27.237293 171.009725 
1.6200000000000001 -24.477290 109.327262 -1.463250 -47.256923 -1.886046 -99.970226 -26.914864 170.898530 
1.6250000000000000 -24.585781 106.379084 -1.463669 -53.108995 -1.881526 -105.760767 -26.874977 169.935445 
1.6299999999999999 -24.973025 104.120349 -1.472446 -59.060754 -1.891323 -111.608449 -26.944769 168.350612 
1.6350000000000000 -25.535179 104.293400 -1.458047 -64.806693 -1.889494 -117.368913 -27.156606 165.985508 
1.6399999999999999 -26.229119 106.106540 -1.478108 -70.806609 -1.903794 -123.197364 -27.424077 162.356326 
1.6450000000000000 -26.641640 108.022916 -1.487259 -76.657297 -1.902245 -129.020478 -27.783233 158.255270 
1.6499999999999999 -27.087446 109.586159 -1.488228 -82.595437 -1.905582 -134.793682 -28.018311 152.274771 
1.6550000000000000 -27.874440 109.202447 -1.498983 -88.451786 -1.914154 -140.617507 -28.212058 141.838580 
1.6599999999999999 -28.986207 108.970772 -1.497132 -94.308522 -1.921420 -146.404920 -28.333077 129.993651 
1.6650000000000000 -30.535100 107.177843 -1.499200 -100.183482 -1.924200 -152.241354 -28.288426 113.909180 
1.6699999999999999 -33.162745 107.954422 -1.507717 -106.069676 -1.931580 -158.046101 -27.883889 96.899245 
1.6750000000000000 -37.901971 119.019593 -1.523647 -111.992949 -1.939447 -163.839915 -27.360078 78.797587 
1.6799999999999999 -41.452727 164.447196 -1.533797 -117.866688 -1.955076 -169.689083 -26.654902 63.801925 
1.6850000000000001 -37.141228 -158.099660 -1.529752 -123.787231 -1.952987 -175.496180 -25.952493 50.042269 
1.6899999999999999 -33.817686 -152.694979 -1.540472 -129.622721 -1.962403 178.726484 -25.538237 38.778636 
1.6950000000000001 -32.065067 -155.740864 -1.551320 -135.478932 -1.971997 173.000722 -25.264340 31.047586 
1.7000000000000000 -31.678350 -162.322087 -1.575977 -141.354598 -1.981705 167.217449 -25.211878 26.622051 
1.7050000000000001 -32.131777 -170.721035 -1.576172 -147.169922 -1.993398 161.484366 -25.151003 24.235945 
1.7100000000000000 -33.949696 -177.810389 -1.581554 -152.957431 -2.001691 155.695255 -25.015907 24.241414 
1.7150000000000001 -37.220021 170.499843 -1.595116 -158.776803 -1.999007 149.956179 -24.555721 25.277582 
1.7200000000000000 -44.180761 149.379336 -1.601072 -164.588881 -2.002181 144.231957 -23.957564 25.230663 
1.7250000000000001 -48.615540 26.451384 -1.607102 -170.379956 -2.005325 138.519014 -23.420695 23.978779 
1.7300000000000000 -39.828286 -0.616091 -1.608168 -176.304621 -2.006980 132.749984 -23.055114 21.574666 
1.7350000000000001 -35.730683 -7.538751 -1.608177 177.882718 -2.022150 126.990395 -22.815765 19.472056 
1.7400000000000000 -32.917395 -9.601818 -1.625479 172.138551 -2.021406 121.230180 -22.929242 16.954135 
1.7450000000000001 -30.976428 -8.867577 -1.622966 166.256681 -2.015329 115.502877 -23.159328 15.433558 
1.7500000000000000 -29.470788 -9.083848 -1.635402 160.390195 -2.025624 109.732236 -23.342360 15.693954 
1.7549999999999999 -27.988551 -8.125454 -1.633086 154.659040 -2.033118 103.984255 -23.388303 16.660282 
1.7600000000000000 -26.773799 -9.845178 -1.644710 148.830770 -2.035206 98.203555 -23.266436 16.883416 
1.7649999999999999 -25.882450 -12.403509 -1.642459 142.951387 -2.031384 92.499439 -22.783416 15.700941 
1.7700000000000000 -25.324982 -16.973837 -1.650295 137.157952 -2.034061 86.712053 -22.313187 11.545456 
1.7749999999999999 -25.215554 -21.363763 -1.641735 131.417420 -2.036695 80.891651 -21.955022 5.040527 
1.7800000000000000 -25.567599 -25.128682 -1.645665 125.556593 -2.035799 75.178357 -21.705704 -3.467987 
1.7849999999999999 -26.318826 -28.543125 -1.627383 119.696751 -2.034315 69.373602 -21.725886 -13.711637 
1.7900000000000000 -27.646041 -30.490529 -1.626322 113.831251 -2.034298 63.599015 -21.955888 -25.621064 
1.7949999999999999 -29.452415 -28.154179 -1.623028 108.004363 -2.025890 57.830558 -22.406314 -37.551540 
1.8000000000000000 -31.261806 -19.947779 -1.621831 102.098145 -2.028280 51.945850 -23.049463 -49.719150 
1.8049999999999999 -32.376121 -7.107836 -1.637769 96.066693 -2.027785 46.147791 -23.876736 -60.233519 
1.8100000000000001 -32.438407 7.129275 -1.629693 90.229923 -2.019220 40.317974 -24.730800 -69.365448 
1.8149999999999999 -31.798050 14.917725 -1.623939 84.432455 -2.018098 34.481143 -25.713912 -76.616204 
1.8200000000000001 -31.185384 18.808858 -1.637552 78.543907 -2.041050 28.645587 -26.443727 -80.660283 
1.8250000000000000 -31.178267 17.097499 -1.639175 72.628213 -2.028831 22.807087 -27.163600 -81.920663 
1.8300000000000001 -31.541037 14.588239 -1.622400 66.748000 -2.031348 17.049457 -27.423500 -81.016150 
1.8350000000000000 -32.421042 7.087360 -1.624637 60.954614 -2.050242 11.137988 -27.184891 -80.801046 
1.8400000000000001 -33.800036 -5.019002 -1.625789 55.073615 -2.046440 5.443482 -26.774649 -80.020740 
1.8450000000000000 -35.665101 -23.633076 -1.643195 49.210572 -2.049868 -0.369728 -26.457308 -80.596623 
1.8500000000000001 -36.764116 -56.529720 -1.633698 43.373223 -2.067022 -6.187816 -26.094149 -81.094296 
1.8550000000000000 -35.341722 -92.855219 -1.632793 37.477629 -2.069170 -11.955279 -25.704608 -82.213852 
1.8600000000000001 -32.607072 -119.108299 -1.636005 31.656320 -2.058554 -17.713098 -25.395222 -82.682755 
1.8650000000000000 -29.948671 -135.483422 -1.640623 25.746108 -2.079525 -23.450910 -24.955834 -85.013007 
1.8700000000000001 -27.902157 -148.271400 -1.645651 20.020302 -2.065375 -29.202386 -24.568750 -88.363215 
1.8750000000000000 -26.572828 -158.153608 -1.642086 14.085426 -2.070342 -34.916213 -24.303223 -92.773913 
1.8799999999999999 -25.761349 -167.803456 -1.634146 8.255158 -2.074553 -40.708460 -24.175762 -99.468714 
1.8850000000000000 -25.422358 -175.054562 -1.630463 2.348622 -2.066659 -46.438485 -24.212632 -107.288169 
1.8899999999999999 -25.595926 178.624080 -1.634299 -3.471804 -2.062314 -52.244999 -24.610872 -116.749533 
1.8950000000000000 -26.222681 174.016053 -1.625219 -9.326106 -2.071563 -58.015318 -25.126634 -127.815667 
1.8999999999999999 -27.262267 171.315380 -1.633508 -15.260116 -2.079665 -63.809503 -25.878214 -139.842044 
1.9050000000000000 -28.647595 172.343787 -1.641566 -21.091045 -2.069843 -69.614589 -26.670470 -152.361481 
1.9099999999999999 -30.106831 176.816392 -1.638242 -27.008864 -2.079576 -75.423333 -27.324305 -167.359630 
1.9150000000000000 -31.610011 -172.235198 -1.655731 -32.805143 -2.074838 -81.222104 -27.704510 178.386608 
1.9199999999999999 -32.689039 -159.030802 -1.651094 -38.710336 -2.073357 -86.988382 -27.716862 164.744410 
