!
! C:\Users\Aljaz\OneDrive - Univerza v Ljubljani\DOKTORAT\NOVI TG\PIN AGC ATT\meritve_BAP64Q\Vctrl_3V.S2P
!
! Touchstone 1.1 file saved by VNA.EXE V1.65 (www.ke5fx.com/gpib/readme.htm)
! 22. 10. 2022 12:14:29
!
!    Source: HP8510C.07.14: Aug 26  1998 
!  Min freq: 1.000000E+009 Hz
!  Max freq: 5.000000E+009 Hz
!    Points: 801
!    Params: S11 S21 S12 S22
!
!!!!!
# GHZ S DB R 50
1.0000000000000000 -13.114283 168.416527 -3.911882 -36.154439 -4.243397 -99.363930 -13.725370 -144.948671 
1.0049999999999999 -13.197847 164.033209 -3.889001 -42.327251 -4.208091 -105.442827 -14.014864 -149.694925 
1.0100000000000000 -13.382944 159.310444 -3.892886 -48.296111 -4.199841 -111.453862 -14.284535 -154.248959 
1.0149999999999999 -13.617430 154.448507 -3.882953 -54.291643 -4.201942 -117.300796 -14.636885 -159.019017 
1.0200000000000000 -13.871980 149.751174 -3.902530 -60.064099 -4.210694 -123.167183 -14.938161 -164.120651 
1.0249999999999999 -14.169558 144.590870 -3.897979 -66.014151 -4.200333 -128.886347 -15.271995 -169.790433 
1.0300000000000000 -14.484553 139.630872 -3.898106 -71.917568 -4.200707 -134.751333 -15.639431 -175.805030 
1.0349999999999999 -14.766043 134.035506 -3.920975 -77.800330 -4.211218 -140.527996 -15.983332 177.281942 
1.0400000000000000 -15.063116 128.349285 -3.908437 -83.696755 -4.200429 -146.231277 -16.322486 169.670828 
1.0449999999999999 -15.336776 121.693892 -3.926176 -89.535618 -4.204688 -152.036502 -16.662985 161.629065 
1.0500000000000000 -15.530835 114.969696 -3.920692 -95.348820 -4.193423 -157.814993 -16.975349 153.284506 
1.0549999999999999 -15.702736 107.919117 -3.922335 -101.208669 -4.175242 -163.561309 -17.185001 145.448903 
1.0600000000000001 -15.869199 100.463778 -3.929348 -107.105763 -4.165421 -169.507703 -17.336040 137.294521 
1.0649999999999999 -16.008442 93.148892 -3.924328 -112.951857 -4.162253 -175.219947 -17.293788 129.803723 
1.0700000000000001 -16.083341 85.766157 -3.922571 -118.851582 -4.153510 178.860385 -17.212915 122.353831 
1.0750000000000000 -16.149370 78.880450 -3.923457 -124.769684 -4.158053 172.952342 -16.976198 115.761758 
1.0800000000000001 -16.150527 72.521769 -3.914784 -130.769911 -4.160702 167.062722 -16.696699 109.190043 
1.0850000000000000 -16.084800 66.566611 -3.933941 -136.592923 -4.172129 161.269176 -16.415342 103.051015 
1.0900000000000001 -16.007115 61.211101 -3.940386 -142.569182 -4.179575 155.420475 -16.173323 96.748780 
1.0950000000000000 -15.892321 55.777272 -3.941656 -148.482482 -4.179047 149.589820 -15.914403 91.280984 
1.1000000000000001 -15.725163 50.826041 -3.957802 -154.302008 -4.189072 143.784074 -15.730875 86.036703 
1.1050000000000000 -15.619575 45.923118 -3.970056 -160.166724 -4.197895 137.876967 -15.645730 80.833696 
1.1100000000000001 -15.502089 40.776991 -3.982793 -166.059011 -4.192517 132.115784 -15.589251 76.246409 
1.1150000000000000 -15.470206 35.305999 -3.974834 -171.893344 -4.206298 126.288697 -15.582087 71.952404 
1.1200000000000001 -15.562704 30.184705 -3.982495 -177.753713 -4.203859 120.355074 -15.624867 67.852754 
1.1250000000000000 -15.663055 25.030679 -3.978429 176.412285 -4.216755 114.554473 -15.641642 63.696529 
1.1299999999999999 -15.973078 19.865398 -3.980709 170.567225 -4.217414 108.670373 -15.741451 59.285097 
1.1350000000000000 -16.271517 14.555258 -3.973166 164.698601 -4.233278 102.840349 -15.877908 54.666883 
1.1399999999999999 -16.660369 9.760751 -3.984603 158.790890 -4.248274 96.949226 -16.094662 49.935240 
1.1450000000000000 -17.036456 4.298829 -3.983144 152.905541 -4.263718 91.131315 -16.306155 44.591889 
1.1499999999999999 -17.371422 -1.275896 -3.989610 146.957102 -4.268723 85.407503 -16.588067 38.869525 
1.1550000000000000 -17.778781 -7.338321 -3.999675 141.131160 -4.272264 79.568295 -16.942327 33.075735 
1.1599999999999999 -18.151279 -13.785162 -4.014859 135.204141 -4.281471 73.726283 -17.258010 27.029120 
1.1650000000000000 -18.518373 -21.463289 -4.017661 129.329855 -4.302186 67.898606 -17.621092 20.681322 
1.1699999999999999 -18.786818 -30.281477 -4.019008 123.465147 -4.304003 62.047375 -17.885641 14.028766 
1.1750000000000000 -19.111979 -38.979382 -4.021712 117.616206 -4.322918 56.278824 -18.068472 7.068151 
1.1799999999999999 -19.372615 -47.859530 -4.026284 111.812246 -4.338187 50.417252 -18.221100 -0.325905 
1.1850000000000001 -19.550644 -56.929323 -4.023623 105.932420 -4.343433 44.616743 -18.311561 -7.952469 
1.1899999999999999 -19.618262 -65.500821 -4.029946 100.048414 -4.353927 38.818937 -18.268261 -15.769291 
1.1950000000000001 -19.583061 -72.867558 -4.019667 94.125394 -4.371146 33.060368 -18.222309 -23.094748 
1.2000000000000000 -19.442316 -79.708351 -4.026893 88.279028 -4.395135 27.251188 -18.183902 -30.253630 
1.2050000000000001 -19.145303 -85.304134 -4.031133 82.331661 -4.399857 21.445227 -18.073185 -36.992453 
1.2100000000000000 -18.816457 -90.509238 -4.047993 76.474030 -4.418258 15.604278 -17.996749 -42.678782 
1.2150000000000001 -18.406579 -95.477247 -4.043677 70.520413 -4.415070 9.865189 -17.860141 -47.963388 
1.2200000000000000 -17.994188 -100.356829 -4.048339 64.665089 -4.439256 4.113656 -17.785736 -52.144912 
1.2250000000000001 -17.619270 -104.831007 -4.044948 58.813146 -4.452889 -1.716954 -17.542412 -56.334594 
1.2300000000000000 -17.323335 -109.631579 -4.063085 52.958426 -4.464461 -7.455355 -17.418464 -60.334256 
1.2350000000000001 -17.165310 -114.053426 -4.058609 47.128179 -4.496756 -13.251947 -17.209476 -64.006313 
1.2400000000000000 -17.104478 -118.527852 -4.039717 41.342928 -4.500675 -18.962253 -17.088776 -68.060986 
1.2450000000000001 -17.076517 -122.789064 -4.042524 35.436673 -4.508937 -24.697357 -17.006196 -72.449402 
1.2500000000000000 -17.180496 -126.573516 -4.045748 29.524081 -4.509388 -30.405354 -17.014467 -76.837405 
1.2549999999999999 -17.284353 -130.487874 -4.036497 23.631609 -4.514378 -36.118926 -17.141350 -81.342318 
1.2600000000000000 -17.530275 -134.798801 -4.029028 17.752612 -4.511947 -41.851531 -17.339144 -85.729127 
1.2649999999999999 -17.794144 -139.229886 -4.018648 11.757641 -4.524655 -47.598684 -17.621326 -90.332398 
1.2700000000000000 -18.135573 -143.743792 -4.028315 5.893459 -4.521909 -53.380537 -17.958551 -94.621884 
1.2749999999999999 -18.581940 -149.489934 -4.020698 0.013890 -4.518665 -59.086691 -18.273362 -98.859084 
1.2800000000000000 -19.193002 -155.996653 -4.009951 -5.822397 -4.509390 -64.772909 -18.687988 -103.406336 
1.2849999999999999 -19.789414 -162.795633 -3.995066 -11.756427 -4.508705 -70.608862 -19.076331 -108.605224 
1.2900000000000000 -20.619454 -170.582826 -3.998055 -17.698967 -4.513741 -76.395168 -19.391854 -114.203960 
1.2949999999999999 -21.484349 -179.146873 -3.995033 -23.729920 -4.515413 -82.183048 -19.715763 -120.796519 
1.3000000000000000 -22.256449 171.833025 -3.987489 -29.666623 -4.523775 -87.962677 -20.114835 -127.634894 
1.3049999999999999 -23.032701 161.932549 -3.981449 -35.609367 -4.503809 -93.764650 -20.440590 -135.167472 
1.3100000000000001 -23.565233 152.443951 -3.986195 -41.612398 -4.515599 -99.596239 -20.680326 -142.966529 
1.3149999999999999 -23.763813 142.508791 -3.984593 -47.596610 -4.504113 -105.388287 -20.972457 -150.613219 
1.3200000000000001 -23.686563 133.247835 -3.993893 -53.464633 -4.505775 -111.172480 -21.074290 -157.777409 
1.3250000000000000 -23.335187 124.417628 -3.996080 -59.410586 -4.511086 -117.019854 -21.093602 -164.597036 
1.3300000000000001 -22.737036 116.338673 -4.008582 -65.339556 -4.509847 -122.784494 -21.138571 -170.972317 
1.3350000000000000 -22.183035 108.667775 -4.007538 -71.241396 -4.517649 -128.556449 -20.938190 -176.898779 
1.3400000000000001 -21.509324 101.981609 -4.010061 -77.186512 -4.532052 -134.426030 -20.702499 177.159841 
1.3450000000000000 -21.032812 95.881316 -4.016000 -83.084010 -4.525624 -140.164649 -20.387499 171.859553 
1.3500000000000001 -20.624166 90.443873 -4.031510 -88.968083 -4.533116 -145.909888 -20.233189 166.367256 
1.3550000000000000 -20.281498 85.821891 -4.039178 -94.930553 -4.533988 -151.714819 -20.153548 161.103555 
1.3600000000000001 -20.060553 81.828811 -4.035728 -100.838971 -4.536583 -157.430025 -20.111656 156.438319 
1.3650000000000000 -19.873829 78.275206 -4.062288 -106.764746 -4.540188 -163.247655 -20.226340 151.901782 
1.3700000000000001 -19.745085 74.729244 -4.067731 -112.631256 -4.546796 -169.076125 -20.439684 148.367497 
1.3750000000000000 -19.565974 70.966738 -4.076256 -118.534600 -4.548223 -174.809577 -20.548916 144.843946 
1.3799999999999999 -19.522367 67.028771 -4.092888 -124.394701 -4.549780 179.385904 -20.856020 141.872847 
1.3850000000000000 -19.657561 62.547863 -4.099305 -130.298167 -4.555113 173.671225 -21.073917 138.829432 
1.3899999999999999 -19.839744 57.266323 -4.121598 -136.086063 -4.568017 167.771553 -21.391055 135.098859 
1.3950000000000000 -20.152557 51.814038 -4.114752 -142.029826 -4.566978 162.059909 -21.745916 130.390144 
1.3999999999999999 -20.698994 45.211051 -4.114306 -147.860678 -4.576023 156.316535 -22.261802 125.087035 
1.4050000000000000 -21.364983 37.979967 -4.132588 -153.781012 -4.581429 150.550245 -22.861080 119.827223 
1.4099999999999999 -22.256171 30.828644 -4.126962 -159.702650 -4.576998 144.703494 -23.617671 112.769418 
1.4150000000000000 -23.179266 22.749569 -4.134095 -165.556251 -4.576635 138.952537 -24.578405 104.940117 
1.4199999999999999 -24.207402 14.386017 -4.148781 -171.503106 -4.575208 133.129978 -25.606493 97.008955 
1.4250000000000000 -25.132198 4.600430 -4.160653 -177.373728 -4.570529 127.324460 -26.592727 88.111062 
1.4299999999999999 -25.867968 -6.201453 -4.172686 176.719029 -4.572609 121.550097 -27.245480 78.892429 
1.4350000000000001 -26.312575 -16.792120 -4.174941 170.741750 -4.584652 115.715294 -27.720333 68.936536 
1.4399999999999999 -26.304418 -27.450792 -4.191910 164.941925 -4.580741 109.911726 -27.850224 58.381015 
1.4450000000000001 -26.079153 -38.541590 -4.209713 159.099048 -4.607129 104.057866 -27.431872 47.546259 
1.4500000000000000 -25.611905 -47.721403 -4.209880 153.175940 -4.602454 98.253182 -26.883827 37.870329 
1.4550000000000001 -25.029943 -54.874899 -4.234862 147.346028 -4.618703 92.458787 -26.119733 28.468611 
1.4600000000000000 -24.474703 -61.737156 -4.261430 141.532869 -4.626617 86.736739 -25.399096 20.299322 
1.4650000000000001 -23.835713 -66.534503 -4.255987 135.682160 -4.639208 80.927046 -24.951758 12.724176 
1.4700000000000000 -23.135165 -70.324449 -4.258895 129.817635 -4.640557 75.116436 -24.569936 6.237667 
1.4750000000000001 -22.684973 -73.824353 -4.281222 123.930620 -4.649124 69.267797 -24.470115 1.409801 
1.4800000000000000 -22.145018 -76.714299 -4.277102 118.169766 -4.663700 63.602167 -24.343833 -2.103360 
1.4850000000000001 -21.616649 -79.499701 -4.287677 112.418466 -4.659648 57.798598 -24.414661 -3.983621 
1.4900000000000000 -21.241824 -83.109561 -4.291205 106.552392 -4.661457 52.021157 -24.375039 -5.099299 
1.4950000000000001 -20.933489 -86.568944 -4.300370 100.640977 -4.664693 46.264050 -24.460795 -6.142939 
1.5000000000000000 -20.804910 -90.290146 -4.303281 94.893044 -4.680183 40.554809 -24.368729 -7.045670 
1.5049999999999999 -20.755930 -94.570977 -4.302932 89.081695 -4.681838 34.782550 -24.337701 -9.613890 
1.5100000000000000 -20.992000 -99.356792 -4.300048 83.280609 -4.682614 29.075573 -24.502797 -13.013324 
1.5149999999999999 -21.418586 -103.721049 -4.300601 77.440391 -4.681349 23.303279 -24.891970 -17.488670 
1.5200000000000000 -21.973817 -108.632739 -4.293961 71.642101 -4.677194 17.563305 -25.554548 -22.596920 
1.5249999999999999 -22.640875 -113.046896 -4.289948 65.778006 -4.668434 11.730197 -26.607174 -28.997145 
1.5300000000000000 -23.567639 -118.580342 -4.285648 59.954243 -4.668307 5.948540 -28.027026 -35.317767 
1.5349999999999999 -24.592717 -124.055734 -4.286944 54.080235 -4.671483 0.170656 -29.773510 -44.207195 
1.5400000000000000 -25.713432 -130.334474 -4.283903 48.192521 -4.669508 -5.663534 -31.817855 -55.772877 
1.5449999999999999 -26.999202 -138.524108 -4.282722 42.350147 -4.669369 -11.401507 -33.979223 -72.022095 
1.5500000000000000 -28.199140 -148.649924 -4.273302 36.469234 -4.668418 -17.287786 -35.735656 -95.231067 
1.5549999999999999 -29.381268 -161.113193 -4.277804 30.599159 -4.692507 -23.070516 -35.385938 -120.592991 
1.5600000000000001 -29.962794 -176.884305 -4.277705 24.710587 -4.680821 -28.911378 -33.659185 -142.264283 
1.5649999999999999 -30.144400 166.888451 -4.281070 18.746328 -4.690488 -34.586795 -31.558314 -155.897920 
1.5700000000000001 -29.821324 153.652963 -4.290813 12.935983 -4.696972 -40.515310 -29.786764 -164.380222 
1.5750000000000000 -29.058133 142.196137 -4.297382 6.985936 -4.700789 -46.235325 -28.245773 -171.517273 
1.5800000000000001 -28.282926 135.879366 -4.299190 1.170371 -4.708331 -52.051839 -27.097956 -176.489262 
1.5850000000000000 -27.234972 132.087354 -4.304204 -4.717884 -4.711838 -57.853054 -26.190102 178.682707 
1.5900000000000001 -26.260263 128.935610 -4.302660 -10.544560 -4.721092 -63.568262 -25.559654 175.073348 
1.5950000000000000 -25.128459 125.571607 -4.312320 -16.456007 -4.722585 -69.354071 -25.125874 172.728488 
1.6000000000000001 -24.158507 123.686151 -4.307752 -22.330317 -4.721640 -75.204174 -24.753764 171.404786 
1.6050000000000000 -23.313830 120.379936 -4.321533 -28.242324 -4.725900 -80.972550 -24.599944 170.188331 
1.6100000000000001 -22.607430 116.798635 -4.320431 -34.070471 -4.730012 -86.697618 -24.439310 169.231385 
1.6150000000000000 -22.141874 113.733315 -4.322870 -39.918075 -4.738547 -92.622841 -24.305159 166.671240 
1.6200000000000001 -21.902761 110.208602 -4.329229 -45.853820 -4.750969 -98.344612 -24.251047 165.335474 
1.6250000000000000 -21.875495 107.170531 -4.345579 -51.713772 -4.757900 -104.122055 -24.328836 162.812624 
1.6299999999999999 -22.021316 104.785541 -4.339588 -57.673572 -4.767002 -109.949482 -24.416789 159.841460 
1.6350000000000000 -22.259288 102.789567 -4.342045 -63.406588 -4.751550 -115.760979 -24.732947 156.018949 
1.6399999999999999 -22.609951 101.078955 -4.356774 -69.528442 -4.768117 -121.624460 -25.071778 151.665405 
1.6450000000000000 -22.982243 99.355447 -4.361156 -75.254675 -4.769739 -127.466128 -25.359912 146.597574 
1.6499999999999999 -23.404496 97.705151 -4.378341 -81.238653 -4.779414 -133.131585 -25.850025 140.071215 
1.6550000000000000 -23.922514 95.112053 -4.362480 -87.057371 -4.785652 -138.952199 -26.083398 131.847624 
1.6599999999999999 -24.626701 91.824681 -4.372502 -92.951819 -4.795667 -144.811665 -26.231712 121.575959 
1.6650000000000000 -25.554949 86.913939 -4.371866 -98.810373 -4.795239 -150.577566 -26.291751 109.929744 
1.6699999999999999 -26.913600 81.331368 -4.378314 -104.724260 -4.796232 -156.404192 -26.071058 97.165645 
1.6750000000000000 -28.512624 74.582196 -4.387062 -110.589615 -4.806801 -162.167052 -25.690273 83.640991 
1.6799999999999999 -30.704479 65.860950 -4.409137 -116.523478 -4.819339 -168.030095 -25.276883 71.105070 
1.6850000000000001 -33.240753 56.124110 -4.404750 -122.383013 -4.818323 -173.821887 -24.710720 61.391794 
1.6899999999999999 -35.422372 40.050890 -4.424693 -128.286671 -4.836288 -179.624682 -24.286501 52.523959 
1.6950000000000001 -37.071591 22.132774 -4.445224 -134.133666 -4.851185 174.566478 -23.816027 45.539585 
1.7000000000000000 -37.476706 5.435099 -4.453353 -139.942464 -4.858545 168.837059 -23.453644 39.982785 
1.7050000000000001 -36.305459 -8.286911 -4.465984 -145.860654 -4.874089 163.074142 -23.073714 36.391016 
1.7100000000000000 -34.327181 -14.439032 -4.469946 -151.605732 -4.881993 157.324213 -22.702749 34.322674 
1.7150000000000001 -32.233601 -18.324010 -4.481485 -157.390273 -4.876158 151.607273 -22.214534 32.249040 
1.7200000000000000 -30.349372 -21.516134 -4.492822 -163.209732 -4.890005 145.870112 -21.797137 29.812567 
1.7250000000000001 -28.602401 -25.641330 -4.487981 -169.037307 -4.896624 140.185574 -21.362910 27.437591 
1.7300000000000000 -27.234136 -28.593205 -4.494382 -174.868251 -4.903349 134.383568 -21.063005 24.370565 
1.7350000000000001 -26.332394 -31.531803 -4.504938 179.274520 -4.898523 128.573654 -20.938984 21.494366 
1.7400000000000000 -25.475001 -33.925179 -4.522720 173.564574 -4.912199 122.906760 -20.896209 18.611198 
1.7450000000000001 -25.005645 -34.773132 -4.510661 167.696893 -4.908021 117.156699 -20.970195 16.050808 
1.7500000000000000 -24.482606 -35.881851 -4.533289 161.939645 -4.918703 111.397564 -21.067583 14.029650 
1.7549999999999999 -24.030336 -36.380452 -4.539147 156.065352 -4.919461 105.649605 -21.186985 12.325244 
1.7600000000000000 -23.733857 -37.394998 -4.541459 150.319141 -4.933260 99.907710 -21.263893 10.059970 
1.7649999999999999 -23.520430 -39.017138 -4.545606 144.498854 -4.930613 94.229789 -21.190642 7.554724 
1.7700000000000000 -23.362891 -41.403502 -4.542931 138.738586 -4.923663 88.489566 -21.087382 3.442826 
1.7749999999999999 -23.479071 -44.592838 -4.536759 132.927583 -4.932243 82.661834 -21.021591 -1.644931 
1.7800000000000000 -23.747872 -47.943379 -4.533504 127.064977 -4.917324 76.901271 -20.961319 -8.113186 
1.7849999999999999 -24.317323 -51.928535 -4.534821 121.204345 -4.928273 71.110614 -21.066571 -15.964741 
1.7900000000000000 -25.116901 -55.881635 -4.516403 115.356250 -4.916213 65.379938 -21.240849 -24.381568 
1.7949999999999999 -26.213827 -59.973760 -4.511229 109.449980 -4.904042 59.579208 -21.531455 -32.930092 
1.8000000000000000 -27.807928 -63.669106 -4.510813 103.597136 -4.885808 53.678190 -21.916635 -41.849564 
1.8049999999999999 -29.494006 -67.914946 -4.524290 97.625961 -4.908008 47.928403 -22.385934 -50.359433 
1.8100000000000001 -31.425506 -72.080802 -4.524712 91.663478 -4.902403 41.967902 -22.704057 -57.644953 
1.8149999999999999 -33.551794 -77.009657 -4.518039 85.887134 -4.907207 36.139558 -23.065670 -63.622756 
1.8200000000000001 -35.695877 -85.764959 -4.525171 79.923970 -4.922779 30.346947 -23.326182 -68.372398 
1.8250000000000000 -37.246666 -99.640609 -4.534971 74.062704 -4.918454 24.491369 -23.380988 -72.544368 
1.8300000000000001 -37.750267 -119.696490 -4.532883 68.213361 -4.945184 18.686056 -23.376246 -76.313286 
1.8350000000000000 -36.620940 -137.421531 -4.529721 62.410055 -4.945435 12.885073 -23.271330 -79.354124 
1.8400000000000001 -34.958769 -150.472660 -4.538513 56.559759 -4.963103 7.158423 -23.095422 -82.704242 
1.8450000000000000 -32.846133 -157.927419 -4.542950 50.617086 -4.951474 1.335887 -22.971418 -85.777358 
1.8500000000000001 -30.984067 -163.616803 -4.552218 44.845474 -4.974373 -4.391099 -22.875989 -88.411059 
1.8550000000000000 -29.208386 -167.014369 -4.544753 39.095502 -4.967408 -10.195686 -22.824001 -91.691447 
1.8600000000000001 -27.594988 -169.756314 -4.552025 33.181030 -4.970068 -15.843239 -22.745879 -94.201402 
1.8650000000000000 -26.323806 -173.492601 -4.552183 27.401073 -4.977365 -21.663197 -22.766292 -97.532085 
1.8700000000000001 -25.132811 -176.827284 -4.542820 21.517651 -4.967127 -27.343611 -22.703827 -100.957658 
1.8750000000000000 -24.234257 179.206374 -4.538335 15.707665 -4.964600 -33.094424 -22.788295 -104.542666 
1.8799999999999999 -23.680563 174.794087 -4.543429 9.884762 -4.972223 -38.830674 -22.964492 -109.969443 
1.8850000000000000 -23.392251 170.332183 -4.539251 4.013556 -4.974996 -44.625108 -23.021424 -116.267464 
1.8899999999999999 -23.489950 166.156275 -4.534611 -1.930752 -4.977823 -50.390796 -23.406287 -123.502086 
1.8950000000000000 -23.743283 162.778092 -4.526024 -7.761189 -4.977185 -56.085006 -23.801161 -131.946199 
1.8999999999999999 -24.207172 159.656962 -4.536268 -13.616573 -4.969817 -61.891063 -24.315983 -141.240890 
1.9050000000000000 -25.011143 157.344358 -4.538794 -19.536205 -4.969099 -67.753842 -24.854986 -151.647470 
1.9099999999999999 -25.956427 155.741886 -4.547583 -25.424514 -4.968308 -73.537558 -25.309498 -161.745276 
1.9150000000000000 -27.004589 155.170323 -4.549801 -31.274636 -4.970094 -79.319056 -25.617828 -173.192032 
1.9199999999999999 -28.210706 155.305601 -4.541885 -37.167808 -4.986184 -85.148192 -25.658037 175.788923 
